Time [s],Channel 0,Channel 1
2023-12-19T08:02:45.743857000+00:00,0,0
2023-12-19T08:02:45.804482280+00:00,1,0
2023-12-19T08:02:45.804532320+00:00,0,0
2023-12-19T08:02:45.863828760+00:00,0,1
2023-12-19T08:02:45.863829240+00:00,0,0
2023-12-19T08:02:46.004481680+00:00,1,0
2023-12-19T08:02:46.004531680+00:00,0,0
2023-12-19T08:02:46.085828600+00:00,0,1
2023-12-19T08:02:46.085841040+00:00,0,0
2023-12-19T08:02:46.204481040+00:00,1,0
2023-12-19T08:02:46.204531080+00:00,0,0
2023-12-19T08:02:46.265805040+00:00,0,1
2023-12-19T08:02:46.265817440+00:00,0,0
2023-12-19T08:02:46.404480440+00:00,1,0
2023-12-19T08:02:46.404530440+00:00,0,0
2023-12-19T08:02:46.468054800+00:00,0,1
2023-12-19T08:02:46.468055280+00:00,0,0
2023-12-19T08:02:46.604479800+00:00,1,0
2023-12-19T08:02:46.604529840+00:00,0,0
2023-12-19T08:02:46.655818160+00:00,0,1
2023-12-19T08:02:46.655830560+00:00,0,0
2023-12-19T08:02:46.804479200+00:00,1,0
2023-12-19T08:02:46.804529200+00:00,0,0
2023-12-19T08:02:46.865822520+00:00,0,1
2023-12-19T08:02:46.865834920+00:00,0,0
2023-12-19T08:02:47.004478560+00:00,1,0
2023-12-19T08:02:47.004528600+00:00,0,0
2023-12-19T08:02:47.045834840+00:00,0,1
2023-12-19T08:02:47.045847240+00:00,0,0
2023-12-19T08:02:47.204477960+00:00,1,0
2023-12-19T08:02:47.204527960+00:00,0,0
2023-12-19T08:02:47.255860840+00:00,0,1
2023-12-19T08:02:47.255873240+00:00,0,0
2023-12-19T08:02:47.404477320+00:00,1,0
2023-12-19T08:02:47.404527360+00:00,0,0
2023-12-19T08:02:47.470006120+00:00,0,1
2023-12-19T08:02:47.470006600+00:00,0,0
2023-12-19T08:02:47.604476720+00:00,1,0
2023-12-19T08:02:47.604526720+00:00,0,0
2023-12-19T08:02:47.645844280+00:00,0,1
2023-12-19T08:02:47.645856680+00:00,0,0
2023-12-19T08:02:47.804476080+00:00,1,0
2023-12-19T08:02:47.804526080+00:00,0,0
2023-12-19T08:02:47.862525360+00:00,0,1
2023-12-19T08:02:47.862525800+00:00,0,0
2023-12-19T08:02:48.004475480+00:00,1,0
2023-12-19T08:02:48.004525480+00:00,0,0
2023-12-19T08:02:48.095869040+00:00,0,1
2023-12-19T08:02:48.095881480+00:00,0,0
2023-12-19T08:02:48.204474840+00:00,1,0
2023-12-19T08:02:48.204524840+00:00,0,0
2023-12-19T08:02:48.266880320+00:00,0,1
2023-12-19T08:02:48.266880800+00:00,0,0
2023-12-19T08:02:48.404474200+00:00,1,0
2023-12-19T08:02:48.404524240+00:00,0,0
2023-12-19T08:02:48.455883840+00:00,0,1
2023-12-19T08:02:48.455896280+00:00,0,0
2023-12-19T08:02:48.604473600+00:00,1,0
2023-12-19T08:02:48.604523600+00:00,0,0
2023-12-19T08:02:48.665886880+00:00,0,1
2023-12-19T08:02:48.665899280+00:00,0,0
2023-12-19T08:02:48.804472960+00:00,1,0
2023-12-19T08:02:48.804523000+00:00,0,0
2023-12-19T08:02:48.845887600+00:00,0,1
2023-12-19T08:02:48.845900040+00:00,0,0
2023-12-19T08:02:49.004472360+00:00,1,0
2023-12-19T08:02:49.004522360+00:00,0,0
2023-12-19T08:02:49.055890560+00:00,0,1
2023-12-19T08:02:49.055902960+00:00,0,0
2023-12-19T08:02:49.204471720+00:00,1,0
2023-12-19T08:02:49.204521760+00:00,0,0
2023-12-19T08:02:49.265886400+00:00,0,1
2023-12-19T08:02:49.265898840+00:00,0,0
2023-12-19T08:02:49.404471120+00:00,1,0
2023-12-19T08:02:49.404521120+00:00,0,0
2023-12-19T08:02:49.445908320+00:00,0,1
2023-12-19T08:02:49.445920760+00:00,0,0
2023-12-19T08:02:49.604470480+00:00,1,0
2023-12-19T08:02:49.604520520+00:00,0,0
2023-12-19T08:02:49.655942760+00:00,0,1
2023-12-19T08:02:49.655955160+00:00,0,0
2023-12-19T08:02:49.804469880+00:00,1,0
2023-12-19T08:02:49.804519880+00:00,0,0
2023-12-19T08:02:49.865927360+00:00,0,1
2023-12-19T08:02:49.865939800+00:00,0,0
2023-12-19T08:02:50.004469240+00:00,1,0
2023-12-19T08:02:50.004519240+00:00,0,0
2023-12-19T08:02:50.045926280+00:00,0,1
2023-12-19T08:02:50.045938680+00:00,0,0
2023-12-19T08:02:50.204468600+00:00,1,0
2023-12-19T08:02:50.204518640+00:00,0,0
2023-12-19T08:02:50.255929080+00:00,0,1
2023-12-19T08:02:50.255941480+00:00,0,0
2023-12-19T08:02:50.404468000+00:00,1,0
2023-12-19T08:02:50.404518000+00:00,0,0
2023-12-19T08:02:50.495974560+00:00,0,1
2023-12-19T08:02:50.495987000+00:00,0,0
2023-12-19T08:02:50.604467360+00:00,1,0
2023-12-19T08:02:50.604517400+00:00,0,0
2023-12-19T08:02:50.645947400+00:00,0,1
2023-12-19T08:02:50.645959840+00:00,0,0
2023-12-19T08:02:50.804466760+00:00,1,0
2023-12-19T08:02:50.804516760+00:00,0,0
2023-12-19T08:02:50.865384880+00:00,0,1
2023-12-19T08:02:50.865397280+00:00,0,0
2023-12-19T08:02:51.004466120+00:00,1,0
2023-12-19T08:02:51.004516160+00:00,0,0
2023-12-19T08:02:51.085156360+00:00,0,1
2023-12-19T08:02:51.085156800+00:00,0,0
2023-12-19T08:02:51.204465520+00:00,1,0
2023-12-19T08:02:51.204515520+00:00,0,0
2023-12-19T08:02:51.253887840+00:00,0,1
2023-12-19T08:02:51.253888320+00:00,0,0
2023-12-19T08:02:51.404464880+00:00,1,0
2023-12-19T08:02:51.404514920+00:00,0,0
2023-12-19T08:02:51.485975520+00:00,0,1
2023-12-19T08:02:51.485987920+00:00,0,0
2023-12-19T08:02:51.604464280+00:00,1,0
2023-12-19T08:02:51.604514280+00:00,0,0
2023-12-19T08:02:51.665980400+00:00,0,1
2023-12-19T08:02:51.665992800+00:00,0,0
2023-12-19T08:02:51.804463640+00:00,1,0
2023-12-19T08:02:51.804513640+00:00,0,0
2023-12-19T08:02:51.845977160+00:00,0,1
2023-12-19T08:02:51.845989600+00:00,0,0
2023-12-19T08:02:52.004463040+00:00,1,0
2023-12-19T08:02:52.004513040+00:00,0,0
2023-12-19T08:02:52.056020720+00:00,0,1
2023-12-19T08:02:52.056033160+00:00,0,0
2023-12-19T08:02:52.204462400+00:00,1,0
2023-12-19T08:02:52.204512400+00:00,0,0
2023-12-19T08:02:52.268937280+00:00,0,1
2023-12-19T08:02:52.268937760+00:00,0,0
2023-12-19T08:02:52.404461760+00:00,1,0
2023-12-19T08:02:52.404511800+00:00,0,0
2023-12-19T08:02:52.446006240+00:00,0,1
2023-12-19T08:02:52.446018640+00:00,0,0
2023-12-19T08:02:52.604461160+00:00,1,0
2023-12-19T08:02:52.604511160+00:00,0,0
2023-12-19T08:02:52.656007960+00:00,0,1
2023-12-19T08:02:52.656020360+00:00,0,0
2023-12-19T08:02:52.804460520+00:00,1,0
2023-12-19T08:02:52.804510560+00:00,0,0
2023-12-19T08:02:52.875403400+00:00,0,1
2023-12-19T08:02:52.875415840+00:00,0,0
2023-12-19T08:02:53.004459920+00:00,1,0
2023-12-19T08:02:53.004509920+00:00,0,0
2023-12-19T08:02:53.046031120+00:00,0,1
2023-12-19T08:02:53.046043560+00:00,0,0
2023-12-19T08:02:53.204459280+00:00,1,0
2023-12-19T08:02:53.204509280+00:00,0,0
2023-12-19T08:02:53.286077880+00:00,0,1
2023-12-19T08:02:53.286090320+00:00,0,0
2023-12-19T08:02:53.404458640+00:00,1,0
2023-12-19T08:02:53.404508680+00:00,0,0
2023-12-19T08:02:53.475494600+00:00,0,1
2023-12-19T08:02:53.475507000+00:00,0,0
2023-12-19T08:02:53.604458040+00:00,1,0
2023-12-19T08:02:53.604508040+00:00,0,0
2023-12-19T08:02:53.676307360+00:00,0,1
2023-12-19T08:02:53.676319760+00:00,0,0
2023-12-19T08:02:53.804457400+00:00,1,0
2023-12-19T08:02:53.804507440+00:00,0,0
2023-12-19T08:02:53.872830160+00:00,0,1
2023-12-19T08:02:53.872830600+00:00,0,0
2023-12-19T08:02:54.004456800+00:00,1,0
2023-12-19T08:02:54.004506800+00:00,0,0
2023-12-19T08:02:54.066064040+00:00,0,1
2023-12-19T08:02:54.066068440+00:00,0,0
2023-12-19T08:02:54.204456160+00:00,1,0
2023-12-19T08:02:54.204506200+00:00,0,0
2023-12-19T08:02:54.246056200+00:00,0,1
2023-12-19T08:02:54.246060600+00:00,0,0
2023-12-19T08:02:54.404455560+00:00,1,0
2023-12-19T08:02:54.404505560+00:00,0,0
2023-12-19T08:02:54.486134920+00:00,0,1
2023-12-19T08:02:54.486147320+00:00,0,0
2023-12-19T08:02:54.604454920+00:00,1,0
2023-12-19T08:02:54.604504920+00:00,0,0
2023-12-19T08:02:54.681611320+00:00,0,1
2023-12-19T08:02:54.681611800+00:00,0,0
2023-12-19T08:02:54.804454280+00:00,1,0
2023-12-19T08:02:54.804504320+00:00,0,0
2023-12-19T08:02:54.850283440+00:00,0,1
2023-12-19T08:02:54.850283920+00:00,0,0
2023-12-19T08:02:55.004453680+00:00,1,0
2023-12-19T08:02:55.004503680+00:00,0,0
2023-12-19T08:02:55.075422960+00:00,0,1
2023-12-19T08:02:55.075435400+00:00,0,0
2023-12-19T08:02:55.204453040+00:00,1,0
2023-12-19T08:02:55.204503080+00:00,0,0
2023-12-19T08:02:55.296090760+00:00,0,1
2023-12-19T08:02:55.296095160+00:00,0,0
2023-12-19T08:02:55.404452440+00:00,1,0
2023-12-19T08:02:55.404502440+00:00,0,0
2023-12-19T08:02:55.457880800+00:00,0,1
2023-12-19T08:02:55.457881240+00:00,0,0
2023-12-19T08:02:55.604451800+00:00,1,0
2023-12-19T08:02:55.604501800+00:00,0,0
2023-12-19T08:02:55.678932440+00:00,0,1
2023-12-19T08:02:55.678932920+00:00,0,0
2023-12-19T08:02:55.804451160+00:00,1,0
2023-12-19T08:02:55.804501200+00:00,0,0
2023-12-19T08:02:55.866137080+00:00,0,1
2023-12-19T08:02:55.866141480+00:00,0,0
2023-12-19T08:02:56.004450560+00:00,1,0
2023-12-19T08:02:56.004500560+00:00,0,0
2023-12-19T08:02:56.070152680+00:00,0,1
2023-12-19T08:02:56.070153160+00:00,0,0
2023-12-19T08:02:56.204449920+00:00,1,0
2023-12-19T08:02:56.204499960+00:00,0,0
2023-12-19T08:02:56.256124840+00:00,0,1
2023-12-19T08:02:56.256129240+00:00,0,0
2023-12-19T08:02:56.404449320+00:00,1,0
2023-12-19T08:02:56.404499320+00:00,0,0
2023-12-19T08:02:56.466147560+00:00,0,1
2023-12-19T08:02:56.466151960+00:00,0,0
2023-12-19T08:02:56.604448680+00:00,1,0
2023-12-19T08:02:56.604498680+00:00,0,0
2023-12-19T08:02:56.646155880+00:00,0,1
2023-12-19T08:02:56.646160280+00:00,0,0
2023-12-19T08:02:56.804448040+00:00,1,0
2023-12-19T08:02:56.804498080+00:00,0,0
2023-12-19T08:02:56.857860040+00:00,0,1
2023-12-19T08:02:56.857860480+00:00,0,0
2023-12-19T08:02:57.004447440+00:00,1,0
2023-12-19T08:02:57.004497440+00:00,0,0
2023-12-19T08:02:57.082961520+00:00,0,1
2023-12-19T08:02:57.082962000+00:00,0,0
2023-12-19T08:02:57.204446800+00:00,1,0
2023-12-19T08:02:57.204496840+00:00,0,0
2023-12-19T08:02:57.276228280+00:00,0,1
2023-12-19T08:02:57.276240720+00:00,0,0
2023-12-19T08:02:57.404446200+00:00,1,0
2023-12-19T08:02:57.404496200+00:00,0,0
2023-12-19T08:02:57.472953360+00:00,0,1
2023-12-19T08:02:57.472953800+00:00,0,0
2023-12-19T08:02:57.604445560+00:00,1,0
2023-12-19T08:02:57.604495560+00:00,0,0
2023-12-19T08:02:57.666187440+00:00,0,1
2023-12-19T08:02:57.666191840+00:00,0,0
2023-12-19T08:02:57.804444920+00:00,1,0
2023-12-19T08:02:57.804494960+00:00,0,0
2023-12-19T08:02:57.861719960+00:00,0,1
2023-12-19T08:02:57.861720400+00:00,0,0
2023-12-19T08:02:58.004444320+00:00,1,0
2023-12-19T08:02:58.004494320+00:00,0,0
2023-12-19T08:02:58.116259440+00:00,0,1
2023-12-19T08:02:58.116271840+00:00,0,0
2023-12-19T08:02:58.204443680+00:00,1,0
2023-12-19T08:02:58.204493720+00:00,0,0
2023-12-19T08:02:58.266238600+00:00,0,1
2023-12-19T08:02:58.266243000+00:00,0,0
2023-12-19T08:02:58.404443080+00:00,1,0
2023-12-19T08:02:58.404493080+00:00,0,0
2023-12-19T08:02:58.446226440+00:00,0,1
2023-12-19T08:02:58.446230880+00:00,0,0
2023-12-19T08:02:58.604442440+00:00,1,0
2023-12-19T08:02:58.604492440+00:00,0,0
2023-12-19T08:02:58.656221080+00:00,0,1
2023-12-19T08:02:58.656225480+00:00,0,0
2023-12-19T08:02:58.804441800+00:00,1,0
2023-12-19T08:02:58.804491840+00:00,0,0
2023-12-19T08:02:58.896271520+00:00,0,1
2023-12-19T08:02:58.896283960+00:00,0,0
2023-12-19T08:02:59.004441200+00:00,1,0
2023-12-19T08:02:59.004491200+00:00,0,0
2023-12-19T08:02:59.046221160+00:00,0,1
2023-12-19T08:02:59.046225560+00:00,0,0
2023-12-19T08:02:59.204440560+00:00,1,0
2023-12-19T08:02:59.204490600+00:00,0,0
2023-12-19T08:02:59.262961560+00:00,0,1
2023-12-19T08:02:59.262962000+00:00,0,0
2023-12-19T08:02:59.404439960+00:00,1,0
2023-12-19T08:02:59.404489960+00:00,0,0
2023-12-19T08:02:59.496284560+00:00,0,1
2023-12-19T08:02:59.496288960+00:00,0,0
2023-12-19T08:02:59.604439320+00:00,1,0
2023-12-19T08:02:59.604489320+00:00,0,0
2023-12-19T08:02:59.651688880+00:00,0,1
2023-12-19T08:02:59.651689360+00:00,0,0
2023-12-19T08:02:59.804438680+00:00,1,0
2023-12-19T08:02:59.804488720+00:00,0,0
2023-12-19T08:02:59.873033240+00:00,0,1
2023-12-19T08:02:59.873033680+00:00,0,0
2023-12-19T08:03:00.004438080+00:00,1,0
2023-12-19T08:03:00.004488080+00:00,0,0
2023-12-19T08:03:00.066271240+00:00,0,1
2023-12-19T08:03:00.066275640+00:00,0,0
2023-12-19T08:03:00.204437440+00:00,1,0
2023-12-19T08:03:00.204487440+00:00,0,0
2023-12-19T08:03:00.276263520+00:00,0,1
2023-12-19T08:03:00.276267920+00:00,0,0
2023-12-19T08:03:00.404436800+00:00,1,0
2023-12-19T08:03:00.404486840+00:00,0,0
2023-12-19T08:03:00.456290160+00:00,0,1
2023-12-19T08:03:00.456294560+00:00,0,0
2023-12-19T08:03:00.604436200+00:00,1,0
2023-12-19T08:03:00.604486200+00:00,0,0
2023-12-19T08:03:00.666319720+00:00,0,1
2023-12-19T08:03:00.666324120+00:00,0,0
2023-12-19T08:03:00.804435560+00:00,1,0
2023-12-19T08:03:00.804485600+00:00,0,0
2023-12-19T08:03:00.876307880+00:00,0,1
2023-12-19T08:03:00.876312280+00:00,0,0
2023-12-19T08:03:01.004434960+00:00,1,0
2023-12-19T08:03:01.004484960+00:00,0,0
2023-12-19T08:03:01.056303400+00:00,0,1
2023-12-19T08:03:01.056307800+00:00,0,0
2023-12-19T08:03:01.204434320+00:00,1,0
2023-12-19T08:03:01.204484320+00:00,0,0
2023-12-19T08:03:01.296354360+00:00,0,1
2023-12-19T08:03:01.296366760+00:00,0,0
2023-12-19T08:03:01.404433680+00:00,1,0
2023-12-19T08:03:01.404483720+00:00,0,0
2023-12-19T08:03:01.446302280+00:00,0,1
2023-12-19T08:03:01.446306680+00:00,0,0
2023-12-19T08:03:01.604433080+00:00,1,0
2023-12-19T08:03:01.604483080+00:00,0,0
2023-12-19T08:03:01.656325720+00:00,0,1
2023-12-19T08:03:01.656330120+00:00,0,0
2023-12-19T08:03:01.804432440+00:00,1,0
2023-12-19T08:03:01.804482440+00:00,0,0
2023-12-19T08:03:01.875779640+00:00,0,1
2023-12-19T08:03:01.875792040+00:00,0,0
2023-12-19T08:03:02.004431800+00:00,1,0
2023-12-19T08:03:02.004481840+00:00,0,0
2023-12-19T08:03:02.076594040+00:00,0,1
2023-12-19T08:03:02.076606480+00:00,0,0
2023-12-19T08:03:02.204431200+00:00,1,0
2023-12-19T08:03:02.204481200+00:00,0,0
2023-12-19T08:03:02.276241680+00:00,0,1
2023-12-19T08:03:02.276242120+00:00,0,0
2023-12-19T08:03:02.404430560+00:00,1,0
2023-12-19T08:03:02.404480600+00:00,0,0
2023-12-19T08:03:02.466329320+00:00,0,1
2023-12-19T08:03:02.466333720+00:00,0,0
2023-12-19T08:03:02.604429920+00:00,1,0
2023-12-19T08:03:02.604479960+00:00,0,0
2023-12-19T08:03:02.676356200+00:00,0,1
2023-12-19T08:03:02.676360600+00:00,0,0
2023-12-19T08:03:02.804429320+00:00,1,0
2023-12-19T08:03:02.804479320+00:00,0,0
2023-12-19T08:03:02.856367800+00:00,0,1
2023-12-19T08:03:02.856372200+00:00,0,0
2023-12-19T08:03:03.004428680+00:00,1,0
2023-12-19T08:03:03.004478720+00:00,0,0
2023-12-19T08:03:03.096427440+00:00,0,1
2023-12-19T08:03:03.096439840+00:00,0,0
2023-12-19T08:03:03.204428080+00:00,1,0
2023-12-19T08:03:03.204478080+00:00,0,0
2023-12-19T08:03:03.246406400+00:00,0,1
2023-12-19T08:03:03.246410800+00:00,0,0
2023-12-19T08:03:03.404427440+00:00,1,0
2023-12-19T08:03:03.404477440+00:00,0,0
2023-12-19T08:03:03.456393640+00:00,0,1
2023-12-19T08:03:03.456398040+00:00,0,0
2023-12-19T08:03:03.604426800+00:00,1,0
2023-12-19T08:03:03.604476840+00:00,0,0
2023-12-19T08:03:03.671670600+00:00,0,1
2023-12-19T08:03:03.671671080+00:00,0,0
2023-12-19T08:03:03.804426200+00:00,1,0
2023-12-19T08:03:03.804476200+00:00,0,0
2023-12-19T08:03:03.846380080+00:00,0,1
2023-12-19T08:03:03.846384480+00:00,0,0
2023-12-19T08:03:04.004425560+00:00,1,0
2023-12-19T08:03:04.004475560+00:00,0,0
2023-12-19T08:03:04.066932800+00:00,0,1
2023-12-19T08:03:04.066933240+00:00,0,0
2023-12-19T08:03:04.204424920+00:00,1,0
2023-12-19T08:03:04.204474960+00:00,0,0
2023-12-19T08:03:04.289227000+00:00,0,1
2023-12-19T08:03:04.289227480+00:00,0,0
2023-12-19T08:03:04.404424320+00:00,1,0
2023-12-19T08:03:04.404474320+00:00,0,0
2023-12-19T08:03:04.449383600+00:00,0,1
2023-12-19T08:03:04.449384040+00:00,0,0
2023-12-19T08:03:04.604423680+00:00,1,0
2023-12-19T08:03:04.604473680+00:00,0,0
2023-12-19T08:03:04.686621040+00:00,0,1
2023-12-19T08:03:04.686625480+00:00,0,0
2023-12-19T08:03:04.804423040+00:00,1,0
2023-12-19T08:03:04.804473080+00:00,0,0
2023-12-19T08:03:04.866434480+00:00,0,1
2023-12-19T08:03:04.866438880+00:00,0,0
2023-12-19T08:03:05.004422440+00:00,1,0
2023-12-19T08:03:05.004472440+00:00,0,0
2023-12-19T08:03:05.046438960+00:00,0,1
2023-12-19T08:03:05.046443360+00:00,0,0
2023-12-19T08:03:05.204421800+00:00,1,0
2023-12-19T08:03:05.204471840+00:00,0,0
2023-12-19T08:03:05.259392880+00:00,0,1
2023-12-19T08:03:05.259393320+00:00,0,0
2023-12-19T08:03:05.404421160+00:00,1,0
2023-12-19T08:03:05.404471200+00:00,0,0
2023-12-19T08:03:05.479483160+00:00,0,1
2023-12-19T08:03:05.479483600+00:00,0,0
2023-12-19T08:03:05.604420560+00:00,1,0
2023-12-19T08:03:05.604470560+00:00,0,0
2023-12-19T08:03:05.676536120+00:00,0,1
2023-12-19T08:03:05.676548520+00:00,0,0
2023-12-19T08:03:05.804419920+00:00,1,0
2023-12-19T08:03:05.804469960+00:00,0,0
2023-12-19T08:03:05.863144040+00:00,0,1
2023-12-19T08:03:05.863144480+00:00,0,0
2023-12-19T08:03:06.004419320+00:00,1,0
2023-12-19T08:03:06.004469320+00:00,0,0
2023-12-19T08:03:06.090506280+00:00,0,1
2023-12-19T08:03:06.090506760+00:00,0,0
2023-12-19T08:03:06.204418680+00:00,1,0
2023-12-19T08:03:06.204468680+00:00,0,0
2023-12-19T08:03:06.262005640+00:00,0,1
2023-12-19T08:03:06.262006120+00:00,0,0
2023-12-19T08:03:06.404418040+00:00,1,0
2023-12-19T08:03:06.404468080+00:00,0,0
2023-12-19T08:03:06.486494200+00:00,0,1
2023-12-19T08:03:06.486498640+00:00,0,0
2023-12-19T08:03:06.604417440+00:00,1,0
2023-12-19T08:03:06.604467440+00:00,0,0
2023-12-19T08:03:06.666498440+00:00,0,1
2023-12-19T08:03:06.666502840+00:00,0,0
2023-12-19T08:03:06.804416800+00:00,1,0
2023-12-19T08:03:06.804466800+00:00,0,0
2023-12-19T08:03:06.868835240+00:00,0,1
2023-12-19T08:03:06.868835720+00:00,0,0
2023-12-19T08:03:07.004416160+00:00,1,0
2023-12-19T08:03:07.004466200+00:00,0,0
2023-12-19T08:03:07.056693080+00:00,0,1
2023-12-19T08:03:07.056697480+00:00,0,0
2023-12-19T08:03:07.204415560+00:00,1,0
2023-12-19T08:03:07.204465560+00:00,0,0
2023-12-19T08:03:07.266522760+00:00,0,1
2023-12-19T08:03:07.266527160+00:00,0,0
2023-12-19T08:03:07.404414920+00:00,1,0
2023-12-19T08:03:07.404464920+00:00,0,0
2023-12-19T08:03:07.446522600+00:00,0,1
2023-12-19T08:03:07.446527000+00:00,0,0
2023-12-19T08:03:07.604414280+00:00,1,0
2023-12-19T08:03:07.604464320+00:00,0,0
2023-12-19T08:03:07.686553240+00:00,0,1
2023-12-19T08:03:07.686565680+00:00,0,0
2023-12-19T08:03:07.804413680+00:00,1,0
2023-12-19T08:03:07.804463680+00:00,0,0
2023-12-19T08:03:07.879567880+00:00,0,1
2023-12-19T08:03:07.879568320+00:00,0,0
2023-12-19T08:03:08.004413040+00:00,1,0
2023-12-19T08:03:08.004463040+00:00,0,0
2023-12-19T08:03:08.076621560+00:00,0,1
2023-12-19T08:03:08.076633960+00:00,0,0
2023-12-19T08:03:08.204412400+00:00,1,0
2023-12-19T08:03:08.204462440+00:00,0,0
2023-12-19T08:03:08.273320960+00:00,0,1
2023-12-19T08:03:08.273321440+00:00,0,0
2023-12-19T08:03:08.404411800+00:00,1,0
2023-12-19T08:03:08.404461800+00:00,0,0
2023-12-19T08:03:08.466555280+00:00,0,1
2023-12-19T08:03:08.466559680+00:00,0,0
2023-12-19T08:03:08.604411160+00:00,1,0
2023-12-19T08:03:08.604461160+00:00,0,0
2023-12-19T08:03:08.676562360+00:00,0,1
2023-12-19T08:03:08.676566760+00:00,0,0
2023-12-19T08:03:08.804410520+00:00,1,0
2023-12-19T08:03:08.804460560+00:00,0,0
2023-12-19T08:03:08.856570880+00:00,0,1
2023-12-19T08:03:08.856575280+00:00,0,0
2023-12-19T08:03:09.004409920+00:00,1,0
2023-12-19T08:03:09.004459920+00:00,0,0
2023-12-19T08:03:09.066581280+00:00,0,1
2023-12-19T08:03:09.066585680+00:00,0,0
2023-12-19T08:03:09.204409280+00:00,1,0
2023-12-19T08:03:09.204459280+00:00,0,0
2023-12-19T08:03:09.246609920+00:00,0,1
2023-12-19T08:03:09.246614320+00:00,0,0
2023-12-19T08:03:09.404408640+00:00,1,0
2023-12-19T08:03:09.404458680+00:00,0,0
2023-12-19T08:03:09.456599760+00:00,0,1
2023-12-19T08:03:09.456604200+00:00,0,0
2023-12-19T08:03:09.604408040+00:00,1,0
2023-12-19T08:03:09.604458040+00:00,0,0
2023-12-19T08:03:09.666593880+00:00,0,1
2023-12-19T08:03:09.666598280+00:00,0,0
2023-12-19T08:03:09.804407400+00:00,1,0
2023-12-19T08:03:09.804457400+00:00,0,0
2023-12-19T08:03:09.846599200+00:00,0,1
2023-12-19T08:03:09.846603600+00:00,0,0
2023-12-19T08:03:10.004406760+00:00,1,0
2023-12-19T08:03:10.004456800+00:00,0,0
2023-12-19T08:03:10.086668040+00:00,0,1
2023-12-19T08:03:10.086680440+00:00,0,0
2023-12-19T08:03:10.204406160+00:00,1,0
2023-12-19T08:03:10.204456160+00:00,0,0
2023-12-19T08:03:10.279648520+00:00,0,1
2023-12-19T08:03:10.279648960+00:00,0,0
2023-12-19T08:03:10.404405520+00:00,1,0
2023-12-19T08:03:10.404455520+00:00,0,0
2023-12-19T08:03:10.449597400+00:00,0,1
2023-12-19T08:03:10.449597840+00:00,0,0
2023-12-19T08:03:10.604404880+00:00,1,0
2023-12-19T08:03:10.604454920+00:00,0,0
