Time [s],Channel 0,Channel 1
2024-01-04T06:24:09.858798000+00:00,0,0
2024-01-04T06:24:10.006981180+00:00,1,0
2024-01-04T06:24:10.007031190+00:00,0,0
2024-01-04T06:24:10.025439900+00:00,0,1
2024-01-04T06:24:10.025440360+00:00,0,0
2024-01-04T06:24:10.256980240+00:00,1,0
2024-01-04T06:24:10.257030260+00:00,0,0
2024-01-04T06:24:10.325528110+00:00,0,1
2024-01-04T06:24:10.325528570+00:00,0,0
2024-01-04T06:24:10.506979310+00:00,1,0
2024-01-04T06:24:10.507029320+00:00,0,0
2024-01-04T06:24:10.535535580+00:00,0,1
2024-01-04T06:24:10.535536030+00:00,0,0
2024-01-04T06:24:10.756978370+00:00,1,0
2024-01-04T06:24:10.757028380+00:00,0,0
2024-01-04T06:24:10.775552480+00:00,0,1
2024-01-04T06:24:10.775552930+00:00,0,0
2024-01-04T06:24:11.006977430+00:00,1,0
2024-01-04T06:24:11.007027450+00:00,0,0
2024-01-04T06:24:11.015584830+00:00,0,1
2024-01-04T06:24:11.015585280+00:00,0,0
2024-01-04T06:24:11.256976500+00:00,1,0
2024-01-04T06:24:11.257026510+00:00,0,0
2024-01-04T06:24:11.345588960+00:00,0,1
2024-01-04T06:24:11.345589410+00:00,0,0
2024-01-04T06:24:11.506975560+00:00,1,0
2024-01-04T06:24:11.507025570+00:00,0,0
2024-01-04T06:24:11.525585060+00:00,0,1
2024-01-04T06:24:11.525585520+00:00,0,0
2024-01-04T06:24:11.756974620+00:00,1,0
2024-01-04T06:24:11.757024640+00:00,0,0
2024-01-04T06:24:11.795607280+00:00,0,1
2024-01-04T06:24:11.795607730+00:00,0,0
2024-01-04T06:24:12.006973690+00:00,1,0
2024-01-04T06:24:12.007023700+00:00,0,0
2024-01-04T06:24:12.035663760+00:00,0,1
2024-01-04T06:24:12.035664220+00:00,0,0
2024-01-04T06:24:12.256972750+00:00,1,0
2024-01-04T06:24:12.257022770+00:00,0,0
2024-01-04T06:24:12.275551920+00:00,0,1
2024-01-04T06:24:12.275552380+00:00,0,0
2024-01-04T06:24:12.506971810+00:00,1,0
2024-01-04T06:24:12.507021830+00:00,0,0
2024-01-04T06:24:12.515636270+00:00,0,1
2024-01-04T06:24:12.515636730+00:00,0,0
2024-01-04T06:24:12.756970870+00:00,1,0
2024-01-04T06:24:12.757020890+00:00,0,0
2024-01-04T06:24:12.815650080+00:00,0,1
2024-01-04T06:24:12.815650540+00:00,0,0
2024-01-04T06:24:13.006969940+00:00,1,0
2024-01-04T06:24:13.007019950+00:00,0,0
2024-01-04T06:24:13.025657700+00:00,0,1
2024-01-04T06:24:13.025658150+00:00,0,0
2024-01-04T06:24:13.256969000+00:00,1,0
2024-01-04T06:24:13.257019020+00:00,0,0
2024-01-04T06:24:13.265701930+00:00,0,1
2024-01-04T06:24:13.265702390+00:00,0,0
2024-01-04T06:24:13.506968060+00:00,1,0
2024-01-04T06:24:13.507018080+00:00,0,0
2024-01-04T06:24:13.535679330+00:00,0,1
2024-01-04T06:24:13.535679790+00:00,0,0
2024-01-04T06:24:13.756967130+00:00,1,0
2024-01-04T06:24:13.757017140+00:00,0,0
2024-01-04T06:24:13.775708910+00:00,0,1
2024-01-04T06:24:13.775709360+00:00,0,0
2024-01-04T06:24:14.006966190+00:00,1,0
2024-01-04T06:24:14.007016210+00:00,0,0
2024-01-04T06:24:14.045718780+00:00,0,1
2024-01-04T06:24:14.045719230+00:00,0,0
2024-01-04T06:24:14.256965250+00:00,1,0
2024-01-04T06:24:14.257015270+00:00,0,0
2024-01-04T06:24:14.285760740+00:00,0,1
2024-01-04T06:24:14.285761190+00:00,0,0
2024-01-04T06:24:14.506964320+00:00,1,0
2024-01-04T06:24:14.507014330+00:00,0,0
2024-01-04T06:24:14.525739220+00:00,0,1
2024-01-04T06:24:14.525739670+00:00,0,0
2024-01-04T06:24:14.756963380+00:00,1,0
2024-01-04T06:24:14.757013390+00:00,0,0
2024-01-04T06:24:14.765748930+00:00,0,1
2024-01-04T06:24:14.765749380+00:00,0,0
2024-01-04T06:24:15.006962440+00:00,1,0
2024-01-04T06:24:15.007012460+00:00,0,0
2024-01-04T06:24:15.035765990+00:00,0,1
2024-01-04T06:24:15.035766440+00:00,0,0
2024-01-04T06:24:15.256961500+00:00,1,0
2024-01-04T06:24:15.257011520+00:00,0,0
2024-01-04T06:24:15.275770870+00:00,0,1
2024-01-04T06:24:15.275771330+00:00,0,0
2024-01-04T06:24:15.506960570+00:00,1,0
2024-01-04T06:24:15.507010580+00:00,0,0
2024-01-04T06:24:15.515814370+00:00,0,1
2024-01-04T06:24:15.515814830+00:00,0,0
2024-01-04T06:24:15.756959630+00:00,1,0
2024-01-04T06:24:15.757009640+00:00,0,0
2024-01-04T06:24:15.785798970+00:00,0,1
2024-01-04T06:24:15.785799420+00:00,0,0
2024-01-04T06:24:16.006958690+00:00,1,0
2024-01-04T06:24:16.007008710+00:00,0,0
2024-01-04T06:24:16.025743800+00:00,0,1
2024-01-04T06:24:16.025744260+00:00,0,0
2024-01-04T06:24:16.256957750+00:00,1,0
2024-01-04T06:24:16.257007770+00:00,0,0
2024-01-04T06:24:16.295398920+00:00,0,1
2024-01-04T06:24:16.295399380+00:00,0,0
2024-01-04T06:24:16.506956810+00:00,1,0
2024-01-04T06:24:16.507006830+00:00,0,0
2024-01-04T06:24:16.535865710+00:00,0,1
2024-01-04T06:24:16.535866160+00:00,0,0
2024-01-04T06:24:16.756955880+00:00,1,0
2024-01-04T06:24:16.757005890+00:00,0,0
2024-01-04T06:24:16.775858040+00:00,0,1
2024-01-04T06:24:16.775858490+00:00,0,0
2024-01-04T06:24:17.006954940+00:00,1,0
2024-01-04T06:24:17.007004950+00:00,0,0
2024-01-04T06:24:17.015429150+00:00,0,1
2024-01-04T06:24:17.015429610+00:00,0,0
2024-01-04T06:24:17.256954000+00:00,1,0
2024-01-04T06:24:17.257004010+00:00,0,0
2024-01-04T06:24:17.285873030+00:00,0,1
2024-01-04T06:24:17.285873480+00:00,0,0
2024-01-04T06:24:17.506953060+00:00,1,0
2024-01-04T06:24:17.507003070+00:00,0,0
2024-01-04T06:24:17.525806630+00:00,0,1
2024-01-04T06:24:17.525807080+00:00,0,0
2024-01-04T06:24:17.756952120+00:00,1,0
2024-01-04T06:24:17.757002140+00:00,0,0
2024-01-04T06:24:17.765919940+00:00,0,1
2024-01-04T06:24:17.765920390+00:00,0,0
2024-01-04T06:24:18.006951180+00:00,1,0
2024-01-04T06:24:18.007001200+00:00,0,0
2024-01-04T06:24:18.035908660+00:00,0,1
2024-01-04T06:24:18.035909110+00:00,0,0
2024-01-04T06:24:18.256950240+00:00,1,0
2024-01-04T06:24:18.257000260+00:00,0,0
2024-01-04T06:24:18.275921180+00:00,0,1
2024-01-04T06:24:18.275921640+00:00,0,0
2024-01-04T06:24:18.506949310+00:00,1,0
2024-01-04T06:24:18.506999320+00:00,0,0
2024-01-04T06:24:18.515940930+00:00,0,1
2024-01-04T06:24:18.515941380+00:00,0,0
2024-01-04T06:24:18.756948370+00:00,1,0
2024-01-04T06:24:18.756998380+00:00,0,0
2024-01-04T06:24:18.785902140+00:00,0,1
2024-01-04T06:24:18.785902590+00:00,0,0
2024-01-04T06:24:19.006947430+00:00,1,0
2024-01-04T06:24:19.006997440+00:00,0,0
2024-01-04T06:24:19.025962460+00:00,0,1
2024-01-04T06:24:19.025962920+00:00,0,0
2024-01-04T06:24:19.256946490+00:00,1,0
2024-01-04T06:24:19.256996500+00:00,0,0
2024-01-04T06:24:19.265973620+00:00,0,1
2024-01-04T06:24:19.265974070+00:00,0,0
2024-01-04T06:24:19.506945550+00:00,1,0
2024-01-04T06:24:19.506995570+00:00,0,0
2024-01-04T06:24:19.535984970+00:00,0,1
2024-01-04T06:24:19.535985420+00:00,0,0
2024-01-04T06:24:19.756944610+00:00,1,0
2024-01-04T06:24:19.756994620+00:00,0,0
2024-01-04T06:24:19.776006140+00:00,0,1
2024-01-04T06:24:19.776006590+00:00,0,0
2024-01-04T06:24:20.006943670+00:00,1,0
2024-01-04T06:24:20.006993680+00:00,0,0
2024-01-04T06:24:20.016030890+00:00,0,1
2024-01-04T06:24:20.016031340+00:00,0,0
2024-01-04T06:24:20.256942730+00:00,1,0
2024-01-04T06:24:20.256992750+00:00,0,0
2024-01-04T06:24:20.286013980+00:00,0,1
2024-01-04T06:24:20.286014440+00:00,0,0
2024-01-04T06:24:20.506941790+00:00,1,0
2024-01-04T06:24:20.506991810+00:00,0,0
2024-01-04T06:24:20.555950380+00:00,0,1
2024-01-04T06:24:20.555950830+00:00,0,0
2024-01-04T06:24:20.756940850+00:00,1,0
2024-01-04T06:24:20.756990870+00:00,0,0
2024-01-04T06:24:20.796036970+00:00,0,1
2024-01-04T06:24:20.796037430+00:00,0,0
2024-01-04T06:24:21.006939910+00:00,1,0
2024-01-04T06:24:21.006989930+00:00,0,0
2024-01-04T06:24:21.036086730+00:00,0,1
2024-01-04T06:24:21.036087190+00:00,0,0
2024-01-04T06:24:21.256938970+00:00,1,0
2024-01-04T06:24:21.256988990+00:00,0,0
2024-01-04T06:24:21.275999090+00:00,0,1
2024-01-04T06:24:21.275999550+00:00,0,0
2024-01-04T06:24:21.506938030+00:00,1,0
2024-01-04T06:24:21.506988050+00:00,0,0
2024-01-04T06:24:21.516084540+00:00,0,1
2024-01-04T06:24:21.516084990+00:00,0,0
2024-01-04T06:24:21.756937090+00:00,1,0
2024-01-04T06:24:21.756987110+00:00,0,0
2024-01-04T06:24:21.786094700+00:00,0,1
2024-01-04T06:24:21.786095150+00:00,0,0
2024-01-04T06:24:22.006936150+00:00,1,0
2024-01-04T06:24:22.006986170+00:00,0,0
2024-01-04T06:24:22.026106780+00:00,0,1
2024-01-04T06:24:22.026107240+00:00,0,0
2024-01-04T06:24:22.256935210+00:00,1,0
2024-01-04T06:24:22.256985230+00:00,0,0
2024-01-04T06:24:22.266143830+00:00,0,1
2024-01-04T06:24:22.266144280+00:00,0,0
2024-01-04T06:24:22.506934270+00:00,1,0
2024-01-04T06:24:22.506984290+00:00,0,0
2024-01-04T06:24:22.536144670+00:00,0,1
2024-01-04T06:24:22.536145130+00:00,0,0
2024-01-04T06:24:22.756933330+00:00,1,0
2024-01-04T06:24:22.756983350+00:00,0,0
2024-01-04T06:24:22.776143990+00:00,0,1
2024-01-04T06:24:22.776144450+00:00,0,0
2024-01-04T06:24:23.006932390+00:00,1,0
2024-01-04T06:24:23.006982410+00:00,0,0
2024-01-04T06:24:23.016164830+00:00,0,1
2024-01-04T06:24:23.016165280+00:00,0,0
2024-01-04T06:24:23.256931450+00:00,1,0
2024-01-04T06:24:23.256981470+00:00,0,0
2024-01-04T06:24:23.316190770+00:00,0,1
2024-01-04T06:24:23.316191220+00:00,0,0
2024-01-04T06:24:23.506930510+00:00,1,0
2024-01-04T06:24:23.506980530+00:00,0,0
2024-01-04T06:24:23.526185760+00:00,0,1
2024-01-04T06:24:23.526186210+00:00,0,0
2024-01-04T06:24:23.756929570+00:00,1,0
2024-01-04T06:24:23.756979590+00:00,0,0
2024-01-04T06:24:23.766200730+00:00,0,1
2024-01-04T06:24:23.766201180+00:00,0,0
2024-01-04T06:24:24.006928630+00:00,1,0
2024-01-04T06:24:24.006978650+00:00,0,0
2024-01-04T06:24:24.036206560+00:00,0,1
2024-01-04T06:24:24.036207010+00:00,0,0
2024-01-04T06:24:24.256927690+00:00,1,0
2024-01-04T06:24:24.256977710+00:00,0,0
2024-01-04T06:24:24.276224960+00:00,0,1
2024-01-04T06:24:24.276225410+00:00,0,0
2024-01-04T06:24:24.506926750+00:00,1,0
2024-01-04T06:24:24.506976770+00:00,0,0
2024-01-04T06:24:24.516178100+00:00,0,1
2024-01-04T06:24:24.516178550+00:00,0,0
2024-01-04T06:24:24.756925810+00:00,1,0
2024-01-04T06:24:24.756975830+00:00,0,0
2024-01-04T06:24:24.786244760+00:00,0,1
2024-01-04T06:24:24.786245210+00:00,0,0
2024-01-04T06:24:25.006924870+00:00,1,0
2024-01-04T06:24:25.006974890+00:00,0,0
2024-01-04T06:24:25.026267230+00:00,0,1
2024-01-04T06:24:25.026267680+00:00,0,0
2024-01-04T06:24:25.256923930+00:00,1,0
2024-01-04T06:24:25.256973950+00:00,0,0
2024-01-04T06:24:25.266276880+00:00,0,1
2024-01-04T06:24:25.266277330+00:00,0,0
2024-01-04T06:24:25.506922990+00:00,1,0
2024-01-04T06:24:25.506973010+00:00,0,0
2024-01-04T06:24:25.536314020+00:00,0,1
2024-01-04T06:24:25.536314470+00:00,0,0
2024-01-04T06:24:25.756922050+00:00,1,0
2024-01-04T06:24:25.756972060+00:00,0,0
2024-01-04T06:24:25.776305330+00:00,0,1
2024-01-04T06:24:25.776305780+00:00,0,0
2024-01-04T06:24:26.006921110+00:00,1,0
2024-01-04T06:24:26.006971120+00:00,0,0
2024-01-04T06:24:26.016231900+00:00,0,1
2024-01-04T06:24:26.016232350+00:00,0,0
2024-01-04T06:24:26.256920170+00:00,1,0
2024-01-04T06:24:26.256970180+00:00,0,0
2024-01-04T06:24:26.286338240+00:00,0,1
2024-01-04T06:24:26.286338690+00:00,0,0
2024-01-04T06:24:26.506919230+00:00,1,0
2024-01-04T06:24:26.506969240+00:00,0,0
2024-01-04T06:24:26.526271700+00:00,0,1
2024-01-04T06:24:26.526272150+00:00,0,0
2024-01-04T06:24:26.756918290+00:00,1,0
2024-01-04T06:24:26.756968300+00:00,0,0
2024-01-04T06:24:26.766369570+00:00,0,1
2024-01-04T06:24:26.766370020+00:00,0,0
2024-01-04T06:24:27.006917350+00:00,1,0
2024-01-04T06:24:27.006967360+00:00,0,0
2024-01-04T06:24:27.036368140+00:00,0,1
2024-01-04T06:24:27.036368590+00:00,0,0
2024-01-04T06:24:27.256916400+00:00,1,0
2024-01-04T06:24:27.256966420+00:00,0,0
2024-01-04T06:24:27.276379800+00:00,0,1
2024-01-04T06:24:27.276380250+00:00,0,0
2024-01-04T06:24:27.506915460+00:00,1,0
2024-01-04T06:24:27.506965480+00:00,0,0
2024-01-04T06:24:27.515864410+00:00,0,1
2024-01-04T06:24:27.515864870+00:00,0,0
2024-01-04T06:24:27.756914520+00:00,1,0
2024-01-04T06:24:27.756964540+00:00,0,0
2024-01-04T06:24:27.786417670+00:00,0,1
2024-01-04T06:24:27.786418130+00:00,0,0
2024-01-04T06:24:28.006913580+00:00,1,0
2024-01-04T06:24:28.006963600+00:00,0,0
2024-01-04T06:24:28.026334420+00:00,0,1
2024-01-04T06:24:28.026334870+00:00,0,0
2024-01-04T06:24:28.256912640+00:00,1,0
2024-01-04T06:24:28.256962650+00:00,0,0
2024-01-04T06:24:28.266425400+00:00,0,1
2024-01-04T06:24:28.266425850+00:00,0,0
2024-01-04T06:24:28.506911700+00:00,1,0
2024-01-04T06:24:28.506961710+00:00,0,0
2024-01-04T06:24:28.536449440+00:00,0,1
2024-01-04T06:24:28.536449900+00:00,0,0
2024-01-04T06:24:28.756910760+00:00,1,0
2024-01-04T06:24:28.756960770+00:00,0,0
2024-01-04T06:24:28.776460280+00:00,0,1
2024-01-04T06:24:28.776460730+00:00,0,0
2024-01-04T06:24:29.006909820+00:00,1,0
2024-01-04T06:24:29.006959830+00:00,0,0
2024-01-04T06:24:29.016497550+00:00,0,1
2024-01-04T06:24:29.016498000+00:00,0,0
2024-01-04T06:24:29.256908870+00:00,1,0
2024-01-04T06:24:29.256958890+00:00,0,0
2024-01-04T06:24:29.286485780+00:00,0,1
2024-01-04T06:24:29.286486230+00:00,0,0
2024-01-04T06:24:29.506907930+00:00,1,0
2024-01-04T06:24:29.506957950+00:00,0,0
2024-01-04T06:24:29.526014730+00:00,0,1
2024-01-04T06:24:29.526015180+00:00,0,0
2024-01-04T06:24:29.756906990+00:00,1,0
2024-01-04T06:24:29.756957010+00:00,0,0
2024-01-04T06:24:29.766499670+00:00,0,1
2024-01-04T06:24:29.766500120+00:00,0,0
2024-01-04T06:24:30.006906050+00:00,1,0
2024-01-04T06:24:30.006956060+00:00,0,0
2024-01-04T06:24:30.036474810+00:00,0,1
2024-01-04T06:24:30.036475260+00:00,0,0
2024-01-04T06:24:30.256905110+00:00,1,0
2024-01-04T06:24:30.256955120+00:00,0,0
2024-01-04T06:24:30.276527370+00:00,0,1
2024-01-04T06:24:30.276527820+00:00,0,0
2024-01-04T06:24:30.506904170+00:00,1,0
2024-01-04T06:24:30.506954180+00:00,0,0
2024-01-04T06:24:30.516067820+00:00,0,1
2024-01-04T06:24:30.516068280+00:00,0,0
2024-01-04T06:24:30.756903230+00:00,1,0
2024-01-04T06:24:30.756953240+00:00,0,0
2024-01-04T06:24:30.786083800+00:00,0,1
2024-01-04T06:24:30.786084260+00:00,0,0
2024-01-04T06:24:31.006902280+00:00,1,0
2024-01-04T06:24:31.006952300+00:00,0,0
2024-01-04T06:24:31.026088810+00:00,0,1
2024-01-04T06:24:31.026089260+00:00,0,0
2024-01-04T06:24:31.256901340+00:00,1,0
2024-01-04T06:24:31.256951360+00:00,0,0
2024-01-04T06:24:31.266514130+00:00,0,1
2024-01-04T06:24:31.266514590+00:00,0,0
2024-01-04T06:24:31.506900400+00:00,1,0
2024-01-04T06:24:31.506950410+00:00,0,0
2024-01-04T06:24:31.536109300+00:00,0,1
2024-01-04T06:24:31.536109750+00:00,0,0
2024-01-04T06:24:31.756899460+00:00,1,0
2024-01-04T06:24:31.756949470+00:00,0,0
2024-01-04T06:24:31.776042340+00:00,0,1
2024-01-04T06:24:31.776042800+00:00,0,0
2024-01-04T06:24:32.006898520+00:00,1,0
2024-01-04T06:24:32.006948530+00:00,0,0
2024-01-04T06:24:32.016128330+00:00,0,1
2024-01-04T06:24:32.016128780+00:00,0,0
2024-01-04T06:24:32.256897570+00:00,1,0
2024-01-04T06:24:32.256947590+00:00,0,0
2024-01-04T06:24:32.286178730+00:00,0,1
2024-01-04T06:24:32.286179180+00:00,0,0
2024-01-04T06:24:32.506896630+00:00,1,0
2024-01-04T06:24:32.506946650+00:00,0,0
2024-01-04T06:24:32.526150740+00:00,0,1
2024-01-04T06:24:32.526151190+00:00,0,0
2024-01-04T06:24:32.756895690+00:00,1,0
2024-01-04T06:24:32.756945700+00:00,0,0
2024-01-04T06:24:32.796171190+00:00,0,1
2024-01-04T06:24:32.796171650+00:00,0,0
2024-01-04T06:24:33.006894750+00:00,1,0
2024-01-04T06:24:33.006944760+00:00,0,0
2024-01-04T06:24:33.036172110+00:00,0,1
2024-01-04T06:24:33.036172570+00:00,0,0
2024-01-04T06:24:33.256893810+00:00,1,0
2024-01-04T06:24:33.256943820+00:00,0,0
2024-01-04T06:24:33.276180710+00:00,0,1
2024-01-04T06:24:33.276181160+00:00,0,0
2024-01-04T06:24:33.506892860+00:00,1,0
2024-01-04T06:24:33.506942880+00:00,0,0
2024-01-04T06:24:33.516218950+00:00,0,1
2024-01-04T06:24:33.516219410+00:00,0,0
2024-01-04T06:24:33.756891920+00:00,1,0
2024-01-04T06:24:33.756941940+00:00,0,0
2024-01-04T06:24:33.786202710+00:00,0,1
2024-01-04T06:24:33.786203160+00:00,0,0
2024-01-04T06:24:34.006890980+00:00,1,0
2024-01-04T06:24:34.006940990+00:00,0,0
2024-01-04T06:24:34.026201930+00:00,0,1
2024-01-04T06:24:34.026202380+00:00,0,0
2024-01-04T06:24:34.256890040+00:00,1,0
2024-01-04T06:24:34.256940050+00:00,0,0
2024-01-04T06:24:34.266221900+00:00,0,1
2024-01-04T06:24:34.266222350+00:00,0,0
2024-01-04T06:24:34.506889100+00:00,1,0
2024-01-04T06:24:34.506939110+00:00,0,0
2024-01-04T06:24:34.536199840+00:00,0,1
2024-01-04T06:24:34.536200290+00:00,0,0
2024-01-04T06:24:34.756888150+00:00,1,0
2024-01-04T06:24:34.756938170+00:00,0,0
2024-01-04T06:24:34.776243280+00:00,0,1
2024-01-04T06:24:34.776243740+00:00,0,0
2024-01-04T06:24:35.006887210+00:00,1,0
2024-01-04T06:24:35.006937230+00:00,0,0
2024-01-04T06:24:35.016253200+00:00,0,1
2024-01-04T06:24:35.016253660+00:00,0,0
2024-01-04T06:24:35.256886270+00:00,1,0
2024-01-04T06:24:35.256936280+00:00,0,0
2024-01-04T06:24:35.286265790+00:00,0,1
2024-01-04T06:24:35.286266250+00:00,0,0
2024-01-04T06:24:35.506885330+00:00,1,0
2024-01-04T06:24:35.506935340+00:00,0,0
2024-01-04T06:24:35.526197900+00:00,0,1
2024-01-04T06:24:35.526198350+00:00,0,0
2024-01-04T06:24:35.756884390+00:00,1,0
2024-01-04T06:24:35.756934400+00:00,0,0
2024-01-04T06:24:35.766321280+00:00,0,1
2024-01-04T06:24:35.766321740+00:00,0,0
2024-01-04T06:24:36.006883440+00:00,1,0
2024-01-04T06:24:36.006933460+00:00,0,0
2024-01-04T06:24:36.036219940+00:00,0,1
2024-01-04T06:24:36.036220390+00:00,0,0
2024-01-04T06:24:36.256882500+00:00,1,0
2024-01-04T06:24:36.256932520+00:00,0,0
2024-01-04T06:24:36.276306420+00:00,0,1
2024-01-04T06:24:36.276306870+00:00,0,0
2024-01-04T06:24:36.506881560+00:00,1,0
2024-01-04T06:24:36.506931570+00:00,0,0
2024-01-04T06:24:36.546322630+00:00,0,1
2024-01-04T06:24:36.546323090+00:00,0,0
2024-01-04T06:24:36.756880620+00:00,1,0
2024-01-04T06:24:36.756930630+00:00,0,0
2024-01-04T06:24:36.786363380+00:00,0,1
2024-01-04T06:24:36.786363830+00:00,0,0
2024-01-04T06:24:37.006879670+00:00,1,0
2024-01-04T06:24:37.006929690+00:00,0,0
2024-01-04T06:24:37.026336120+00:00,0,1
2024-01-04T06:24:37.026336580+00:00,0,0
2024-01-04T06:24:37.256878730+00:00,1,0
2024-01-04T06:24:37.256928740+00:00,0,0
2024-01-04T06:24:37.266346820+00:00,0,1
2024-01-04T06:24:37.266347270+00:00,0,0
2024-01-04T06:24:37.506877790+00:00,1,0
2024-01-04T06:24:37.506927800+00:00,0,0
2024-01-04T06:24:37.536358200+00:00,0,1
2024-01-04T06:24:37.536358650+00:00,0,0
2024-01-04T06:24:37.756876850+00:00,1,0
2024-01-04T06:24:37.756926860+00:00,0,0
2024-01-04T06:24:37.776356980+00:00,0,1
2024-01-04T06:24:37.776357430+00:00,0,0
2024-01-04T06:24:38.006875900+00:00,1,0
2024-01-04T06:24:38.006925920+00:00,0,0
2024-01-04T06:24:38.016329890+00:00,0,1
2024-01-04T06:24:38.016330350+00:00,0,0
2024-01-04T06:24:38.256874960+00:00,1,0
2024-01-04T06:24:38.256924980+00:00,0,0
2024-01-04T06:24:38.286388740+00:00,0,1
2024-01-04T06:24:38.286389190+00:00,0,0
2024-01-04T06:24:38.506874020+00:00,1,0
2024-01-04T06:24:38.506924030+00:00,0,0
2024-01-04T06:24:38.556324690+00:00,0,1
2024-01-04T06:24:38.556325140+00:00,0,0
2024-01-04T06:24:38.756873070+00:00,1,0
2024-01-04T06:24:38.756923090+00:00,0,0
2024-01-04T06:24:38.766396990+00:00,0,1
2024-01-04T06:24:38.766397440+00:00,0,0
2024-01-04T06:24:39.006872130+00:00,1,0
2024-01-04T06:24:39.006922150+00:00,0,0
2024-01-04T06:24:39.036460920+00:00,0,1
2024-01-04T06:24:39.036461370+00:00,0,0
2024-01-04T06:24:39.256871190+00:00,1,0
2024-01-04T06:24:39.256921200+00:00,0,0
2024-01-04T06:24:39.306432500+00:00,0,1
2024-01-04T06:24:39.306432950+00:00,0,0
2024-01-04T06:24:39.506870250+00:00,1,0
2024-01-04T06:24:39.506920260+00:00,0,0
2024-01-04T06:24:39.516439210+00:00,0,1
2024-01-04T06:24:39.516439660+00:00,0,0
2024-01-04T06:24:39.756869300+00:00,1,0
2024-01-04T06:24:39.756919320+00:00,0,0
2024-01-04T06:24:39.816452530+00:00,0,1
2024-01-04T06:24:39.816452990+00:00,0,0
2024-01-04T06:24:40.006868360+00:00,1,0
2024-01-04T06:24:40.006918380+00:00,0,0
2024-01-04T06:24:40.026460800+00:00,0,1
2024-01-04T06:24:40.026461260+00:00,0,0
2024-01-04T06:24:40.256867420+00:00,1,0
2024-01-04T06:24:40.256917430+00:00,0,0
2024-01-04T06:24:40.296424330+00:00,0,1
2024-01-04T06:24:40.296424790+00:00,0,0
2024-01-04T06:24:40.506866480+00:00,1,0
2024-01-04T06:24:40.506916490+00:00,0,0
2024-01-04T06:24:40.536482010+00:00,0,1
2024-01-04T06:24:40.536482470+00:00,0,0
2024-01-04T06:24:40.756865530+00:00,1,0
2024-01-04T06:24:40.756915550+00:00,0,0
2024-01-04T06:24:40.776493260+00:00,0,1
2024-01-04T06:24:40.776493710+00:00,0,0
2024-01-04T06:24:41.006864590+00:00,1,0
2024-01-04T06:24:41.006914610+00:00,0,0
