Time [s],Channel 0,Channel 1
2023-12-12T15:03:32.753638000+00:00,0,0
2023-12-12T15:03:32.883986980+00:00,1,0
2023-12-12T15:03:32.884036990+00:00,0,0
2023-12-12T15:03:32.898717280+00:00,0,1
2023-12-12T15:03:32.898717740+00:00,0,0
2023-12-12T15:03:33.083986270+00:00,1,0
2023-12-12T15:03:33.084036290+00:00,0,0
2023-12-12T15:03:33.098726780+00:00,0,1
2023-12-12T15:03:33.098727230+00:00,0,0
2023-12-12T15:03:33.283985570+00:00,1,0
2023-12-12T15:03:33.284035590+00:00,0,0
2023-12-12T15:03:33.298727250+00:00,0,1
2023-12-12T15:03:33.298727710+00:00,0,0
2023-12-12T15:03:33.483984870+00:00,1,0
2023-12-12T15:03:33.484034890+00:00,0,0
2023-12-12T15:03:33.498748900+00:00,0,1
2023-12-12T15:03:33.498749350+00:00,0,0
2023-12-12T15:03:33.683984170+00:00,1,0
2023-12-12T15:03:33.684034190+00:00,0,0
2023-12-12T15:03:33.698745360+00:00,0,1
2023-12-12T15:03:33.698745820+00:00,0,0
2023-12-12T15:03:33.883983470+00:00,1,0
2023-12-12T15:03:33.884033490+00:00,0,0
2023-12-12T15:03:33.898755640+00:00,0,1
2023-12-12T15:03:33.898756100+00:00,0,0
2023-12-12T15:03:34.083982770+00:00,1,0
2023-12-12T15:03:34.084032780+00:00,0,0
2023-12-12T15:03:34.098756340+00:00,0,1
2023-12-12T15:03:34.098756790+00:00,0,0
2023-12-12T15:03:34.283982070+00:00,1,0
2023-12-12T15:03:34.284032080+00:00,0,0
2023-12-12T15:03:34.348776620+00:00,0,1
2023-12-12T15:03:34.348777070+00:00,0,0
2023-12-12T15:03:34.483981370+00:00,1,0
2023-12-12T15:03:34.484031380+00:00,0,0
2023-12-12T15:03:34.498777120+00:00,0,1
2023-12-12T15:03:34.498777570+00:00,0,0
2023-12-12T15:03:34.683980660+00:00,1,0
2023-12-12T15:03:34.684030680+00:00,0,0
2023-12-12T15:03:34.748798690+00:00,0,1
2023-12-12T15:03:34.748799140+00:00,0,0
2023-12-12T15:03:34.883979960+00:00,1,0
2023-12-12T15:03:34.884029980+00:00,0,0
2023-12-12T15:03:34.898795750+00:00,0,1
2023-12-12T15:03:34.898796210+00:00,0,0
2023-12-12T15:03:35.083979260+00:00,1,0
2023-12-12T15:03:35.084029280+00:00,0,0
2023-12-12T15:03:35.098796260+00:00,0,1
2023-12-12T15:03:35.098796710+00:00,0,0
2023-12-12T15:03:35.283978560+00:00,1,0
2023-12-12T15:03:35.284028570+00:00,0,0
2023-12-12T15:03:35.298815290+00:00,0,1
2023-12-12T15:03:35.298815740+00:00,0,0
2023-12-12T15:03:35.483977860+00:00,1,0
2023-12-12T15:03:35.484027870+00:00,0,0
2023-12-12T15:03:35.498823750+00:00,0,1
2023-12-12T15:03:35.498824210+00:00,0,0
2023-12-12T15:03:35.683977150+00:00,1,0
2023-12-12T15:03:35.684027170+00:00,0,0
2023-12-12T15:03:35.698824220+00:00,0,1
2023-12-12T15:03:35.698824670+00:00,0,0
2023-12-12T15:03:35.883976450+00:00,1,0
2023-12-12T15:03:35.884026470+00:00,0,0
2023-12-12T15:03:35.948852170+00:00,0,1
2023-12-12T15:03:35.948852620+00:00,0,0
2023-12-12T15:03:36.083975750+00:00,1,0
2023-12-12T15:03:36.084025770+00:00,0,0
2023-12-12T15:03:36.148849680+00:00,0,1
2023-12-12T15:03:36.148850140+00:00,0,0
2023-12-12T15:03:36.283975050+00:00,1,0
2023-12-12T15:03:36.284025060+00:00,0,0
2023-12-12T15:03:36.298862980+00:00,0,1
2023-12-12T15:03:36.298863440+00:00,0,0
2023-12-12T15:03:36.483974350+00:00,1,0
2023-12-12T15:03:36.484024360+00:00,0,0
2023-12-12T15:03:36.498875670+00:00,0,1
2023-12-12T15:03:36.498876130+00:00,0,0
2023-12-12T15:03:36.683973640+00:00,1,0
2023-12-12T15:03:36.684023660+00:00,0,0
2023-12-12T15:03:36.698877340+00:00,0,1
2023-12-12T15:03:36.698877790+00:00,0,0
2023-12-12T15:03:36.883972940+00:00,1,0
2023-12-12T15:03:36.884022960+00:00,0,0
2023-12-12T15:03:36.898877880+00:00,0,1
2023-12-12T15:03:36.898878330+00:00,0,0
2023-12-12T15:03:37.083972240+00:00,1,0
2023-12-12T15:03:37.084022260+00:00,0,0
2023-12-12T15:03:37.098905450+00:00,0,1
2023-12-12T15:03:37.098905900+00:00,0,0
2023-12-12T15:03:37.283971540+00:00,1,0
2023-12-12T15:03:37.284021550+00:00,0,0
2023-12-12T15:03:37.298895880+00:00,0,1
2023-12-12T15:03:37.298896330+00:00,0,0
2023-12-12T15:03:37.483970830+00:00,1,0
2023-12-12T15:03:37.484020850+00:00,0,0
2023-12-12T15:03:37.498914830+00:00,0,1
2023-12-12T15:03:37.498915280+00:00,0,0
2023-12-12T15:03:37.683970130+00:00,1,0
2023-12-12T15:03:37.684020150+00:00,0,0
2023-12-12T15:03:37.698924260+00:00,0,1
2023-12-12T15:03:37.698924710+00:00,0,0
2023-12-12T15:03:37.883969430+00:00,1,0
2023-12-12T15:03:37.884019440+00:00,0,0
2023-12-12T15:03:37.898925940+00:00,0,1
2023-12-12T15:03:37.898926390+00:00,0,0
2023-12-12T15:03:38.083968720+00:00,1,0
2023-12-12T15:03:38.084018740+00:00,0,0
2023-12-12T15:03:38.148937220+00:00,0,1
2023-12-12T15:03:38.148937670+00:00,0,0
2023-12-12T15:03:38.283968020+00:00,1,0
2023-12-12T15:03:38.284018040+00:00,0,0
2023-12-12T15:03:38.298939880+00:00,0,1
2023-12-12T15:03:38.298940330+00:00,0,0
2023-12-12T15:03:38.483967320+00:00,1,0
2023-12-12T15:03:38.484017340+00:00,0,0
2023-12-12T15:03:38.548952320+00:00,0,1
2023-12-12T15:03:38.548952780+00:00,0,0
2023-12-12T15:03:38.683966620+00:00,1,0
2023-12-12T15:03:38.684016630+00:00,0,0
2023-12-12T15:03:38.698961750+00:00,0,1
2023-12-12T15:03:38.698962200+00:00,0,0
2023-12-12T15:03:38.883965910+00:00,1,0
2023-12-12T15:03:38.884015930+00:00,0,0
2023-12-12T15:03:38.898961880+00:00,0,1
2023-12-12T15:03:38.898962330+00:00,0,0
2023-12-12T15:03:39.083965210+00:00,1,0
2023-12-12T15:03:39.084015230+00:00,0,0
2023-12-12T15:03:39.098971580+00:00,0,1
2023-12-12T15:03:39.098972030+00:00,0,0
2023-12-12T15:03:39.283964510+00:00,1,0
2023-12-12T15:03:39.284014520+00:00,0,0
2023-12-12T15:03:39.348988300+00:00,0,1
2023-12-12T15:03:39.348988750+00:00,0,0
2023-12-12T15:03:39.483963800+00:00,1,0
2023-12-12T15:03:39.484013820+00:00,0,0
2023-12-12T15:03:39.498998400+00:00,0,1
2023-12-12T15:03:39.498998850+00:00,0,0
2023-12-12T15:03:39.683963100+00:00,1,0
2023-12-12T15:03:39.684013120+00:00,0,0
2023-12-12T15:03:39.749006800+00:00,0,1
2023-12-12T15:03:39.749007260+00:00,0,0
2023-12-12T15:03:39.883962400+00:00,1,0
2023-12-12T15:03:39.884012410+00:00,0,0
2023-12-12T15:03:39.899003310+00:00,0,1
2023-12-12T15:03:39.899003770+00:00,0,0
2023-12-12T15:03:40.083961690+00:00,1,0
2023-12-12T15:03:40.084011710+00:00,0,0
2023-12-12T15:03:40.099014470+00:00,0,1
2023-12-12T15:03:40.099014920+00:00,0,0
2023-12-12T15:03:40.283960990+00:00,1,0
2023-12-12T15:03:40.284011010+00:00,0,0
2023-12-12T15:03:40.299030740+00:00,0,1
2023-12-12T15:03:40.299031200+00:00,0,0
2023-12-12T15:03:40.483960290+00:00,1,0
2023-12-12T15:03:40.484010300+00:00,0,0
2023-12-12T15:03:40.499045360+00:00,0,1
2023-12-12T15:03:40.499045810+00:00,0,0
2023-12-12T15:03:40.683959580+00:00,1,0
2023-12-12T15:03:40.684009600+00:00,0,0
2023-12-12T15:03:40.699041860+00:00,0,1
2023-12-12T15:03:40.699042310+00:00,0,0
2023-12-12T15:03:40.883958880+00:00,1,0
2023-12-12T15:03:40.884008900+00:00,0,0
2023-12-12T15:03:40.899061860+00:00,0,1
2023-12-12T15:03:40.899062320+00:00,0,0
2023-12-12T15:03:41.083958170+00:00,1,0
2023-12-12T15:03:41.084008190+00:00,0,0
2023-12-12T15:03:41.099062330+00:00,0,1
2023-12-12T15:03:41.099062780+00:00,0,0
2023-12-12T15:03:41.283957470+00:00,1,0
2023-12-12T15:03:41.284007490+00:00,0,0
2023-12-12T15:03:41.299063900+00:00,0,1
2023-12-12T15:03:41.299064360+00:00,0,0
2023-12-12T15:03:41.483956770+00:00,1,0
2023-12-12T15:03:41.484006780+00:00,0,0
2023-12-12T15:03:41.499072380+00:00,0,1
2023-12-12T15:03:41.499072830+00:00,0,0
2023-12-12T15:03:41.683956060+00:00,1,0
2023-12-12T15:03:41.684006080+00:00,0,0
2023-12-12T15:03:41.699086020+00:00,0,1
2023-12-12T15:03:41.699086470+00:00,0,0
2023-12-12T15:03:41.883955360+00:00,1,0
2023-12-12T15:03:41.884005370+00:00,0,0
2023-12-12T15:03:41.898967760+00:00,0,1
2023-12-12T15:03:41.898968210+00:00,0,0
2023-12-12T15:03:42.083954650+00:00,1,0
2023-12-12T15:03:42.084004670+00:00,0,0
2023-12-12T15:03:42.149098740+00:00,0,1
2023-12-12T15:03:42.149099190+00:00,0,0
2023-12-12T15:03:42.283953950+00:00,1,0
2023-12-12T15:03:42.284003970+00:00,0,0
2023-12-12T15:03:42.299109450+00:00,0,1
2023-12-12T15:03:42.299109900+00:00,0,0
2023-12-12T15:03:42.483953240+00:00,1,0
2023-12-12T15:03:42.484003260+00:00,0,0
2023-12-12T15:03:42.499108570+00:00,0,1
2023-12-12T15:03:42.499109030+00:00,0,0
2023-12-12T15:03:42.683952540+00:00,1,0
2023-12-12T15:03:42.684002560+00:00,0,0
2023-12-12T15:03:42.699125980+00:00,0,1
2023-12-12T15:03:42.699126430+00:00,0,0
2023-12-12T15:03:42.883951830+00:00,1,0
2023-12-12T15:03:42.884001850+00:00,0,0
2023-12-12T15:03:42.899136750+00:00,0,1
2023-12-12T15:03:42.899137210+00:00,0,0
2023-12-12T15:03:43.083951130+00:00,1,0
2023-12-12T15:03:43.084001150+00:00,0,0
2023-12-12T15:03:43.099150130+00:00,0,1
2023-12-12T15:03:43.099150580+00:00,0,0
2023-12-12T15:03:43.283950430+00:00,1,0
2023-12-12T15:03:43.284000440+00:00,0,0
2023-12-12T15:03:43.299153980+00:00,0,1
2023-12-12T15:03:43.299154430+00:00,0,0
2023-12-12T15:03:43.483949720+00:00,1,0
2023-12-12T15:03:43.483999740+00:00,0,0
2023-12-12T15:03:43.499162370+00:00,0,1
2023-12-12T15:03:43.499162820+00:00,0,0
2023-12-12T15:03:43.683949020+00:00,1,0
2023-12-12T15:03:43.683999030+00:00,0,0
2023-12-12T15:03:43.699163930+00:00,0,1
2023-12-12T15:03:43.699164390+00:00,0,0
2023-12-12T15:03:43.883948310+00:00,1,0
2023-12-12T15:03:43.883998330+00:00,0,0
2023-12-12T15:03:43.899172460+00:00,0,1
2023-12-12T15:03:43.899172910+00:00,0,0
2023-12-12T15:03:44.083947610+00:00,1,0
2023-12-12T15:03:44.083997620+00:00,0,0
2023-12-12T15:03:44.149198860+00:00,0,1
2023-12-12T15:03:44.149199320+00:00,0,0
2023-12-12T15:03:44.283946900+00:00,1,0
2023-12-12T15:03:44.283996920+00:00,0,0
2023-12-12T15:03:44.349192910+00:00,0,1
2023-12-12T15:03:44.349193370+00:00,0,0
2023-12-12T15:03:44.483946200+00:00,1,0
2023-12-12T15:03:44.483996220+00:00,0,0
2023-12-12T15:03:44.499207520+00:00,0,1
2023-12-12T15:03:44.499207980+00:00,0,0
2023-12-12T15:03:44.683945490+00:00,1,0
2023-12-12T15:03:44.683995510+00:00,0,0
2023-12-12T15:03:44.699218120+00:00,0,1
2023-12-12T15:03:44.699218580+00:00,0,0
2023-12-12T15:03:44.883944790+00:00,1,0
2023-12-12T15:03:44.883994800+00:00,0,0
2023-12-12T15:03:44.899213540+00:00,0,1
2023-12-12T15:03:44.899213990+00:00,0,0
2023-12-12T15:03:45.083944080+00:00,1,0
2023-12-12T15:03:45.083994100+00:00,0,0
2023-12-12T15:03:45.099221880+00:00,0,1
2023-12-12T15:03:45.099222330+00:00,0,0
2023-12-12T15:03:45.283943380+00:00,1,0
2023-12-12T15:03:45.283993400+00:00,0,0
2023-12-12T15:03:45.299253840+00:00,0,1
2023-12-12T15:03:45.299254290+00:00,0,0
2023-12-12T15:03:45.483942670+00:00,1,0
2023-12-12T15:03:45.483992690+00:00,0,0
2023-12-12T15:03:45.499250390+00:00,0,1
2023-12-12T15:03:45.499250840+00:00,0,0
2023-12-12T15:03:45.683941970+00:00,1,0
2023-12-12T15:03:45.683991990+00:00,0,0
2023-12-12T15:03:45.749245390+00:00,0,1
2023-12-12T15:03:45.749245850+00:00,0,0
2023-12-12T15:03:45.883941260+00:00,1,0
2023-12-12T15:03:45.883991280+00:00,0,0
2023-12-12T15:03:45.949269640+00:00,0,1
2023-12-12T15:03:45.949270100+00:00,0,0
2023-12-12T15:03:46.083940560+00:00,1,0
2023-12-12T15:03:46.083990570+00:00,0,0
2023-12-12T15:03:46.099267080+00:00,0,1
2023-12-12T15:03:46.099267530+00:00,0,0
2023-12-12T15:03:46.283939850+00:00,1,0
2023-12-12T15:03:46.283989870+00:00,0,0
2023-12-12T15:03:46.299270450+00:00,0,1
2023-12-12T15:03:46.299270910+00:00,0,0
2023-12-12T15:03:46.483939150+00:00,1,0
2023-12-12T15:03:46.483989160+00:00,0,0
2023-12-12T15:03:46.499294490+00:00,0,1
2023-12-12T15:03:46.499294940+00:00,0,0
2023-12-12T15:03:46.683938440+00:00,1,0
2023-12-12T15:03:46.683988460+00:00,0,0
2023-12-12T15:03:46.699299880+00:00,0,1
2023-12-12T15:03:46.699300330+00:00,0,0
2023-12-12T15:03:46.883937740+00:00,1,0
2023-12-12T15:03:46.883987750+00:00,0,0
2023-12-12T15:03:46.899177790+00:00,0,1
2023-12-12T15:03:46.899178240+00:00,0,0
2023-12-12T15:03:47.083937030+00:00,1,0
2023-12-12T15:03:47.083987050+00:00,0,0
2023-12-12T15:03:47.149306210+00:00,0,1
2023-12-12T15:03:47.149306660+00:00,0,0
2023-12-12T15:03:47.283936320+00:00,1,0
2023-12-12T15:03:47.283986340+00:00,0,0
2023-12-12T15:03:47.299318540+00:00,0,1
2023-12-12T15:03:47.299318990+00:00,0,0
2023-12-12T15:03:47.483935620+00:00,1,0
2023-12-12T15:03:47.483985630+00:00,0,0
2023-12-12T15:03:47.499333540+00:00,0,1
2023-12-12T15:03:47.499333990+00:00,0,0
2023-12-12T15:03:47.683934910+00:00,1,0
2023-12-12T15:03:47.683984930+00:00,0,0
2023-12-12T15:03:47.699347950+00:00,0,1
2023-12-12T15:03:47.699348410+00:00,0,0
2023-12-12T15:03:47.883934210+00:00,1,0
2023-12-12T15:03:47.883984220+00:00,0,0
2023-12-12T15:03:47.899344340+00:00,0,1
2023-12-12T15:03:47.899344790+00:00,0,0
2023-12-12T15:03:48.083933500+00:00,1,0
2023-12-12T15:03:48.083983520+00:00,0,0
2023-12-12T15:03:48.099344980+00:00,0,1
2023-12-12T15:03:48.099345430+00:00,0,0
2023-12-12T15:03:48.283932790+00:00,1,0
2023-12-12T15:03:48.283982810+00:00,0,0
2023-12-12T15:03:48.299361440+00:00,0,1
2023-12-12T15:03:48.299361890+00:00,0,0
2023-12-12T15:03:48.483932090+00:00,1,0
2023-12-12T15:03:48.483982100+00:00,0,0
2023-12-12T15:03:48.499373380+00:00,0,1
2023-12-12T15:03:48.499373830+00:00,0,0
2023-12-12T15:03:48.683931380+00:00,1,0
2023-12-12T15:03:48.683981400+00:00,0,0
2023-12-12T15:03:48.749393680+00:00,0,1
2023-12-12T15:03:48.749394130+00:00,0,0
2023-12-12T15:03:48.883930680+00:00,1,0
2023-12-12T15:03:48.883980690+00:00,0,0
2023-12-12T15:03:48.899259260+00:00,0,1
2023-12-12T15:03:48.899259720+00:00,0,0
2023-12-12T15:03:49.083929970+00:00,1,0
2023-12-12T15:03:49.083979990+00:00,0,0
2023-12-12T15:03:49.099278270+00:00,0,1
2023-12-12T15:03:49.099278730+00:00,0,0
2023-12-12T15:03:49.283929260+00:00,1,0
2023-12-12T15:03:49.283979280+00:00,0,0
2023-12-12T15:03:49.349276210+00:00,0,1
2023-12-12T15:03:49.349276670+00:00,0,0
2023-12-12T15:03:49.483928560+00:00,1,0
2023-12-12T15:03:49.483978570+00:00,0,0
2023-12-12T15:03:49.499416070+00:00,0,1
2023-12-12T15:03:49.499416530+00:00,0,0
2023-12-12T15:03:49.683927850+00:00,1,0
2023-12-12T15:03:49.683977870+00:00,0,0
2023-12-12T15:03:49.699416150+00:00,0,1
2023-12-12T15:03:49.699416600+00:00,0,0
2023-12-12T15:03:49.883927140+00:00,1,0
2023-12-12T15:03:49.883977160+00:00,0,0
2023-12-12T15:03:49.899434950+00:00,0,1
2023-12-12T15:03:49.899435400+00:00,0,0
2023-12-12T15:03:50.083926440+00:00,1,0
2023-12-12T15:03:50.083976450+00:00,0,0
2023-12-12T15:03:50.099434110+00:00,0,1
2023-12-12T15:03:50.099434560+00:00,0,0
2023-12-12T15:03:50.283925730+00:00,1,0
2023-12-12T15:03:50.283975750+00:00,0,0
2023-12-12T15:03:50.299431950+00:00,0,1
2023-12-12T15:03:50.299432400+00:00,0,0
2023-12-12T15:03:50.483925020+00:00,1,0
2023-12-12T15:03:50.483975040+00:00,0,0
2023-12-12T15:03:50.499443040+00:00,0,1
2023-12-12T15:03:50.499443500+00:00,0,0
2023-12-12T15:03:50.683924320+00:00,1,0
2023-12-12T15:03:50.683974330+00:00,0,0
2023-12-12T15:03:50.699460430+00:00,0,1
2023-12-12T15:03:50.699460890+00:00,0,0
2023-12-12T15:03:50.883923610+00:00,1,0
2023-12-12T15:03:50.883973630+00:00,0,0
2023-12-12T15:03:50.898983900+00:00,0,1
2023-12-12T15:03:50.898984360+00:00,0,0
2023-12-12T15:03:51.083922900+00:00,1,0
2023-12-12T15:03:51.083972920+00:00,0,0
2023-12-12T15:03:51.098996990+00:00,0,1
2023-12-12T15:03:51.098997440+00:00,0,0
2023-12-12T15:03:51.283922200+00:00,1,0
2023-12-12T15:03:51.283972210+00:00,0,0
2023-12-12T15:03:51.298991090+00:00,0,1
2023-12-12T15:03:51.298991540+00:00,0,0
2023-12-12T15:03:51.483921490+00:00,1,0
2023-12-12T15:03:51.483971510+00:00,0,0
2023-12-12T15:03:51.498995100+00:00,0,1
2023-12-12T15:03:51.498995550+00:00,0,0
2023-12-12T15:03:51.683920780+00:00,1,0
2023-12-12T15:03:51.683970800+00:00,0,0
2023-12-12T15:03:51.698885650+00:00,0,1
2023-12-12T15:03:51.698886100+00:00,0,0
2023-12-12T15:03:51.883920080+00:00,1,0
2023-12-12T15:03:51.883970090+00:00,0,0
2023-12-12T15:03:51.949009940+00:00,0,1
2023-12-12T15:03:51.949010390+00:00,0,0
2023-12-12T15:03:52.083919370+00:00,1,0
2023-12-12T15:03:52.083969390+00:00,0,0
2023-12-12T15:03:52.149060650+00:00,0,1
2023-12-12T15:03:52.149061100+00:00,0,0
2023-12-12T15:03:52.283918660+00:00,1,0
2023-12-12T15:03:52.283968680+00:00,0,0
2023-12-12T15:03:52.299036520+00:00,0,1
2023-12-12T15:03:52.299036970+00:00,0,0
2023-12-12T15:03:52.483917960+00:00,1,0
2023-12-12T15:03:52.483967970+00:00,0,0
2023-12-12T15:03:52.499024110+00:00,0,1
2023-12-12T15:03:52.499024560+00:00,0,0
2023-12-12T15:03:52.683917250+00:00,1,0
2023-12-12T15:03:52.683967270+00:00,0,0
2023-12-12T15:03:52.699029190+00:00,0,1
2023-12-12T15:03:52.699029650+00:00,0,0
2023-12-12T15:03:52.883916540+00:00,1,0
2023-12-12T15:03:52.883966560+00:00,0,0
2023-12-12T15:03:52.899034100+00:00,0,1
2023-12-12T15:03:52.899034560+00:00,0,0
2023-12-12T15:03:53.083915840+00:00,1,0
2023-12-12T15:03:53.083965850+00:00,0,0
2023-12-12T15:03:53.099039130+00:00,0,1
2023-12-12T15:03:53.099039580+00:00,0,0
2023-12-12T15:03:53.283915130+00:00,1,0
2023-12-12T15:03:53.283965140+00:00,0,0
2023-12-12T15:03:53.299053150+00:00,0,1
2023-12-12T15:03:53.299053600+00:00,0,0
2023-12-12T15:03:53.483914420+00:00,1,0
2023-12-12T15:03:53.483964440+00:00,0,0
2023-12-12T15:03:53.499049600+00:00,0,1
2023-12-12T15:03:53.499050050+00:00,0,0
2023-12-12T15:03:53.683913710+00:00,1,0
2023-12-12T15:03:53.683963730+00:00,0,0
2023-12-12T15:03:53.699059050+00:00,0,1
2023-12-12T15:03:53.699059500+00:00,0,0
2023-12-12T15:03:53.883913010+00:00,1,0
2023-12-12T15:03:53.883963020+00:00,0,0
2023-12-12T15:03:53.899055160+00:00,0,1
2023-12-12T15:03:53.899055610+00:00,0,0
2023-12-12T15:03:54.083912300+00:00,1,0
2023-12-12T15:03:54.083962320+00:00,0,0
2023-12-12T15:03:54.099061030+00:00,0,1
2023-12-12T15:03:54.099061480+00:00,0,0
2023-12-12T15:03:54.283911590+00:00,1,0
2023-12-12T15:03:54.283961610+00:00,0,0
2023-12-12T15:03:54.298955220+00:00,0,1
2023-12-12T15:03:54.298955670+00:00,0,0
2023-12-12T15:03:54.483910890+00:00,1,0
2023-12-12T15:03:54.483960900+00:00,0,0
2023-12-12T15:03:54.498968780+00:00,0,1
2023-12-12T15:03:54.498969230+00:00,0,0
2023-12-12T15:03:54.683910180+00:00,1,0
2023-12-12T15:03:54.683960190+00:00,0,0
2023-12-12T15:03:54.698966170+00:00,0,1
2023-12-12T15:03:54.698966630+00:00,0,0
2023-12-12T15:03:54.883909470+00:00,1,0
2023-12-12T15:03:54.883959490+00:00,0,0
2023-12-12T15:03:54.948968210+00:00,0,1
2023-12-12T15:03:54.948968670+00:00,0,0
2023-12-12T15:03:55.083908760+00:00,1,0
2023-12-12T15:03:55.083958780+00:00,0,0
2023-12-12T15:03:55.099103430+00:00,0,1
2023-12-12T15:03:55.099103890+00:00,0,0
2023-12-12T15:03:55.283908060+00:00,1,0
2023-12-12T15:03:55.283958070+00:00,0,0
2023-12-12T15:03:55.299095220+00:00,0,1
2023-12-12T15:03:55.299095670+00:00,0,0
2023-12-12T15:03:55.483907350+00:00,1,0
2023-12-12T15:03:55.483957360+00:00,0,0
2023-12-12T15:03:55.499099370+00:00,0,1
2023-12-12T15:03:55.499099820+00:00,0,0
2023-12-12T15:03:55.683906640+00:00,1,0
2023-12-12T15:03:55.683956650+00:00,0,0
2023-12-12T15:03:55.699121150+00:00,0,1
2023-12-12T15:03:55.699121610+00:00,0,0
2023-12-12T15:03:55.883905930+00:00,1,0
2023-12-12T15:03:55.883955950+00:00,0,0
2023-12-12T15:03:55.899114280+00:00,0,1
2023-12-12T15:03:55.899114730+00:00,0,0
2023-12-12T15:03:56.083905220+00:00,1,0
2023-12-12T15:03:56.083955240+00:00,0,0
2023-12-12T15:03:56.099111310+00:00,0,1
2023-12-12T15:03:56.099111770+00:00,0,0
2023-12-12T15:03:56.283904510+00:00,1,0
2023-12-12T15:03:56.283954530+00:00,0,0
2023-12-12T15:03:56.299115320+00:00,0,1
2023-12-12T15:03:56.299115780+00:00,0,0
2023-12-12T15:03:56.483903810+00:00,1,0
2023-12-12T15:03:56.483953820+00:00,0,0
2023-12-12T15:03:56.549121660+00:00,0,1
2023-12-12T15:03:56.549122120+00:00,0,0
2023-12-12T15:03:56.683903100+00:00,1,0
2023-12-12T15:03:56.683953120+00:00,0,0
2023-12-12T15:03:56.699027240+00:00,0,1
2023-12-12T15:03:56.699027700+00:00,0,0
2023-12-12T15:03:56.883902390+00:00,1,0
2023-12-12T15:03:56.883952410+00:00,0,0
2023-12-12T15:03:56.899028890+00:00,0,1
2023-12-12T15:03:56.899029340+00:00,0,0
2023-12-12T15:03:57.083901680+00:00,1,0
2023-12-12T15:03:57.083951700+00:00,0,0
2023-12-12T15:03:57.099140660+00:00,0,1
2023-12-12T15:03:57.099141120+00:00,0,0
2023-12-12T15:03:57.283900980+00:00,1,0
2023-12-12T15:03:57.283950990+00:00,0,0
2023-12-12T15:03:57.299144310+00:00,0,1
2023-12-12T15:03:57.299144770+00:00,0,0
2023-12-12T15:03:57.483900270+00:00,1,0
2023-12-12T15:03:57.483950290+00:00,0,0
2023-12-12T15:03:57.499148410+00:00,0,1
2023-12-12T15:03:57.499148860+00:00,0,0
2023-12-12T15:03:57.683899560+00:00,1,0
2023-12-12T15:03:57.683949580+00:00,0,0
