Time [s],Channel 0,Channel 1
2023-12-12T14:57:37.845064000+00:00,0,0
2023-12-12T14:57:37.921698800+00:00,1,0
2023-12-12T14:57:37.921748820+00:00,0,0
2023-12-12T14:57:37.964264090+00:00,0,1
2023-12-12T14:57:37.964264550+00:00,0,0
2023-12-12T14:57:38.121698100+00:00,1,0
2023-12-12T14:57:38.121748120+00:00,0,0
2023-12-12T14:57:38.164324580+00:00,0,1
2023-12-12T14:57:38.164325030+00:00,0,0
2023-12-12T14:57:38.321697400+00:00,1,0
2023-12-12T14:57:38.321747410+00:00,0,0
2023-12-12T14:57:38.364279470+00:00,0,1
2023-12-12T14:57:38.364279930+00:00,0,0
2023-12-12T14:57:38.521696690+00:00,1,0
2023-12-12T14:57:38.521746710+00:00,0,0
2023-12-12T14:57:38.564280150+00:00,0,1
2023-12-12T14:57:38.564280600+00:00,0,0
2023-12-12T14:57:38.721695990+00:00,1,0
2023-12-12T14:57:38.721746010+00:00,0,0
2023-12-12T14:57:38.764285340+00:00,0,1
2023-12-12T14:57:38.764285800+00:00,0,0
2023-12-12T14:57:38.921695290+00:00,1,0
2023-12-12T14:57:38.921745300+00:00,0,0
2023-12-12T14:57:38.964307000+00:00,0,1
2023-12-12T14:57:38.964307460+00:00,0,0
2023-12-12T14:57:39.121694580+00:00,1,0
2023-12-12T14:57:39.121744600+00:00,0,0
2023-12-12T14:57:39.164315180+00:00,0,1
2023-12-12T14:57:39.164315630+00:00,0,0
2023-12-12T14:57:39.321693880+00:00,1,0
2023-12-12T14:57:39.321743900+00:00,0,0
2023-12-12T14:57:39.364354710+00:00,0,1
2023-12-12T14:57:39.364355160+00:00,0,0
2023-12-12T14:57:39.521693180+00:00,1,0
2023-12-12T14:57:39.521743190+00:00,0,0
2023-12-12T14:57:39.564308880+00:00,0,1
2023-12-12T14:57:39.564309330+00:00,0,0
2023-12-12T14:57:39.721692480+00:00,1,0
2023-12-12T14:57:39.721742490+00:00,0,0
2023-12-12T14:57:39.764312590+00:00,0,1
2023-12-12T14:57:39.764313050+00:00,0,0
2023-12-12T14:57:39.921691770+00:00,1,0
2023-12-12T14:57:39.921741790+00:00,0,0
2023-12-12T14:57:39.964317910+00:00,0,1
2023-12-12T14:57:39.964318370+00:00,0,0
2023-12-12T14:57:40.121691070+00:00,1,0
2023-12-12T14:57:40.121741090+00:00,0,0
2023-12-12T14:57:40.164332220+00:00,0,1
2023-12-12T14:57:40.164332680+00:00,0,0
2023-12-12T14:57:40.321690370+00:00,1,0
2023-12-12T14:57:40.321740380+00:00,0,0
2023-12-12T14:57:40.414399630+00:00,0,1
2023-12-12T14:57:40.414400080+00:00,0,0
2023-12-12T14:57:40.521689660+00:00,1,0
2023-12-12T14:57:40.521739680+00:00,0,0
2023-12-12T14:57:40.564334720+00:00,0,1
2023-12-12T14:57:40.564335170+00:00,0,0
2023-12-12T14:57:40.721688960+00:00,1,0
2023-12-12T14:57:40.721738980+00:00,0,0
2023-12-12T14:57:40.764342900+00:00,0,1
2023-12-12T14:57:40.764343360+00:00,0,0
2023-12-12T14:57:40.921688260+00:00,1,0
2023-12-12T14:57:40.921738270+00:00,0,0
2023-12-12T14:57:40.964345460+00:00,0,1
2023-12-12T14:57:40.964345920+00:00,0,0
2023-12-12T14:57:41.121687550+00:00,1,0
2023-12-12T14:57:41.121737570+00:00,0,0
2023-12-12T14:57:41.164357200+00:00,0,1
2023-12-12T14:57:41.164357650+00:00,0,0
2023-12-12T14:57:41.321686850+00:00,1,0
2023-12-12T14:57:41.321736870+00:00,0,0
2023-12-12T14:57:41.364358760+00:00,0,1
2023-12-12T14:57:41.364359210+00:00,0,0
2023-12-12T14:57:41.521686150+00:00,1,0
2023-12-12T14:57:41.521736160+00:00,0,0
2023-12-12T14:57:41.564404590+00:00,0,1
2023-12-12T14:57:41.564405050+00:00,0,0
2023-12-12T14:57:41.721685450+00:00,1,0
2023-12-12T14:57:41.721735460+00:00,0,0
2023-12-12T14:57:41.764363700+00:00,0,1
2023-12-12T14:57:41.764364150+00:00,0,0
2023-12-12T14:57:41.921684740+00:00,1,0
2023-12-12T14:57:41.921734760+00:00,0,0
2023-12-12T14:57:41.964368120+00:00,0,1
2023-12-12T14:57:41.964368580+00:00,0,0
2023-12-12T14:57:42.121684040+00:00,1,0
2023-12-12T14:57:42.121734060+00:00,0,0
2023-12-12T14:57:42.164372840+00:00,0,1
2023-12-12T14:57:42.164373310+00:00,0,0
2023-12-12T14:57:42.321683340+00:00,1,0
2023-12-12T14:57:42.321733350+00:00,0,0
2023-12-12T14:57:42.364377190+00:00,0,1
2023-12-12T14:57:42.364377640+00:00,0,0
2023-12-12T14:57:42.521682630+00:00,1,0
2023-12-12T14:57:42.521732650+00:00,0,0
2023-12-12T14:57:42.564382850+00:00,0,1
2023-12-12T14:57:42.564383300+00:00,0,0
2023-12-12T14:57:42.721681930+00:00,1,0
2023-12-12T14:57:42.721731950+00:00,0,0
2023-12-12T14:57:42.764445400+00:00,0,1
2023-12-12T14:57:42.764445850+00:00,0,0
2023-12-12T14:57:42.921681230+00:00,1,0
2023-12-12T14:57:42.921731240+00:00,0,0
2023-12-12T14:57:42.964404110+00:00,0,1
2023-12-12T14:57:42.964404560+00:00,0,0
2023-12-12T14:57:43.121680520+00:00,1,0
2023-12-12T14:57:43.121730540+00:00,0,0
2023-12-12T14:57:43.214404200+00:00,0,1
2023-12-12T14:57:43.214404650+00:00,0,0
2023-12-12T14:57:43.321679820+00:00,1,0
2023-12-12T14:57:43.321729840+00:00,0,0
2023-12-12T14:57:43.414404670+00:00,0,1
2023-12-12T14:57:43.414405120+00:00,0,0
2023-12-12T14:57:43.521679120+00:00,1,0
2023-12-12T14:57:43.521729130+00:00,0,0
2023-12-12T14:57:43.564411770+00:00,0,1
2023-12-12T14:57:43.564412220+00:00,0,0
2023-12-12T14:57:43.721678410+00:00,1,0
2023-12-12T14:57:43.721728430+00:00,0,0
2023-12-12T14:57:43.764413450+00:00,0,1
2023-12-12T14:57:43.764413920+00:00,0,0
2023-12-12T14:57:43.921677710+00:00,1,0
2023-12-12T14:57:43.921727720+00:00,0,0
2023-12-12T14:57:43.964466070+00:00,0,1
2023-12-12T14:57:43.964466530+00:00,0,0
2023-12-12T14:57:44.121677000+00:00,1,0
2023-12-12T14:57:44.121727020+00:00,0,0
2023-12-12T14:57:44.164423550+00:00,0,1
2023-12-12T14:57:44.164424000+00:00,0,0
2023-12-12T14:57:44.321676300+00:00,1,0
2023-12-12T14:57:44.321726320+00:00,0,0
2023-12-12T14:57:44.364427770+00:00,0,1
2023-12-12T14:57:44.364428220+00:00,0,0
2023-12-12T14:57:44.521675600+00:00,1,0
2023-12-12T14:57:44.521725610+00:00,0,0
2023-12-12T14:57:44.564445750+00:00,0,1
2023-12-12T14:57:44.564446200+00:00,0,0
2023-12-12T14:57:44.721674890+00:00,1,0
2023-12-12T14:57:44.721724910+00:00,0,0
2023-12-12T14:57:44.764445380+00:00,0,1
2023-12-12T14:57:44.764445840+00:00,0,0
2023-12-12T14:57:44.921674190+00:00,1,0
2023-12-12T14:57:44.921724200+00:00,0,0
2023-12-12T14:57:44.964445050+00:00,0,1
2023-12-12T14:57:44.964445510+00:00,0,0
2023-12-12T14:57:45.121673480+00:00,1,0
2023-12-12T14:57:45.121723500+00:00,0,0
2023-12-12T14:57:45.214497900+00:00,0,1
2023-12-12T14:57:45.214498360+00:00,0,0
2023-12-12T14:57:45.321672780+00:00,1,0
2023-12-12T14:57:45.321722800+00:00,0,0
2023-12-12T14:57:45.364453680+00:00,0,1
2023-12-12T14:57:45.364454150+00:00,0,0
2023-12-12T14:57:45.521672080+00:00,1,0
2023-12-12T14:57:45.521722090+00:00,0,0
2023-12-12T14:57:45.564459840+00:00,0,1
2023-12-12T14:57:45.564460290+00:00,0,0
2023-12-12T14:57:45.721671370+00:00,1,0
2023-12-12T14:57:45.721721390+00:00,0,0
2023-12-12T14:57:45.764465400+00:00,0,1
2023-12-12T14:57:45.764465850+00:00,0,0
2023-12-12T14:57:45.921670670+00:00,1,0
2023-12-12T14:57:45.921720690+00:00,0,0
2023-12-12T14:57:45.964468970+00:00,0,1
2023-12-12T14:57:45.964469420+00:00,0,0
2023-12-12T14:57:46.121669970+00:00,1,0
2023-12-12T14:57:46.121719980+00:00,0,0
2023-12-12T14:57:46.164482240+00:00,0,1
2023-12-12T14:57:46.164482690+00:00,0,0
2023-12-12T14:57:46.321669260+00:00,1,0
2023-12-12T14:57:46.321719280+00:00,0,0
2023-12-12T14:57:46.364527550+00:00,0,1
2023-12-12T14:57:46.364528000+00:00,0,0
2023-12-12T14:57:46.521668560+00:00,1,0
2023-12-12T14:57:46.521718570+00:00,0,0
2023-12-12T14:57:46.564486430+00:00,0,1
2023-12-12T14:57:46.564486880+00:00,0,0
2023-12-12T14:57:46.721667850+00:00,1,0
2023-12-12T14:57:46.721717870+00:00,0,0
2023-12-12T14:57:46.764490700+00:00,0,1
2023-12-12T14:57:46.764491150+00:00,0,0
2023-12-12T14:57:46.921667150+00:00,1,0
2023-12-12T14:57:46.921717160+00:00,0,0
2023-12-12T14:57:46.964494940+00:00,0,1
2023-12-12T14:57:46.964495410+00:00,0,0
2023-12-12T14:57:47.121666440+00:00,1,0
2023-12-12T14:57:47.121716460+00:00,0,0
2023-12-12T14:57:47.164499160+00:00,0,1
2023-12-12T14:57:47.164499620+00:00,0,0
2023-12-12T14:57:47.321665740+00:00,1,0
2023-12-12T14:57:47.321715750+00:00,0,0
2023-12-12T14:57:47.364505170+00:00,0,1
2023-12-12T14:57:47.364505620+00:00,0,0
2023-12-12T14:57:47.521665030+00:00,1,0
2023-12-12T14:57:47.521715050+00:00,0,0
2023-12-12T14:57:47.564560450+00:00,0,1
2023-12-12T14:57:47.564560910+00:00,0,0
2023-12-12T14:57:47.721664330+00:00,1,0
2023-12-12T14:57:47.721714340+00:00,0,0
2023-12-12T14:57:47.814516740+00:00,0,1
2023-12-12T14:57:47.814517190+00:00,0,0
2023-12-12T14:57:47.921663620+00:00,1,0
2023-12-12T14:57:47.921713640+00:00,0,0
2023-12-12T14:57:48.014520810+00:00,0,1
2023-12-12T14:57:48.014521260+00:00,0,0
2023-12-12T14:57:48.121662920+00:00,1,0
2023-12-12T14:57:48.121712930+00:00,0,0
2023-12-12T14:57:48.164525460+00:00,0,1
2023-12-12T14:57:48.164525920+00:00,0,0
2023-12-12T14:57:48.321662210+00:00,1,0
2023-12-12T14:57:48.321712230+00:00,0,0
2023-12-12T14:57:48.364534160+00:00,0,1
2023-12-12T14:57:48.364534610+00:00,0,0
2023-12-12T14:57:48.521661510+00:00,1,0
2023-12-12T14:57:48.521711520+00:00,0,0
2023-12-12T14:57:48.564535710+00:00,0,1
2023-12-12T14:57:48.564536180+00:00,0,0
2023-12-12T14:57:48.721660800+00:00,1,0
2023-12-12T14:57:48.721710820+00:00,0,0
2023-12-12T14:57:48.764596470+00:00,0,1
2023-12-12T14:57:48.764596920+00:00,0,0
2023-12-12T14:57:48.921660100+00:00,1,0
2023-12-12T14:57:48.921710110+00:00,0,0
2023-12-12T14:57:48.964545990+00:00,0,1
2023-12-12T14:57:48.964546440+00:00,0,0
2023-12-12T14:57:49.121659390+00:00,1,0
2023-12-12T14:57:49.121709410+00:00,0,0
2023-12-12T14:57:49.164551830+00:00,0,1
2023-12-12T14:57:49.164552290+00:00,0,0
2023-12-12T14:57:49.321658690+00:00,1,0
2023-12-12T14:57:49.321708700+00:00,0,0
2023-12-12T14:57:49.364557490+00:00,0,1
2023-12-12T14:57:49.364557940+00:00,0,0
2023-12-12T14:57:49.521657980+00:00,1,0
2023-12-12T14:57:49.521708000+00:00,0,0
2023-12-12T14:57:49.564572760+00:00,0,1
2023-12-12T14:57:49.564573210+00:00,0,0
2023-12-12T14:57:49.721657280+00:00,1,0
2023-12-12T14:57:49.721707290+00:00,0,0
2023-12-12T14:57:49.814639620+00:00,0,1
2023-12-12T14:57:49.814640070+00:00,0,0
2023-12-12T14:57:49.921656570+00:00,1,0
2023-12-12T14:57:49.921706590+00:00,0,0
2023-12-12T14:57:49.964586020+00:00,0,1
2023-12-12T14:57:49.964586470+00:00,0,0
2023-12-12T14:57:50.121655870+00:00,1,0
2023-12-12T14:57:50.121705880+00:00,0,0
2023-12-12T14:57:50.164586660+00:00,0,1
2023-12-12T14:57:50.164587130+00:00,0,0
2023-12-12T14:57:50.321655160+00:00,1,0
2023-12-12T14:57:50.321705180+00:00,0,0
2023-12-12T14:57:50.364587180+00:00,0,1
2023-12-12T14:57:50.364587640+00:00,0,0
2023-12-12T14:57:50.521654460+00:00,1,0
2023-12-12T14:57:50.521704470+00:00,0,0
2023-12-12T14:57:50.564595800+00:00,0,1
2023-12-12T14:57:50.564596250+00:00,0,0
2023-12-12T14:57:50.721653750+00:00,1,0
2023-12-12T14:57:50.721703770+00:00,0,0
2023-12-12T14:57:50.764597670+00:00,0,1
2023-12-12T14:57:50.764598120+00:00,0,0
2023-12-12T14:57:50.921653050+00:00,1,0
2023-12-12T14:57:50.921703060+00:00,0,0
2023-12-12T14:57:50.964645760+00:00,0,1
2023-12-12T14:57:50.964646220+00:00,0,0
2023-12-12T14:57:51.121652340+00:00,1,0
2023-12-12T14:57:51.121702360+00:00,0,0
2023-12-12T14:57:51.164603290+00:00,0,1
2023-12-12T14:57:51.164603750+00:00,0,0
2023-12-12T14:57:51.321651640+00:00,1,0
2023-12-12T14:57:51.321701650+00:00,0,0
2023-12-12T14:57:51.364607670+00:00,0,1
2023-12-12T14:57:51.364608130+00:00,0,0
2023-12-12T14:57:51.521650930+00:00,1,0
2023-12-12T14:57:51.521700950+00:00,0,0
2023-12-12T14:57:51.564612400+00:00,0,1
2023-12-12T14:57:51.564612860+00:00,0,0
2023-12-12T14:57:51.721650230+00:00,1,0
2023-12-12T14:57:51.721700240+00:00,0,0
2023-12-12T14:57:51.764618460+00:00,0,1
2023-12-12T14:57:51.764618920+00:00,0,0
2023-12-12T14:57:51.921649520+00:00,1,0
2023-12-12T14:57:51.921699530+00:00,0,0
2023-12-12T14:57:51.964622440+00:00,0,1
2023-12-12T14:57:51.964622890+00:00,0,0
2023-12-12T14:57:52.121648810+00:00,1,0
2023-12-12T14:57:52.121698830+00:00,0,0
2023-12-12T14:57:52.164675920+00:00,0,1
2023-12-12T14:57:52.164676370+00:00,0,0
2023-12-12T14:57:52.321648110+00:00,1,0
2023-12-12T14:57:52.321698120+00:00,0,0
2023-12-12T14:57:52.364633450+00:00,0,1
2023-12-12T14:57:52.364633900+00:00,0,0
2023-12-12T14:57:52.521647400+00:00,1,0
2023-12-12T14:57:52.521697420+00:00,0,0
2023-12-12T14:57:52.564637430+00:00,0,1
2023-12-12T14:57:52.564637880+00:00,0,0
2023-12-12T14:57:52.721646700+00:00,1,0
2023-12-12T14:57:52.721696710+00:00,0,0
2023-12-12T14:57:52.764646980+00:00,0,1
2023-12-12T14:57:52.764647440+00:00,0,0
2023-12-12T14:57:52.921645990+00:00,1,0
2023-12-12T14:57:52.921696010+00:00,0,0
2023-12-12T14:57:52.964647480+00:00,0,1
2023-12-12T14:57:52.964647930+00:00,0,0
2023-12-12T14:57:53.121645280+00:00,1,0
2023-12-12T14:57:53.121695300+00:00,0,0
2023-12-12T14:57:53.164651720+00:00,0,1
2023-12-12T14:57:53.164652170+00:00,0,0
2023-12-12T14:57:53.321644580+00:00,1,0
2023-12-12T14:57:53.321694590+00:00,0,0
2023-12-12T14:57:53.364713540+00:00,0,1
2023-12-12T14:57:53.364714000+00:00,0,0
2023-12-12T14:57:53.521643870+00:00,1,0
2023-12-12T14:57:53.521693890+00:00,0,0
2023-12-12T14:57:53.614663980+00:00,0,1
2023-12-12T14:57:53.614664440+00:00,0,0
2023-12-12T14:57:53.721643170+00:00,1,0
2023-12-12T14:57:53.721693180+00:00,0,0
2023-12-12T14:57:53.764668700+00:00,0,1
2023-12-12T14:57:53.764669150+00:00,0,0
2023-12-12T14:57:53.921642460+00:00,1,0
2023-12-12T14:57:53.921692480+00:00,0,0
2023-12-12T14:57:53.964672850+00:00,0,1
2023-12-12T14:57:53.964673310+00:00,0,0
2023-12-12T14:57:54.121641750+00:00,1,0
2023-12-12T14:57:54.121691770+00:00,0,0
2023-12-12T14:57:54.164677670+00:00,0,1
2023-12-12T14:57:54.164678120+00:00,0,0
2023-12-12T14:57:54.321641050+00:00,1,0
2023-12-12T14:57:54.321691070+00:00,0,0
2023-12-12T14:57:54.364681900+00:00,0,1
2023-12-12T14:57:54.364682350+00:00,0,0
2023-12-12T14:57:54.521640340+00:00,1,0
2023-12-12T14:57:54.521690360+00:00,0,0
2023-12-12T14:57:54.564737510+00:00,0,1
2023-12-12T14:57:54.564737970+00:00,0,0
2023-12-12T14:57:54.721639640+00:00,1,0
2023-12-12T14:57:54.721689650+00:00,0,0
2023-12-12T14:57:54.764694240+00:00,0,1
2023-12-12T14:57:54.764694700+00:00,0,0
2023-12-12T14:57:54.921638930+00:00,1,0
2023-12-12T14:57:54.921688950+00:00,0,0
2023-12-12T14:57:54.964700460+00:00,0,1
2023-12-12T14:57:54.964700930+00:00,0,0
2023-12-12T14:57:55.121638220+00:00,1,0
2023-12-12T14:57:55.121688240+00:00,0,0
2023-12-12T14:57:55.214705860+00:00,0,1
2023-12-12T14:57:55.214706310+00:00,0,0
2023-12-12T14:57:55.321637520+00:00,1,0
2023-12-12T14:57:55.321687530+00:00,0,0
2023-12-12T14:57:55.414712470+00:00,0,1
2023-12-12T14:57:55.414712930+00:00,0,0
2023-12-12T14:57:55.521636810+00:00,1,0
2023-12-12T14:57:55.521686830+00:00,0,0
2023-12-12T14:57:55.614788970+00:00,0,1
2023-12-12T14:57:55.614789420+00:00,0,0
2023-12-12T14:57:55.721636110+00:00,1,0
2023-12-12T14:57:55.721686120+00:00,0,0
2023-12-12T14:57:55.764720690+00:00,0,1
2023-12-12T14:57:55.764721140+00:00,0,0
2023-12-12T14:57:55.921635400+00:00,1,0
2023-12-12T14:57:55.921685420+00:00,0,0
2023-12-12T14:57:55.964725160+00:00,0,1
2023-12-12T14:57:55.964725610+00:00,0,0
2023-12-12T14:57:56.121634690+00:00,1,0
2023-12-12T14:57:56.121684710+00:00,0,0
2023-12-12T14:57:56.164731020+00:00,0,1
2023-12-12T14:57:56.164731480+00:00,0,0
2023-12-12T14:57:56.321633990+00:00,1,0
2023-12-12T14:57:56.321684000+00:00,0,0
2023-12-12T14:57:56.364734340+00:00,0,1
2023-12-12T14:57:56.364734790+00:00,0,0
2023-12-12T14:57:56.521633280+00:00,1,0
2023-12-12T14:57:56.521683300+00:00,0,0
2023-12-12T14:57:56.564740140+00:00,0,1
2023-12-12T14:57:56.564740610+00:00,0,0
2023-12-12T14:57:56.721632570+00:00,1,0
2023-12-12T14:57:56.721682590+00:00,0,0
2023-12-12T14:57:56.764794720+00:00,0,1
2023-12-12T14:57:56.764795180+00:00,0,0
2023-12-12T14:57:56.921631870+00:00,1,0
2023-12-12T14:57:56.921681880+00:00,0,0
2023-12-12T14:57:56.964750960+00:00,0,1
2023-12-12T14:57:56.964751420+00:00,0,0
2023-12-12T14:57:57.121631160+00:00,1,0
2023-12-12T14:57:57.121681180+00:00,0,0
2023-12-12T14:57:57.164755840+00:00,0,1
2023-12-12T14:57:57.164756300+00:00,0,0
2023-12-12T14:57:57.321630450+00:00,1,0
2023-12-12T14:57:57.321680470+00:00,0,0
2023-12-12T14:57:57.364760870+00:00,0,1
2023-12-12T14:57:57.364761320+00:00,0,0
2023-12-12T14:57:57.521629750+00:00,1,0
2023-12-12T14:57:57.521679760+00:00,0,0
2023-12-12T14:57:57.564769240+00:00,0,1
2023-12-12T14:57:57.564769690+00:00,0,0
2023-12-12T14:57:57.721629040+00:00,1,0
2023-12-12T14:57:57.721679060+00:00,0,0
2023-12-12T14:57:57.814851560+00:00,0,1
2023-12-12T14:57:57.814852010+00:00,0,0
2023-12-12T14:57:57.921628330+00:00,1,0
2023-12-12T14:57:57.921678350+00:00,0,0
2023-12-12T14:57:57.964777320+00:00,0,1
2023-12-12T14:57:57.964777770+00:00,0,0
2023-12-12T14:57:58.121627630+00:00,1,0
2023-12-12T14:57:58.121677640+00:00,0,0
2023-12-12T14:57:58.164781970+00:00,0,1
2023-12-12T14:57:58.164782440+00:00,0,0
2023-12-12T14:57:58.321626920+00:00,1,0
2023-12-12T14:57:58.321676940+00:00,0,0
2023-12-12T14:57:58.364785870+00:00,0,1
2023-12-12T14:57:58.364786330+00:00,0,0
2023-12-12T14:57:58.521626210+00:00,1,0
2023-12-12T14:57:58.521676230+00:00,0,0
2023-12-12T14:57:58.564791500+00:00,0,1
2023-12-12T14:57:58.564791960+00:00,0,0
2023-12-12T14:57:58.721625510+00:00,1,0
2023-12-12T14:57:58.721675520+00:00,0,0
2023-12-12T14:57:58.764796460+00:00,0,1
2023-12-12T14:57:58.764796910+00:00,0,0
2023-12-12T14:57:58.921624800+00:00,1,0
2023-12-12T14:57:58.921674820+00:00,0,0
2023-12-12T14:57:58.964850010+00:00,0,1
2023-12-12T14:57:58.964850460+00:00,0,0
2023-12-12T14:57:59.121624090+00:00,1,0
2023-12-12T14:57:59.121674110+00:00,0,0
2023-12-12T14:57:59.164807870+00:00,0,1
2023-12-12T14:57:59.164808330+00:00,0,0
2023-12-12T14:57:59.321623380+00:00,1,0
2023-12-12T14:57:59.321673400+00:00,0,0
2023-12-12T14:57:59.364812980+00:00,0,1
2023-12-12T14:57:59.364813430+00:00,0,0
2023-12-12T14:57:59.521622680+00:00,1,0
2023-12-12T14:57:59.521672690+00:00,0,0
2023-12-12T14:57:59.564818550+00:00,0,1
2023-12-12T14:57:59.564819010+00:00,0,0
2023-12-12T14:57:59.721621970+00:00,1,0
2023-12-12T14:57:59.721671990+00:00,0,0
2023-12-12T14:57:59.764824240+00:00,0,1
2023-12-12T14:57:59.764824710+00:00,0,0
2023-12-12T14:57:59.921621260+00:00,1,0
2023-12-12T14:57:59.921671280+00:00,0,0
2023-12-12T14:58:00.014900340+00:00,0,1
2023-12-12T14:58:00.014900790+00:00,0,0
2023-12-12T14:58:00.121620560+00:00,1,0
2023-12-12T14:58:00.121670570+00:00,0,0
2023-12-12T14:58:00.164840950+00:00,0,1
2023-12-12T14:58:00.164841400+00:00,0,0
2023-12-12T14:58:00.321619850+00:00,1,0
2023-12-12T14:58:00.321669870+00:00,0,0
2023-12-12T14:58:00.364837300+00:00,0,1
2023-12-12T14:58:00.364837760+00:00,0,0
2023-12-12T14:58:00.521619140+00:00,1,0
2023-12-12T14:58:00.521669160+00:00,0,0
2023-12-12T14:58:00.564842930+00:00,0,1
2023-12-12T14:58:00.564843380+00:00,0,0
2023-12-12T14:58:00.721618440+00:00,1,0
2023-12-12T14:58:00.721668450+00:00,0,0
2023-12-12T14:58:00.764847380+00:00,0,1
2023-12-12T14:58:00.764847840+00:00,0,0
2023-12-12T14:58:00.921617730+00:00,1,0
2023-12-12T14:58:00.921667750+00:00,0,0
2023-12-12T14:58:00.964852230+00:00,0,1
2023-12-12T14:58:00.964852690+00:00,0,0
2023-12-12T14:58:01.121617020+00:00,1,0
2023-12-12T14:58:01.121667040+00:00,0,0
2023-12-12T14:58:01.164905310+00:00,0,1
2023-12-12T14:58:01.164905760+00:00,0,0
2023-12-12T14:58:01.321616310+00:00,1,0
2023-12-12T14:58:01.321666330+00:00,0,0
2023-12-12T14:58:01.364862410+00:00,0,1
2023-12-12T14:58:01.364862880+00:00,0,0
2023-12-12T14:58:01.521615610+00:00,1,0
2023-12-12T14:58:01.521665620+00:00,0,0
2023-12-12T14:58:01.564868850+00:00,0,1
2023-12-12T14:58:01.564869310+00:00,0,0
2023-12-12T14:58:01.721614900+00:00,1,0
2023-12-12T14:58:01.721664920+00:00,0,0
2023-12-12T14:58:01.764873650+00:00,0,1
2023-12-12T14:58:01.764874110+00:00,0,0
2023-12-12T14:58:01.921614190+00:00,1,0
2023-12-12T14:58:01.921664210+00:00,0,0
2023-12-12T14:58:01.964882190+00:00,0,1
2023-12-12T14:58:01.964882650+00:00,0,0
2023-12-12T14:58:02.121613490+00:00,1,0
2023-12-12T14:58:02.121663500+00:00,0,0
2023-12-12T14:58:02.164882900+00:00,0,1
2023-12-12T14:58:02.164883350+00:00,0,0
2023-12-12T14:58:02.321612780+00:00,1,0
2023-12-12T14:58:02.321662790+00:00,0,0
2023-12-12T14:58:02.364939520+00:00,0,1
2023-12-12T14:58:02.364939980+00:00,0,0
2023-12-12T14:58:02.521612070+00:00,1,0
2023-12-12T14:58:02.521662090+00:00,0,0
2023-12-12T14:58:02.564893380+00:00,0,1
2023-12-12T14:58:02.564893830+00:00,0,0
2023-12-12T14:58:02.721611360+00:00,1,0
2023-12-12T14:58:02.721661380+00:00,0,0
