Time [s],Channel 0,Channel 1
2023-12-12T08:26:14.630846000+00:00,0,0
2023-12-12T08:26:14.822076780+00:00,1,0
2023-12-12T08:26:14.822126800+00:00,0,0
2023-12-12T08:26:14.850420660+00:00,0,1
2023-12-12T08:26:14.850421120+00:00,0,0
2023-12-12T08:26:15.072075970+00:00,1,0
2023-12-12T08:26:15.072125990+00:00,0,0
2023-12-12T08:26:15.150434750+00:00,0,1
2023-12-12T08:26:15.150435200+00:00,0,0
2023-12-12T08:26:15.322075150+00:00,1,0
2023-12-12T08:26:15.322125170+00:00,0,0
2023-12-12T08:26:15.350436550+00:00,0,1
2023-12-12T08:26:15.350437000+00:00,0,0
2023-12-12T08:26:15.572074340+00:00,1,0
2023-12-12T08:26:15.572124350+00:00,0,0
2023-12-12T08:26:15.600445920+00:00,0,1
2023-12-12T08:26:15.600446370+00:00,0,0
2023-12-12T08:26:15.822073520+00:00,1,0
2023-12-12T08:26:15.822123540+00:00,0,0
2023-12-12T08:26:15.850457460+00:00,0,1
2023-12-12T08:26:15.850457910+00:00,0,0
2023-12-12T08:26:16.072072710+00:00,1,0
2023-12-12T08:26:16.072122720+00:00,0,0
2023-12-12T08:26:16.100458880+00:00,0,1
2023-12-12T08:26:16.100459330+00:00,0,0
2023-12-12T08:26:16.322071890+00:00,1,0
2023-12-12T08:26:16.322121910+00:00,0,0
2023-12-12T08:26:16.350478800+00:00,0,1
2023-12-12T08:26:16.350479260+00:00,0,0
2023-12-12T08:26:16.572071070+00:00,1,0
2023-12-12T08:26:16.572121090+00:00,0,0
2023-12-12T08:26:16.600480670+00:00,0,1
2023-12-12T08:26:16.600481130+00:00,0,0
2023-12-12T08:26:16.822070260+00:00,1,0
2023-12-12T08:26:16.822120270+00:00,0,0
2023-12-12T08:26:16.850514770+00:00,0,1
2023-12-12T08:26:16.850515220+00:00,0,0
2023-12-12T08:26:17.072069440+00:00,1,0
2023-12-12T08:26:17.072119460+00:00,0,0
2023-12-12T08:26:17.150502450+00:00,0,1
2023-12-12T08:26:17.150502910+00:00,0,0
2023-12-12T08:26:17.322068620+00:00,1,0
2023-12-12T08:26:17.322118640+00:00,0,0
2023-12-12T08:26:17.400522330+00:00,0,1
2023-12-12T08:26:17.400522780+00:00,0,0
2023-12-12T08:26:17.572067810+00:00,1,0
2023-12-12T08:26:17.572117830+00:00,0,0
2023-12-12T08:26:17.600523150+00:00,0,1
2023-12-12T08:26:17.600523610+00:00,0,0
2023-12-12T08:26:17.822066990+00:00,1,0
2023-12-12T08:26:17.822117010+00:00,0,0
2023-12-12T08:26:17.850543660+00:00,0,1
2023-12-12T08:26:17.850544120+00:00,0,0
2023-12-12T08:26:18.072066180+00:00,1,0
2023-12-12T08:26:18.072116190+00:00,0,0
2023-12-12T08:26:18.100559250+00:00,0,1
2023-12-12T08:26:18.100559700+00:00,0,0
2023-12-12T08:26:18.322065360+00:00,1,0
2023-12-12T08:26:18.322115380+00:00,0,0
2023-12-12T08:26:18.400565380+00:00,0,1
2023-12-12T08:26:18.400565830+00:00,0,0
2023-12-12T08:26:18.572064540+00:00,1,0
2023-12-12T08:26:18.572114560+00:00,0,0
2023-12-12T08:26:18.650584990+00:00,0,1
2023-12-12T08:26:18.650585440+00:00,0,0
2023-12-12T08:26:18.822063730+00:00,1,0
2023-12-12T08:26:18.822113750+00:00,0,0
2023-12-12T08:26:18.900586440+00:00,0,1
2023-12-12T08:26:18.900586890+00:00,0,0
2023-12-12T08:26:19.072062910+00:00,1,0
2023-12-12T08:26:19.072112930+00:00,0,0
2023-12-12T08:26:19.100587420+00:00,0,1
2023-12-12T08:26:19.100587880+00:00,0,0
2023-12-12T08:26:19.322062100+00:00,1,0
2023-12-12T08:26:19.322112110+00:00,0,0
2023-12-12T08:26:19.350615280+00:00,0,1
2023-12-12T08:26:19.350615740+00:00,0,0
2023-12-12T08:26:19.572061280+00:00,1,0
2023-12-12T08:26:19.572111300+00:00,0,0
2023-12-12T08:26:19.600609390+00:00,0,1
2023-12-12T08:26:19.600609850+00:00,0,0
2023-12-12T08:26:19.822060460+00:00,1,0
2023-12-12T08:26:19.822110480+00:00,0,0
2023-12-12T08:26:19.850635420+00:00,0,1
2023-12-12T08:26:19.850635870+00:00,0,0
2023-12-12T08:26:20.072059650+00:00,1,0
2023-12-12T08:26:20.072109670+00:00,0,0
2023-12-12T08:26:20.150630930+00:00,0,1
2023-12-12T08:26:20.150631390+00:00,0,0
2023-12-12T08:26:20.322058830+00:00,1,0
2023-12-12T08:26:20.322108850+00:00,0,0
2023-12-12T08:26:20.350510860+00:00,0,1
2023-12-12T08:26:20.350511310+00:00,0,0
2023-12-12T08:26:20.572058010+00:00,1,0
2023-12-12T08:26:20.572108030+00:00,0,0
2023-12-12T08:26:20.650660240+00:00,0,1
2023-12-12T08:26:20.650660690+00:00,0,0
2023-12-12T08:26:20.822057200+00:00,1,0
2023-12-12T08:26:20.822107210+00:00,0,0
2023-12-12T08:26:20.850671580+00:00,0,1
2023-12-12T08:26:20.850672030+00:00,0,0
2023-12-12T08:26:21.072056380+00:00,1,0
2023-12-12T08:26:21.072106400+00:00,0,0
2023-12-12T08:26:21.100672990+00:00,0,1
2023-12-12T08:26:21.100673440+00:00,0,0
2023-12-12T08:26:21.322055560+00:00,1,0
2023-12-12T08:26:21.322105580+00:00,0,0
2023-12-12T08:26:21.350693680+00:00,0,1
2023-12-12T08:26:21.350694140+00:00,0,0
2023-12-12T08:26:21.572054740+00:00,1,0
2023-12-12T08:26:21.572104760+00:00,0,0
2023-12-12T08:26:21.600555750+00:00,0,1
2023-12-12T08:26:21.600556210+00:00,0,0
2023-12-12T08:26:21.822053930+00:00,1,0
2023-12-12T08:26:21.822103940+00:00,0,0
2023-12-12T08:26:21.850704040+00:00,0,1
2023-12-12T08:26:21.850704490+00:00,0,0
2023-12-12T08:26:22.072053110+00:00,1,0
2023-12-12T08:26:22.072103130+00:00,0,0
2023-12-12T08:26:22.150716170+00:00,0,1
2023-12-12T08:26:22.150716620+00:00,0,0
2023-12-12T08:26:22.322052290+00:00,1,0
2023-12-12T08:26:22.322102310+00:00,0,0
2023-12-12T08:26:22.350716990+00:00,0,1
2023-12-12T08:26:22.350717450+00:00,0,0
2023-12-12T08:26:22.572051480+00:00,1,0
2023-12-12T08:26:22.572101490+00:00,0,0
2023-12-12T08:26:22.600737780+00:00,0,1
2023-12-12T08:26:22.600738230+00:00,0,0
2023-12-12T08:26:22.822050660+00:00,1,0
2023-12-12T08:26:22.822100680+00:00,0,0
2023-12-12T08:26:22.850738970+00:00,0,1
2023-12-12T08:26:22.850739430+00:00,0,0
2023-12-12T08:26:23.072049840+00:00,1,0
2023-12-12T08:26:23.072099860+00:00,0,0
2023-12-12T08:26:23.100773140+00:00,0,1
2023-12-12T08:26:23.100773600+00:00,0,0
2023-12-12T08:26:23.322049020+00:00,1,0
2023-12-12T08:26:23.322099040+00:00,0,0
2023-12-12T08:26:23.350766560+00:00,0,1
2023-12-12T08:26:23.350767020+00:00,0,0
2023-12-12T08:26:23.572048210+00:00,1,0
2023-12-12T08:26:23.572098220+00:00,0,0
2023-12-12T08:26:23.600640950+00:00,0,1
2023-12-12T08:26:23.600641400+00:00,0,0
2023-12-12T08:26:23.822047390+00:00,1,0
2023-12-12T08:26:23.822097410+00:00,0,0
2023-12-12T08:26:23.900308700+00:00,0,1
2023-12-12T08:26:23.900309150+00:00,0,0
2023-12-12T08:26:24.072046570+00:00,1,0
2023-12-12T08:26:24.072096590+00:00,0,0
2023-12-12T08:26:24.100310470+00:00,0,1
2023-12-12T08:26:24.100310930+00:00,0,0
2023-12-12T08:26:24.322045750+00:00,1,0
2023-12-12T08:26:24.322095770+00:00,0,0
2023-12-12T08:26:24.350319880+00:00,0,1
2023-12-12T08:26:24.350320330+00:00,0,0
2023-12-12T08:26:24.572044940+00:00,1,0
2023-12-12T08:26:24.572094950+00:00,0,0
2023-12-12T08:26:24.600313400+00:00,0,1
2023-12-12T08:26:24.600313850+00:00,0,0
2023-12-12T08:26:24.822044120+00:00,1,0
2023-12-12T08:26:24.822094130+00:00,0,0
2023-12-12T08:26:24.850315870+00:00,0,1
2023-12-12T08:26:24.850316320+00:00,0,0
2023-12-12T08:26:25.072043300+00:00,1,0
2023-12-12T08:26:25.072093320+00:00,0,0
2023-12-12T08:26:25.150316510+00:00,0,1
2023-12-12T08:26:25.150316970+00:00,0,0
2023-12-12T08:26:25.322042480+00:00,1,0
2023-12-12T08:26:25.322092500+00:00,0,0
2023-12-12T08:26:25.400337380+00:00,0,1
2023-12-12T08:26:25.400337840+00:00,0,0
2023-12-12T08:26:25.572041660+00:00,1,0
2023-12-12T08:26:25.572091680+00:00,0,0
2023-12-12T08:26:25.600319370+00:00,0,1
2023-12-12T08:26:25.600319820+00:00,0,0
2023-12-12T08:26:25.822040850+00:00,1,0
2023-12-12T08:26:25.822090860+00:00,0,0
2023-12-12T08:26:25.850320840+00:00,0,1
2023-12-12T08:26:25.850321290+00:00,0,0
2023-12-12T08:26:26.072040030+00:00,1,0
2023-12-12T08:26:26.072090040+00:00,0,0
2023-12-12T08:26:26.100323320+00:00,0,1
2023-12-12T08:26:26.100323770+00:00,0,0
2023-12-12T08:26:26.322039210+00:00,1,0
2023-12-12T08:26:26.322089220+00:00,0,0
2023-12-12T08:26:26.350324610+00:00,0,1
2023-12-12T08:26:26.350325070+00:00,0,0
2023-12-12T08:26:26.572038390+00:00,1,0
2023-12-12T08:26:26.572088410+00:00,0,0
2023-12-12T08:26:26.600193710+00:00,0,1
2023-12-12T08:26:26.600194160+00:00,0,0
2023-12-12T08:26:26.822037570+00:00,1,0
2023-12-12T08:26:26.822087590+00:00,0,0
2023-12-12T08:26:26.850187750+00:00,0,1
2023-12-12T08:26:26.850188210+00:00,0,0
2023-12-12T08:26:27.072036750+00:00,1,0
2023-12-12T08:26:27.072086770+00:00,0,0
2023-12-12T08:26:27.100328500+00:00,0,1
2023-12-12T08:26:27.100328950+00:00,0,0
2023-12-12T08:26:27.322035930+00:00,1,0
2023-12-12T08:26:27.322085950+00:00,0,0
2023-12-12T08:26:27.350329780+00:00,0,1
2023-12-12T08:26:27.350330230+00:00,0,0
2023-12-12T08:26:27.572035120+00:00,1,0
2023-12-12T08:26:27.572085130+00:00,0,0
2023-12-12T08:26:27.600332320+00:00,0,1
2023-12-12T08:26:27.600332780+00:00,0,0
2023-12-12T08:26:27.822034300+00:00,1,0
2023-12-12T08:26:27.822084310+00:00,0,0
2023-12-12T08:26:27.850201380+00:00,0,1
2023-12-12T08:26:27.850201830+00:00,0,0
2023-12-12T08:26:28.072033480+00:00,1,0
2023-12-12T08:26:28.072083500+00:00,0,0
2023-12-12T08:26:28.100334180+00:00,0,1
2023-12-12T08:26:28.100334630+00:00,0,0
2023-12-12T08:26:28.322032660+00:00,1,0
2023-12-12T08:26:28.322082680+00:00,0,0
2023-12-12T08:26:28.350335620+00:00,0,1
2023-12-12T08:26:28.350336070+00:00,0,0
2023-12-12T08:26:28.572031840+00:00,1,0
2023-12-12T08:26:28.572081860+00:00,0,0
2023-12-12T08:26:28.600367500+00:00,0,1
2023-12-12T08:26:28.600367960+00:00,0,0
2023-12-12T08:26:28.822031020+00:00,1,0
2023-12-12T08:26:28.822081040+00:00,0,0
2023-12-12T08:26:28.850369420+00:00,0,1
2023-12-12T08:26:28.850369870+00:00,0,0
2023-12-12T08:26:29.072030200+00:00,1,0
2023-12-12T08:26:29.072080220+00:00,0,0
2023-12-12T08:26:29.100379030+00:00,0,1
2023-12-12T08:26:29.100379480+00:00,0,0
2023-12-12T08:26:29.322029380+00:00,1,0
2023-12-12T08:26:29.322079400+00:00,0,0
2023-12-12T08:26:29.350391920+00:00,0,1
2023-12-12T08:26:29.350392380+00:00,0,0
2023-12-12T08:26:29.572028560+00:00,1,0
2023-12-12T08:26:29.572078580+00:00,0,0
2023-12-12T08:26:29.600272050+00:00,0,1
2023-12-12T08:26:29.600272500+00:00,0,0
2023-12-12T08:26:29.822027740+00:00,1,0
2023-12-12T08:26:29.822077760+00:00,0,0
2023-12-12T08:26:29.850411770+00:00,0,1
2023-12-12T08:26:29.850412220+00:00,0,0
2023-12-12T08:26:30.072026920+00:00,1,0
2023-12-12T08:26:30.072076940+00:00,0,0
2023-12-12T08:26:30.100413010+00:00,0,1
2023-12-12T08:26:30.100413470+00:00,0,0
2023-12-12T08:26:30.322026100+00:00,1,0
2023-12-12T08:26:30.322076120+00:00,0,0
2023-12-12T08:26:30.350440750+00:00,0,1
2023-12-12T08:26:30.350441200+00:00,0,0
2023-12-12T08:26:30.572025280+00:00,1,0
2023-12-12T08:26:30.572075300+00:00,0,0
2023-12-12T08:26:30.600434240+00:00,0,1
2023-12-12T08:26:30.600434690+00:00,0,0
2023-12-12T08:26:30.822024460+00:00,1,0
2023-12-12T08:26:30.822074480+00:00,0,0
2023-12-12T08:26:30.850442870+00:00,0,1
2023-12-12T08:26:30.850443320+00:00,0,0
2023-12-12T08:26:31.072023640+00:00,1,0
2023-12-12T08:26:31.072073660+00:00,0,0
2023-12-12T08:26:31.150456800+00:00,0,1
2023-12-12T08:26:31.150457250+00:00,0,0
2023-12-12T08:26:31.322022820+00:00,1,0
2023-12-12T08:26:31.322072840+00:00,0,0
2023-12-12T08:26:31.350475860+00:00,0,1
2023-12-12T08:26:31.350476310+00:00,0,0
2023-12-12T08:26:31.572022000+00:00,1,0
2023-12-12T08:26:31.572072020+00:00,0,0
2023-12-12T08:26:31.600485310+00:00,0,1
2023-12-12T08:26:31.600485770+00:00,0,0
2023-12-12T08:26:31.822021180+00:00,1,0
2023-12-12T08:26:31.822071200+00:00,0,0
2023-12-12T08:26:31.850497170+00:00,0,1
2023-12-12T08:26:31.850497620+00:00,0,0
2023-12-12T08:26:32.072020360+00:00,1,0
2023-12-12T08:26:32.072070380+00:00,0,0
2023-12-12T08:26:32.100498370+00:00,0,1
2023-12-12T08:26:32.100498830+00:00,0,0
2023-12-12T08:26:32.322019540+00:00,1,0
2023-12-12T08:26:32.322069560+00:00,0,0
2023-12-12T08:26:32.350519210+00:00,0,1
2023-12-12T08:26:32.350519660+00:00,0,0
2023-12-12T08:26:32.572018720+00:00,1,0
2023-12-12T08:26:32.572068740+00:00,0,0
2023-12-12T08:26:32.600314010+00:00,0,1
2023-12-12T08:26:32.600314460+00:00,0,0
2023-12-12T08:26:32.822017900+00:00,1,0
2023-12-12T08:26:32.822067920+00:00,0,0
2023-12-12T08:26:32.850530150+00:00,0,1
2023-12-12T08:26:32.850530610+00:00,0,0
2023-12-12T08:26:33.072017080+00:00,1,0
2023-12-12T08:26:33.072067100+00:00,0,0
2023-12-12T08:26:33.100542020+00:00,0,1
2023-12-12T08:26:33.100542470+00:00,0,0
2023-12-12T08:26:33.322016260+00:00,1,0
2023-12-12T08:26:33.322066280+00:00,0,0
2023-12-12T08:26:33.350543280+00:00,0,1
2023-12-12T08:26:33.350543730+00:00,0,0
2023-12-12T08:26:33.572015440+00:00,1,0
2023-12-12T08:26:33.572065460+00:00,0,0
2023-12-12T08:26:33.600562870+00:00,0,1
2023-12-12T08:26:33.600563320+00:00,0,0
2023-12-12T08:26:33.822014620+00:00,1,0
2023-12-12T08:26:33.822064640+00:00,0,0
2023-12-12T08:26:33.850566300+00:00,0,1
2023-12-12T08:26:33.850566750+00:00,0,0
2023-12-12T08:26:34.072013800+00:00,1,0
2023-12-12T08:26:34.072063820+00:00,0,0
2023-12-12T08:26:34.100594140+00:00,0,1
2023-12-12T08:26:34.100594590+00:00,0,0
2023-12-12T08:26:34.322012980+00:00,1,0
2023-12-12T08:26:34.322063000+00:00,0,0
2023-12-12T08:26:34.400586430+00:00,0,1
2023-12-12T08:26:34.400586880+00:00,0,0
2023-12-12T08:26:34.572012160+00:00,1,0
2023-12-12T08:26:34.572062180+00:00,0,0
2023-12-12T08:26:34.600466590+00:00,0,1
2023-12-12T08:26:34.600467040+00:00,0,0
2023-12-12T08:26:34.822011340+00:00,1,0
2023-12-12T08:26:34.822061350+00:00,0,0
2023-12-12T08:26:34.850607960+00:00,0,1
2023-12-12T08:26:34.850608410+00:00,0,0
2023-12-12T08:26:35.072010520+00:00,1,0
2023-12-12T08:26:35.072060530+00:00,0,0
2023-12-12T08:26:35.100627770+00:00,0,1
2023-12-12T08:26:35.100628230+00:00,0,0
2023-12-12T08:26:35.322009700+00:00,1,0
2023-12-12T08:26:35.322059710+00:00,0,0
2023-12-12T08:26:35.350637050+00:00,0,1
2023-12-12T08:26:35.350637510+00:00,0,0
2023-12-12T08:26:35.572008870+00:00,1,0
2023-12-12T08:26:35.572058890+00:00,0,0
2023-12-12T08:26:35.600648840+00:00,0,1
2023-12-12T08:26:35.600649300+00:00,0,0
2023-12-12T08:26:35.822008050+00:00,1,0
2023-12-12T08:26:35.822058070+00:00,0,0
2023-12-12T08:26:35.850651350+00:00,0,1
2023-12-12T08:26:35.850651800+00:00,0,0
2023-12-12T08:26:36.072007230+00:00,1,0
2023-12-12T08:26:36.072057250+00:00,0,0
2023-12-12T08:26:36.150670500+00:00,0,1
2023-12-12T08:26:36.150670950+00:00,0,0
2023-12-12T08:26:36.322006410+00:00,1,0
2023-12-12T08:26:36.322056430+00:00,0,0
2023-12-12T08:26:36.350671450+00:00,0,1
2023-12-12T08:26:36.350671900+00:00,0,0
2023-12-12T08:26:36.572005590+00:00,1,0
2023-12-12T08:26:36.572055600+00:00,0,0
2023-12-12T08:26:36.600687090+00:00,0,1
2023-12-12T08:26:36.600687540+00:00,0,0
2023-12-12T08:26:36.822004770+00:00,1,0
2023-12-12T08:26:36.822054780+00:00,0,0
2023-12-12T08:26:36.900693740+00:00,0,1
2023-12-12T08:26:36.900694190+00:00,0,0
2023-12-12T08:26:37.072003950+00:00,1,0
2023-12-12T08:26:37.072053960+00:00,0,0
2023-12-12T08:26:37.100574080+00:00,0,1
2023-12-12T08:26:37.100574540+00:00,0,0
2023-12-12T08:26:37.322003120+00:00,1,0
2023-12-12T08:26:37.322053140+00:00,0,0
2023-12-12T08:26:37.400714680+00:00,0,1
2023-12-12T08:26:37.400715140+00:00,0,0
2023-12-12T08:26:37.572002300+00:00,1,0
2023-12-12T08:26:37.572052320+00:00,0,0
2023-12-12T08:26:37.600715540+00:00,0,1
2023-12-12T08:26:37.600715990+00:00,0,0
2023-12-12T08:26:37.822001480+00:00,1,0
2023-12-12T08:26:37.822051500+00:00,0,0
2023-12-12T08:26:37.850743440+00:00,0,1
2023-12-12T08:26:37.850743900+00:00,0,0
2023-12-12T08:26:38.072000660+00:00,1,0
2023-12-12T08:26:38.072050680+00:00,0,0
2023-12-12T08:26:38.100756290+00:00,0,1
2023-12-12T08:26:38.100756740+00:00,0,0
2023-12-12T08:26:38.321999840+00:00,1,0
2023-12-12T08:26:38.322049860+00:00,0,0
2023-12-12T08:26:38.350763830+00:00,0,1
2023-12-12T08:26:38.350764280+00:00,0,0
2023-12-12T08:26:38.571999020+00:00,1,0
2023-12-12T08:26:38.572049040+00:00,0,0
2023-12-12T08:26:38.650777970+00:00,0,1
2023-12-12T08:26:38.650778420+00:00,0,0
2023-12-12T08:26:38.821998200+00:00,1,0
2023-12-12T08:26:38.822048210+00:00,0,0
2023-12-12T08:26:38.850639620+00:00,0,1
2023-12-12T08:26:38.850640080+00:00,0,0
2023-12-12T08:26:39.071997380+00:00,1,0
2023-12-12T08:26:39.072047390+00:00,0,0
2023-12-12T08:26:39.150806950+00:00,0,1
2023-12-12T08:26:39.150807400+00:00,0,0
2023-12-12T08:26:39.321996550+00:00,1,0
2023-12-12T08:26:39.322046570+00:00,0,0
2023-12-12T08:26:39.350799690+00:00,0,1
2023-12-12T08:26:39.350800150+00:00,0,0
2023-12-12T08:26:39.571995730+00:00,1,0
2023-12-12T08:26:39.572045750+00:00,0,0
2023-12-12T08:26:39.600802090+00:00,0,1
2023-12-12T08:26:39.600802540+00:00,0,0
2023-12-12T08:26:39.821994910+00:00,1,0
2023-12-12T08:26:39.822044930+00:00,0,0
2023-12-12T08:26:39.850821960+00:00,0,1
2023-12-12T08:26:39.850822420+00:00,0,0
2023-12-12T08:26:40.071994090+00:00,1,0
2023-12-12T08:26:40.072044100+00:00,0,0
2023-12-12T08:26:40.100829160+00:00,0,1
2023-12-12T08:26:40.100829610+00:00,0,0
2023-12-12T08:26:40.321993260+00:00,1,0
2023-12-12T08:26:40.322043280+00:00,0,0
2023-12-12T08:26:40.350851850+00:00,0,1
2023-12-12T08:26:40.350852300+00:00,0,0
2023-12-12T08:26:40.571992440+00:00,1,0
2023-12-12T08:26:40.572042460+00:00,0,0
2023-12-12T08:26:40.650863030+00:00,0,1
2023-12-12T08:26:40.650863490+00:00,0,0
2023-12-12T08:26:40.821991620+00:00,1,0
2023-12-12T08:26:40.822041640+00:00,0,0
2023-12-12T08:26:40.900864350+00:00,0,1
2023-12-12T08:26:40.900864800+00:00,0,0
2023-12-12T08:26:41.071990800+00:00,1,0
2023-12-12T08:26:41.072040820+00:00,0,0
2023-12-12T08:26:41.100866300+00:00,0,1
2023-12-12T08:26:41.100866750+00:00,0,0
2023-12-12T08:26:41.321989980+00:00,1,0
2023-12-12T08:26:41.322039990+00:00,0,0
2023-12-12T08:26:41.350885860+00:00,0,1
2023-12-12T08:26:41.350886320+00:00,0,0
2023-12-12T08:26:41.571989160+00:00,1,0
2023-12-12T08:26:41.572039170+00:00,0,0
2023-12-12T08:26:41.600422240+00:00,0,1
2023-12-12T08:26:41.600422690+00:00,0,0
2023-12-12T08:26:41.821988330+00:00,1,0
2023-12-12T08:26:41.822038350+00:00,0,0
2023-12-12T08:26:41.850415580+00:00,0,1
2023-12-12T08:26:41.850416030+00:00,0,0
2023-12-12T08:26:42.071987510+00:00,1,0
2023-12-12T08:26:42.072037530+00:00,0,0
2023-12-12T08:26:42.100418080+00:00,0,1
2023-12-12T08:26:42.100418540+00:00,0,0
2023-12-12T08:26:42.321986690+00:00,1,0
2023-12-12T08:26:42.322036710+00:00,0,0
2023-12-12T08:26:42.350279410+00:00,0,1
2023-12-12T08:26:42.350279860+00:00,0,0
2023-12-12T08:26:42.571985870+00:00,1,0
2023-12-12T08:26:42.572035880+00:00,0,0
2023-12-12T08:26:42.600420430+00:00,0,1
2023-12-12T08:26:42.600420880+00:00,0,0
2023-12-12T08:26:42.821985050+00:00,1,0
2023-12-12T08:26:42.822035060+00:00,0,0
2023-12-12T08:26:42.850429660+00:00,0,1
2023-12-12T08:26:42.850430110+00:00,0,0
2023-12-12T08:26:43.071984220+00:00,1,0
2023-12-12T08:26:43.072034240+00:00,0,0
2023-12-12T08:26:43.100423030+00:00,0,1
2023-12-12T08:26:43.100423490+00:00,0,0
2023-12-12T08:26:43.321983400+00:00,1,0
2023-12-12T08:26:43.322033420+00:00,0,0
2023-12-12T08:26:43.350424200+00:00,0,1
2023-12-12T08:26:43.350424650+00:00,0,0
2023-12-12T08:26:43.571982580+00:00,1,0
2023-12-12T08:26:43.572032600+00:00,0,0
2023-12-12T08:26:43.600432640+00:00,0,1
2023-12-12T08:26:43.600433090+00:00,0,0
2023-12-12T08:26:43.821981760+00:00,1,0
2023-12-12T08:26:43.822031770+00:00,0,0
2023-12-12T08:26:43.850429030+00:00,0,1
2023-12-12T08:26:43.850429490+00:00,0,0
2023-12-12T08:26:44.071980930+00:00,1,0
2023-12-12T08:26:44.072030950+00:00,0,0
2023-12-12T08:26:44.100438420+00:00,0,1
2023-12-12T08:26:44.100438880+00:00,0,0
2023-12-12T08:26:44.321980110+00:00,1,0
2023-12-12T08:26:44.322030130+00:00,0,0
2023-12-12T08:26:44.350430640+00:00,0,1
2023-12-12T08:26:44.350431090+00:00,0,0
2023-12-12T08:26:44.571979290+00:00,1,0
2023-12-12T08:26:44.572029300+00:00,0,0
2023-12-12T08:26:44.600431730+00:00,0,1
2023-12-12T08:26:44.600432180+00:00,0,0
2023-12-12T08:26:44.821978470+00:00,1,0
2023-12-12T08:26:44.822028480+00:00,0,0
2023-12-12T08:26:44.850433090+00:00,0,1
2023-12-12T08:26:44.850433550+00:00,0,0
2023-12-12T08:26:45.071977640+00:00,1,0
2023-12-12T08:26:45.072027660+00:00,0,0
2023-12-12T08:26:45.150454960+00:00,0,1
2023-12-12T08:26:45.150455410+00:00,0,0
2023-12-12T08:26:45.321976820+00:00,1,0
2023-12-12T08:26:45.322026840+00:00,0,0
2023-12-12T08:26:45.350296390+00:00,0,1
2023-12-12T08:26:45.350296840+00:00,0,0
2023-12-12T08:26:45.571976000+00:00,1,0
2023-12-12T08:26:45.572026010+00:00,0,0
2023-12-12T08:26:45.600299230+00:00,0,1
2023-12-12T08:26:45.600299680+00:00,0,0
2023-12-12T08:26:45.821975170+00:00,1,0
2023-12-12T08:26:45.822025190+00:00,0,0
