Time [s],Channel 0,Channel 1
2024-02-06T02:20:01.573479000+00:00,0,0
2024-02-06T02:20:01.581770880+00:00,0,1
2024-02-06T02:20:01.581772100+00:00,0,0
2024-02-06T02:20:01.766157000+00:00,1,0
2024-02-06T02:20:01.766207000+00:00,0,0
2024-02-06T02:20:01.781773780+00:00,0,1
2024-02-06T02:20:01.781775000+00:00,0,0
2024-02-06T02:20:01.966156340+00:00,1,0
2024-02-06T02:20:01.966206360+00:00,0,0
2024-02-06T02:20:01.981777500+00:00,0,1
2024-02-06T02:20:01.981778720+00:00,0,0
2024-02-06T02:20:02.166155680+00:00,1,0
2024-02-06T02:20:02.166205700+00:00,0,0
2024-02-06T02:20:02.181785880+00:00,0,1
2024-02-06T02:20:02.181787100+00:00,0,0
2024-02-06T02:20:02.366155040+00:00,1,0
2024-02-06T02:20:02.366205040+00:00,0,0
2024-02-06T02:20:02.381782680+00:00,0,1
2024-02-06T02:20:02.381783900+00:00,0,0
2024-02-06T02:20:02.566154380+00:00,1,0
2024-02-06T02:20:02.566204400+00:00,0,0
2024-02-06T02:20:02.581785380+00:00,0,1
2024-02-06T02:20:02.581786600+00:00,0,0
2024-02-06T02:20:02.766153720+00:00,1,0
2024-02-06T02:20:02.766203740+00:00,0,0
2024-02-06T02:20:02.781787600+00:00,0,1
2024-02-06T02:20:02.781788820+00:00,0,0
2024-02-06T02:20:02.966153080+00:00,1,0
2024-02-06T02:20:02.966203080+00:00,0,0
2024-02-06T02:20:02.981791440+00:00,0,1
2024-02-06T02:20:02.981792660+00:00,0,0
2024-02-06T02:20:03.166152420+00:00,1,0
2024-02-06T02:20:03.166202420+00:00,0,0
2024-02-06T02:20:03.181792240+00:00,0,1
2024-02-06T02:20:03.181793460+00:00,0,0
2024-02-06T02:20:03.366151760+00:00,1,0
2024-02-06T02:20:03.366201780+00:00,0,0
2024-02-06T02:20:03.381796140+00:00,0,1
2024-02-06T02:20:03.381797360+00:00,0,0
2024-02-06T02:20:03.566151100+00:00,1,0
2024-02-06T02:20:03.566201120+00:00,0,0
2024-02-06T02:20:03.581805420+00:00,0,1
2024-02-06T02:20:03.581806640+00:00,0,0
2024-02-06T02:20:03.766150460+00:00,1,0
2024-02-06T02:20:03.766200460+00:00,0,0
2024-02-06T02:20:03.781801720+00:00,0,1
2024-02-06T02:20:03.781802940+00:00,0,0
2024-02-06T02:20:03.966149800+00:00,1,0
2024-02-06T02:20:03.966199800+00:00,0,0
2024-02-06T02:20:03.981804700+00:00,0,1
2024-02-06T02:20:03.981805920+00:00,0,0
2024-02-06T02:20:04.166149140+00:00,1,0
2024-02-06T02:20:04.166199160+00:00,0,0
2024-02-06T02:20:04.181805840+00:00,0,1
2024-02-06T02:20:04.181807060+00:00,0,0
2024-02-06T02:20:04.366148480+00:00,1,0
2024-02-06T02:20:04.366198500+00:00,0,0
2024-02-06T02:20:04.381819240+00:00,0,1
2024-02-06T02:20:04.381820460+00:00,0,0
2024-02-06T02:20:04.566147840+00:00,1,0
2024-02-06T02:20:04.566197840+00:00,0,0
2024-02-06T02:20:04.581812300+00:00,0,1
2024-02-06T02:20:04.581813520+00:00,0,0
2024-02-06T02:20:04.766147180+00:00,1,0
2024-02-06T02:20:04.766197180+00:00,0,0
2024-02-06T02:20:04.781815260+00:00,0,1
2024-02-06T02:20:04.781816480+00:00,0,0
2024-02-06T02:20:04.966146520+00:00,1,0
2024-02-06T02:20:04.966196540+00:00,0,0
2024-02-06T02:20:04.981827720+00:00,0,1
2024-02-06T02:20:04.981828960+00:00,0,0
2024-02-06T02:20:05.166145880+00:00,1,0
2024-02-06T02:20:05.166195880+00:00,0,0
2024-02-06T02:20:05.181820960+00:00,0,1
2024-02-06T02:20:05.181822180+00:00,0,0
2024-02-06T02:20:05.366145220+00:00,1,0
2024-02-06T02:20:05.366195220+00:00,0,0
2024-02-06T02:20:05.381824680+00:00,0,1
2024-02-06T02:20:05.381825900+00:00,0,0
2024-02-06T02:20:05.566144560+00:00,1,0
2024-02-06T02:20:05.566194580+00:00,0,0
2024-02-06T02:20:05.581826520+00:00,0,1
2024-02-06T02:20:05.581827740+00:00,0,0
2024-02-06T02:20:05.766143900+00:00,1,0
2024-02-06T02:20:05.766193920+00:00,0,0
2024-02-06T02:20:05.781829480+00:00,0,1
2024-02-06T02:20:05.781830700+00:00,0,0
2024-02-06T02:20:05.966143260+00:00,1,0
2024-02-06T02:20:05.966193260+00:00,0,0
2024-02-06T02:20:05.981833280+00:00,0,1
2024-02-06T02:20:05.981834500+00:00,0,0
2024-02-06T02:20:06.166142600+00:00,1,0
2024-02-06T02:20:06.166192600+00:00,0,0
2024-02-06T02:20:06.181835520+00:00,0,1
2024-02-06T02:20:06.181836760+00:00,0,0
2024-02-06T02:20:06.366141940+00:00,1,0
2024-02-06T02:20:06.366191940+00:00,0,0
2024-02-06T02:20:06.381837840+00:00,0,1
2024-02-06T02:20:06.381839060+00:00,0,0
2024-02-06T02:20:06.566141280+00:00,1,0
2024-02-06T02:20:06.566191300+00:00,0,0
2024-02-06T02:20:06.581839700+00:00,0,1
2024-02-06T02:20:06.581840920+00:00,0,0
2024-02-06T02:20:06.766140620+00:00,1,0
2024-02-06T02:20:06.766190640+00:00,0,0
2024-02-06T02:20:06.781852680+00:00,0,1
2024-02-06T02:20:06.781853900+00:00,0,0
2024-02-06T02:20:06.966139980+00:00,1,0
2024-02-06T02:20:06.966189980+00:00,0,0
2024-02-06T02:20:06.981846720+00:00,0,1
2024-02-06T02:20:06.981847940+00:00,0,0
2024-02-06T02:20:07.166139320+00:00,1,0
2024-02-06T02:20:07.166189320+00:00,0,0
2024-02-06T02:20:07.181848540+00:00,0,1
2024-02-06T02:20:07.181849760+00:00,0,0
2024-02-06T02:20:07.366138660+00:00,1,0
2024-02-06T02:20:07.366188680+00:00,0,0
2024-02-06T02:20:07.381852000+00:00,0,1
2024-02-06T02:20:07.381853220+00:00,0,0
2024-02-06T02:20:07.566138000+00:00,1,0
2024-02-06T02:20:07.566188020+00:00,0,0
2024-02-06T02:20:07.581854940+00:00,0,1
2024-02-06T02:20:07.581856180+00:00,0,0
2024-02-06T02:20:07.766137360+00:00,1,0
2024-02-06T02:20:07.766187360+00:00,0,0
2024-02-06T02:20:07.781857460+00:00,0,1
2024-02-06T02:20:07.781858680+00:00,0,0
2024-02-06T02:20:07.966136700+00:00,1,0
2024-02-06T02:20:07.966186700+00:00,0,0
2024-02-06T02:20:07.981859920+00:00,0,1
2024-02-06T02:20:07.981861140+00:00,0,0
2024-02-06T02:20:08.166136040+00:00,1,0
2024-02-06T02:20:08.166186040+00:00,0,0
2024-02-06T02:20:08.181863220+00:00,0,1
2024-02-06T02:20:08.181864440+00:00,0,0
2024-02-06T02:20:08.366135380+00:00,1,0
2024-02-06T02:20:08.366185400+00:00,0,0
2024-02-06T02:20:08.381866600+00:00,0,1
2024-02-06T02:20:08.381867820+00:00,0,0
2024-02-06T02:20:08.566134720+00:00,1,0
2024-02-06T02:20:08.566184740+00:00,0,0
2024-02-06T02:20:08.581868880+00:00,0,1
2024-02-06T02:20:08.581870120+00:00,0,0
2024-02-06T02:20:08.766134080+00:00,1,0
2024-02-06T02:20:08.766184080+00:00,0,0
2024-02-06T02:20:08.781872100+00:00,0,1
2024-02-06T02:20:08.781873340+00:00,0,0
2024-02-06T02:20:08.966133420+00:00,1,0
2024-02-06T02:20:08.966183420+00:00,0,0
2024-02-06T02:20:08.981875440+00:00,0,1
2024-02-06T02:20:08.981876660+00:00,0,0
2024-02-06T02:20:09.166132760+00:00,1,0
2024-02-06T02:20:09.166182760+00:00,0,0
2024-02-06T02:20:09.181876660+00:00,0,1
2024-02-06T02:20:09.181877880+00:00,0,0
2024-02-06T02:20:09.366132100+00:00,1,0
2024-02-06T02:20:09.366182120+00:00,0,0
2024-02-06T02:20:09.381879840+00:00,0,1
2024-02-06T02:20:09.381881080+00:00,0,0
2024-02-06T02:20:09.566131440+00:00,1,0
2024-02-06T02:20:09.566181460+00:00,0,0
2024-02-06T02:20:09.581883240+00:00,0,1
2024-02-06T02:20:09.581884480+00:00,0,0
2024-02-06T02:20:09.766130800+00:00,1,0
2024-02-06T02:20:09.766180800+00:00,0,0
2024-02-06T02:20:09.781884500+00:00,0,1
2024-02-06T02:20:09.781885720+00:00,0,0
2024-02-06T02:20:09.966130140+00:00,1,0
2024-02-06T02:20:09.966180140+00:00,0,0
2024-02-06T02:20:09.981897460+00:00,0,1
2024-02-06T02:20:09.981898680+00:00,0,0
2024-02-06T02:20:10.166129480+00:00,1,0
2024-02-06T02:20:10.166179480+00:00,0,0
2024-02-06T02:20:10.181891220+00:00,0,1
2024-02-06T02:20:10.181892440+00:00,0,0
2024-02-06T02:20:10.366128820+00:00,1,0
2024-02-06T02:20:10.366178840+00:00,0,0
2024-02-06T02:20:10.381894420+00:00,0,1
2024-02-06T02:20:10.381895640+00:00,0,0
2024-02-06T02:20:10.566128160+00:00,1,0
2024-02-06T02:20:10.566178180+00:00,0,0
2024-02-06T02:20:10.581903920+00:00,0,1
2024-02-06T02:20:10.581905140+00:00,0,0
2024-02-06T02:20:10.766127500+00:00,1,0
2024-02-06T02:20:10.766177520+00:00,0,0
2024-02-06T02:20:10.781899200+00:00,0,1
2024-02-06T02:20:10.781900420+00:00,0,0
2024-02-06T02:20:10.966126860+00:00,1,0
2024-02-06T02:20:10.966176860+00:00,0,0
2024-02-06T02:20:10.981910680+00:00,0,1
2024-02-06T02:20:10.981911900+00:00,0,0
2024-02-06T02:20:11.166126200+00:00,1,0
2024-02-06T02:20:11.166176200+00:00,0,0
2024-02-06T02:20:11.181904900+00:00,0,1
2024-02-06T02:20:11.181906120+00:00,0,0
2024-02-06T02:20:11.366125540+00:00,1,0
2024-02-06T02:20:11.366175540+00:00,0,0
2024-02-06T02:20:11.381908500+00:00,0,1
2024-02-06T02:20:11.381909740+00:00,0,0
2024-02-06T02:20:11.566124880+00:00,1,0
2024-02-06T02:20:11.566174900+00:00,0,0
2024-02-06T02:20:11.581910600+00:00,0,1
2024-02-06T02:20:11.581911820+00:00,0,0
2024-02-06T02:20:11.766124220+00:00,1,0
2024-02-06T02:20:11.766174240+00:00,0,0
2024-02-06T02:20:11.781913860+00:00,0,1
2024-02-06T02:20:11.781915080+00:00,0,0
2024-02-06T02:20:11.966123560+00:00,1,0
2024-02-06T02:20:11.966173580+00:00,0,0
2024-02-06T02:20:11.981924720+00:00,0,1
2024-02-06T02:20:11.981925940+00:00,0,0
2024-02-06T02:20:12.166122920+00:00,1,0
2024-02-06T02:20:12.166172920+00:00,0,0
2024-02-06T02:20:12.181919020+00:00,0,1
2024-02-06T02:20:12.181920240+00:00,0,0
2024-02-06T02:20:12.366122260+00:00,1,0
2024-02-06T02:20:12.366172260+00:00,0,0
2024-02-06T02:20:12.381921460+00:00,0,1
2024-02-06T02:20:12.381922700+00:00,0,0
2024-02-06T02:20:12.566121600+00:00,1,0
2024-02-06T02:20:12.566171600+00:00,0,0
2024-02-06T02:20:12.581923760+00:00,0,1
2024-02-06T02:20:12.581924980+00:00,0,0
2024-02-06T02:20:12.766120940+00:00,1,0
2024-02-06T02:20:12.766170960+00:00,0,0
2024-02-06T02:20:12.781935980+00:00,0,1
2024-02-06T02:20:12.781937220+00:00,0,0
2024-02-06T02:20:12.966120280+00:00,1,0
2024-02-06T02:20:12.966170300+00:00,0,0
2024-02-06T02:20:12.981937680+00:00,0,1
2024-02-06T02:20:12.981938900+00:00,0,0
2024-02-06T02:20:13.166119620+00:00,1,0
2024-02-06T02:20:13.166169640+00:00,0,0
2024-02-06T02:20:13.181932120+00:00,0,1
2024-02-06T02:20:13.181933340+00:00,0,0
2024-02-06T02:20:13.366118960+00:00,1,0
2024-02-06T02:20:13.366168980+00:00,0,0
2024-02-06T02:20:13.381944240+00:00,0,1
2024-02-06T02:20:13.381945480+00:00,0,0
2024-02-06T02:20:13.566118320+00:00,1,0
2024-02-06T02:20:13.566168320+00:00,0,0
2024-02-06T02:20:13.581938120+00:00,0,1
2024-02-06T02:20:13.581939340+00:00,0,0
2024-02-06T02:20:13.766117660+00:00,1,0
2024-02-06T02:20:13.766167660+00:00,0,0
2024-02-06T02:20:13.781950380+00:00,0,1
2024-02-06T02:20:13.781951600+00:00,0,0
2024-02-06T02:20:13.966117000+00:00,1,0
2024-02-06T02:20:13.966167000+00:00,0,0
2024-02-06T02:20:13.981944580+00:00,0,1
2024-02-06T02:20:13.981945820+00:00,0,0
2024-02-06T02:20:14.166116340+00:00,1,0
2024-02-06T02:20:14.166166340+00:00,0,0
2024-02-06T02:20:14.181946380+00:00,0,1
2024-02-06T02:20:14.181947600+00:00,0,0
2024-02-06T02:20:14.366115680+00:00,1,0
2024-02-06T02:20:14.366165700+00:00,0,0
2024-02-06T02:20:14.381950280+00:00,0,1
2024-02-06T02:20:14.381951500+00:00,0,0
2024-02-06T02:20:14.566115020+00:00,1,0
2024-02-06T02:20:14.566165040+00:00,0,0
2024-02-06T02:20:14.581951820+00:00,0,1
2024-02-06T02:20:14.581953060+00:00,0,0
2024-02-06T02:20:14.766114360+00:00,1,0
2024-02-06T02:20:14.766164380+00:00,0,0
2024-02-06T02:20:14.781964000+00:00,0,1
2024-02-06T02:20:14.781965220+00:00,0,0
2024-02-06T02:20:14.966113700+00:00,1,0
2024-02-06T02:20:14.966163720+00:00,0,0
2024-02-06T02:20:14.981958740+00:00,0,1
2024-02-06T02:20:14.981959960+00:00,0,0
2024-02-06T02:20:15.166113040+00:00,1,0
2024-02-06T02:20:15.166163060+00:00,0,0
2024-02-06T02:20:15.181970040+00:00,0,1
2024-02-06T02:20:15.181971260+00:00,0,0
2024-02-06T02:20:15.366112400+00:00,1,0
2024-02-06T02:20:15.366162400+00:00,0,0
2024-02-06T02:20:15.381963900+00:00,0,1
2024-02-06T02:20:15.381965120+00:00,0,0
2024-02-06T02:20:15.566111740+00:00,1,0
2024-02-06T02:20:15.566161740+00:00,0,0
2024-02-06T02:20:15.581965600+00:00,0,1
2024-02-06T02:20:15.581966820+00:00,0,0
2024-02-06T02:20:15.766111080+00:00,1,0
2024-02-06T02:20:15.766161080+00:00,0,0
2024-02-06T02:20:15.781968600+00:00,0,1
2024-02-06T02:20:15.781969820+00:00,0,0
2024-02-06T02:20:15.966110420+00:00,1,0
2024-02-06T02:20:15.966160420+00:00,0,0
2024-02-06T02:20:15.981972660+00:00,0,1
2024-02-06T02:20:15.981973880+00:00,0,0
2024-02-06T02:20:16.166109760+00:00,1,0
2024-02-06T02:20:16.166159780+00:00,0,0
2024-02-06T02:20:16.181982200+00:00,0,1
2024-02-06T02:20:16.181983440+00:00,0,0
2024-02-06T02:20:16.366109100+00:00,1,0
2024-02-06T02:20:16.366159120+00:00,0,0
2024-02-06T02:20:16.381977560+00:00,0,1
2024-02-06T02:20:16.381978780+00:00,0,0
2024-02-06T02:20:16.566108440+00:00,1,0
2024-02-06T02:20:16.566158460+00:00,0,0
2024-02-06T02:20:16.581988320+00:00,0,1
2024-02-06T02:20:16.581989540+00:00,0,0
2024-02-06T02:20:16.766107780+00:00,1,0
2024-02-06T02:20:16.766157800+00:00,0,0
2024-02-06T02:20:16.781982960+00:00,0,1
2024-02-06T02:20:16.781984200+00:00,0,0
2024-02-06T02:20:16.966107120+00:00,1,0
2024-02-06T02:20:16.966157140+00:00,0,0
2024-02-06T02:20:16.981994800+00:00,0,1
2024-02-06T02:20:16.981996020+00:00,0,0
2024-02-06T02:20:17.166106460+00:00,1,0
2024-02-06T02:20:17.166156480+00:00,0,0
2024-02-06T02:20:17.181989280+00:00,0,1
2024-02-06T02:20:17.181990500+00:00,0,0
2024-02-06T02:20:17.366105800+00:00,1,0
2024-02-06T02:20:17.366155820+00:00,0,0
2024-02-06T02:20:17.381992000+00:00,0,1
2024-02-06T02:20:17.381993220+00:00,0,0
2024-02-06T02:20:17.566105160+00:00,1,0
2024-02-06T02:20:17.566155160+00:00,0,0
2024-02-06T02:20:17.582002000+00:00,0,1
2024-02-06T02:20:17.582003240+00:00,0,0
2024-02-06T02:20:17.766104500+00:00,1,0
2024-02-06T02:20:17.766154500+00:00,0,0
2024-02-06T02:20:17.781996240+00:00,0,1
2024-02-06T02:20:17.781997460+00:00,0,0
2024-02-06T02:20:17.966103840+00:00,1,0
2024-02-06T02:20:17.966153840+00:00,0,0
2024-02-06T02:20:17.982010120+00:00,0,1
2024-02-06T02:20:17.982011340+00:00,0,0
2024-02-06T02:20:18.166103180+00:00,1,0
2024-02-06T02:20:18.166153180+00:00,0,0
2024-02-06T02:20:18.182003000+00:00,0,1
2024-02-06T02:20:18.182004240+00:00,0,0
2024-02-06T02:20:18.366102520+00:00,1,0
2024-02-06T02:20:18.366152520+00:00,0,0
2024-02-06T02:20:18.382005860+00:00,0,1
2024-02-06T02:20:18.382007080+00:00,0,0
2024-02-06T02:20:18.566101860+00:00,1,0
2024-02-06T02:20:18.566151860+00:00,0,0
2024-02-06T02:20:18.582014760+00:00,0,1
2024-02-06T02:20:18.582015980+00:00,0,0
2024-02-06T02:20:18.766101200+00:00,1,0
2024-02-06T02:20:18.766151200+00:00,0,0
2024-02-06T02:20:18.782011040+00:00,0,1
2024-02-06T02:20:18.782012260+00:00,0,0
2024-02-06T02:20:18.966100540+00:00,1,0
2024-02-06T02:20:18.966150560+00:00,0,0
2024-02-06T02:20:18.982014260+00:00,0,1
2024-02-06T02:20:18.982015480+00:00,0,0
2024-02-06T02:20:19.166099880+00:00,1,0
2024-02-06T02:20:19.166149900+00:00,0,0
2024-02-06T02:20:19.182016980+00:00,0,1
2024-02-06T02:20:19.182018200+00:00,0,0
2024-02-06T02:20:19.366099220+00:00,1,0
2024-02-06T02:20:19.366149240+00:00,0,0
2024-02-06T02:20:19.382028360+00:00,0,1
2024-02-06T02:20:19.382029580+00:00,0,0
2024-02-06T02:20:19.566098560+00:00,1,0
2024-02-06T02:20:19.566148580+00:00,0,0
2024-02-06T02:20:19.582022560+00:00,0,1
2024-02-06T02:20:19.582023780+00:00,0,0
2024-02-06T02:20:19.766097900+00:00,1,0
2024-02-06T02:20:19.766147920+00:00,0,0
2024-02-06T02:20:19.782025160+00:00,0,1
2024-02-06T02:20:19.782026380+00:00,0,0
2024-02-06T02:20:19.966097240+00:00,1,0
2024-02-06T02:20:19.966147260+00:00,0,0
2024-02-06T02:20:19.982027940+00:00,0,1
2024-02-06T02:20:19.982029160+00:00,0,0
2024-02-06T02:20:20.166096580+00:00,1,0
2024-02-06T02:20:20.166146600+00:00,0,0
2024-02-06T02:20:20.182030940+00:00,0,1
2024-02-06T02:20:20.182032160+00:00,0,0
2024-02-06T02:20:20.366095940+00:00,1,0
2024-02-06T02:20:20.366145940+00:00,0,0
2024-02-06T02:20:20.382042580+00:00,0,1
2024-02-06T02:20:20.382043800+00:00,0,0
2024-02-06T02:20:20.566095280+00:00,1,0
2024-02-06T02:20:20.566145280+00:00,0,0
2024-02-06T02:20:20.582035280+00:00,0,1
2024-02-06T02:20:20.582036500+00:00,0,0
2024-02-06T02:20:20.766094620+00:00,1,0
2024-02-06T02:20:20.766144620+00:00,0,0
2024-02-06T02:20:20.782048680+00:00,0,1
2024-02-06T02:20:20.782049900+00:00,0,0
2024-02-06T02:20:20.966093960+00:00,1,0
2024-02-06T02:20:20.966143960+00:00,0,0
2024-02-06T02:20:20.982043020+00:00,0,1
2024-02-06T02:20:20.982044240+00:00,0,0
2024-02-06T02:20:21.166093300+00:00,1,0
2024-02-06T02:20:21.166143300+00:00,0,0
2024-02-06T02:20:21.182043780+00:00,0,1
2024-02-06T02:20:21.182045000+00:00,0,0
2024-02-06T02:20:21.366092640+00:00,1,0
2024-02-06T02:20:21.366142640+00:00,0,0
2024-02-06T02:20:21.382047940+00:00,0,1
2024-02-06T02:20:21.382049180+00:00,0,0
2024-02-06T02:20:21.566091980+00:00,1,0
2024-02-06T02:20:21.566141980+00:00,0,0
2024-02-06T02:20:21.582049160+00:00,0,1
2024-02-06T02:20:21.582050380+00:00,0,0
2024-02-06T02:20:21.766091320+00:00,1,0
2024-02-06T02:20:21.766141320+00:00,0,0
2024-02-06T02:20:21.782061760+00:00,0,1
2024-02-06T02:20:21.782062980+00:00,0,0
2024-02-06T02:20:21.966090660+00:00,1,0
2024-02-06T02:20:21.966140660+00:00,0,0
2024-02-06T02:20:21.982056240+00:00,0,1
2024-02-06T02:20:21.982057460+00:00,0,0
2024-02-06T02:20:22.166090000+00:00,1,0
2024-02-06T02:20:22.166140000+00:00,0,0
2024-02-06T02:20:22.182067380+00:00,0,1
2024-02-06T02:20:22.182068600+00:00,0,0
2024-02-06T02:20:22.366089340+00:00,1,0
2024-02-06T02:20:22.366139340+00:00,0,0
2024-02-06T02:20:22.382061320+00:00,0,1
2024-02-06T02:20:22.382062540+00:00,0,0
2024-02-06T02:20:22.566088680+00:00,1,0
2024-02-06T02:20:22.566138700+00:00,0,0
2024-02-06T02:20:22.582071560+00:00,0,1
2024-02-06T02:20:22.582072780+00:00,0,0
2024-02-06T02:20:22.766088020+00:00,1,0
2024-02-06T02:20:22.766138040+00:00,0,0
2024-02-06T02:20:22.782065940+00:00,0,1
2024-02-06T02:20:22.782067160+00:00,0,0
2024-02-06T02:20:22.966087360+00:00,1,0
2024-02-06T02:20:22.966137380+00:00,0,0
2024-02-06T02:20:22.982069420+00:00,0,1
2024-02-06T02:20:22.982070640+00:00,0,0
2024-02-06T02:20:23.166086700+00:00,1,0
2024-02-06T02:20:23.166136720+00:00,0,0
2024-02-06T02:20:23.182079800+00:00,0,1
2024-02-06T02:20:23.182081020+00:00,0,0
2024-02-06T02:20:23.366086040+00:00,1,0
2024-02-06T02:20:23.366136060+00:00,0,0
2024-02-06T02:20:23.382076000+00:00,0,1
2024-02-06T02:20:23.382077220+00:00,0,0
2024-02-06T02:20:23.566085380+00:00,1,0
2024-02-06T02:20:23.566135400+00:00,0,0
2024-02-06T02:20:23.582086040+00:00,0,1
2024-02-06T02:20:23.582087260+00:00,0,0
2024-02-06T02:20:23.766084720+00:00,1,0
2024-02-06T02:20:23.766134740+00:00,0,0
2024-02-06T02:20:23.782080440+00:00,0,1
2024-02-06T02:20:23.782081660+00:00,0,0
2024-02-06T02:20:23.966084060+00:00,1,0
2024-02-06T02:20:23.966134080+00:00,0,0
2024-02-06T02:20:23.982092360+00:00,0,1
2024-02-06T02:20:23.982093580+00:00,0,0
2024-02-06T02:20:24.166083400+00:00,1,0
2024-02-06T02:20:24.166133420+00:00,0,0
2024-02-06T02:20:24.182085340+00:00,0,1
2024-02-06T02:20:24.182086560+00:00,0,0
2024-02-06T02:20:24.366082740+00:00,1,0
2024-02-06T02:20:24.366132760+00:00,0,0
2024-02-06T02:20:24.382089920+00:00,0,1
2024-02-06T02:20:24.382091140+00:00,0,0
2024-02-06T02:20:24.566082080+00:00,1,0
2024-02-06T02:20:24.566132100+00:00,0,0
2024-02-06T02:20:24.582099540+00:00,0,1
2024-02-06T02:20:24.582100780+00:00,0,0
2024-02-06T02:20:24.766081420+00:00,1,0
2024-02-06T02:20:24.766131440+00:00,0,0
2024-02-06T02:20:24.782094140+00:00,0,1
2024-02-06T02:20:24.782095360+00:00,0,0
2024-02-06T02:20:24.966080760+00:00,1,0
2024-02-06T02:20:24.966130780+00:00,0,0
2024-02-06T02:20:24.982107940+00:00,0,1
2024-02-06T02:20:24.982109160+00:00,0,0
2024-02-06T02:20:25.166080100+00:00,1,0
2024-02-06T02:20:25.166130120+00:00,0,0
2024-02-06T02:20:25.182100040+00:00,0,1
2024-02-06T02:20:25.182101280+00:00,0,0
2024-02-06T02:20:25.366079440+00:00,1,0
2024-02-06T02:20:25.366129460+00:00,0,0
2024-02-06T02:20:25.382111760+00:00,0,1
2024-02-06T02:20:25.382112980+00:00,0,0
2024-02-06T02:20:25.566078780+00:00,1,0
2024-02-06T02:20:25.566128800+00:00,0,0
2024-02-06T02:20:25.582113800+00:00,0,1
2024-02-06T02:20:25.582115020+00:00,0,0
2024-02-06T02:20:25.766078120+00:00,1,0
2024-02-06T02:20:25.766128140+00:00,0,0
2024-02-06T02:20:25.782108540+00:00,0,1
2024-02-06T02:20:25.782109760+00:00,0,0
2024-02-06T02:20:25.966077460+00:00,1,0
2024-02-06T02:20:25.966127480+00:00,0,0
2024-02-06T02:20:25.982120620+00:00,0,1
2024-02-06T02:20:25.982121840+00:00,0,0
2024-02-06T02:20:26.166076800+00:00,1,0
2024-02-06T02:20:26.166126820+00:00,0,0
2024-02-06T02:20:26.182114240+00:00,0,1
2024-02-06T02:20:26.182115460+00:00,0,0
2024-02-06T02:20:26.366076140+00:00,1,0
2024-02-06T02:20:26.366126160+00:00,0,0
2024-02-06T02:20:26.382126220+00:00,0,1
2024-02-06T02:20:26.382127460+00:00,0,0
