Time [s],Channel 0,Channel 1
2024-02-06T10:57:50.067528000+00:00,0,0
2024-02-06T10:57:50.278335940+00:00,1,0
2024-02-06T10:57:50.278385940+00:00,0,0
2024-02-06T10:57:50.281322200+00:00,0,1
2024-02-06T10:57:50.281323300+00:00,0,0
2024-02-06T10:57:50.529335140+00:00,1,0
2024-02-06T10:57:50.529385140+00:00,0,0
2024-02-06T10:57:50.531326840+00:00,0,1
2024-02-06T10:57:50.531327940+00:00,0,0
2024-02-06T10:57:50.780334320+00:00,1,0
2024-02-06T10:57:50.780384340+00:00,0,0
2024-02-06T10:57:50.831338160+00:00,0,1
2024-02-06T10:57:50.831339260+00:00,0,0
2024-02-06T10:57:51.031333520+00:00,1,0
2024-02-06T10:57:51.031383520+00:00,0,0
2024-02-06T10:57:51.081324920+00:00,0,1
2024-02-06T10:57:51.081326020+00:00,0,0
2024-02-06T10:57:51.282332720+00:00,1,0
2024-02-06T10:57:51.282382720+00:00,0,0
2024-02-06T10:57:51.331329260+00:00,0,1
2024-02-06T10:57:51.331330360+00:00,0,0
2024-02-06T10:57:51.533331900+00:00,1,0
2024-02-06T10:57:51.533381920+00:00,0,0
2024-02-06T10:57:51.581333980+00:00,0,1
2024-02-06T10:57:51.581335080+00:00,0,0
2024-02-06T10:57:51.784331100+00:00,1,0
2024-02-06T10:57:51.784381100+00:00,0,0
2024-02-06T10:57:51.831338800+00:00,0,1
2024-02-06T10:57:51.831339880+00:00,0,0
2024-02-06T10:57:52.035330280+00:00,1,0
2024-02-06T10:57:52.035380300+00:00,0,0
2024-02-06T10:57:52.081343220+00:00,0,1
2024-02-06T10:57:52.081344320+00:00,0,0
2024-02-06T10:57:52.286329480+00:00,1,0
2024-02-06T10:57:52.286379480+00:00,0,0
2024-02-06T10:57:52.331347560+00:00,0,1
2024-02-06T10:57:52.331348660+00:00,0,0
2024-02-06T10:57:52.537328680+00:00,1,0
2024-02-06T10:57:52.537378680+00:00,0,0
2024-02-06T10:57:52.581351780+00:00,0,1
2024-02-06T10:57:52.581352880+00:00,0,0
2024-02-06T10:57:52.788327860+00:00,1,0
2024-02-06T10:57:52.788377880+00:00,0,0
2024-02-06T10:57:52.831356480+00:00,0,1
2024-02-06T10:57:52.831357580+00:00,0,0
2024-02-06T10:57:53.039327060+00:00,1,0
2024-02-06T10:57:53.039377060+00:00,0,0
2024-02-06T10:57:53.081360860+00:00,0,1
2024-02-06T10:57:53.081361960+00:00,0,0
2024-02-06T10:57:53.290326240+00:00,1,0
2024-02-06T10:57:53.290376260+00:00,0,0
2024-02-06T10:57:53.331365960+00:00,0,1
2024-02-06T10:57:53.331367060+00:00,0,0
2024-02-06T10:57:53.541325440+00:00,1,0
2024-02-06T10:57:53.541375440+00:00,0,0
2024-02-06T10:57:53.581370120+00:00,0,1
2024-02-06T10:57:53.581371220+00:00,0,0
2024-02-06T10:57:53.792324640+00:00,1,0
2024-02-06T10:57:53.792374640+00:00,0,0
2024-02-06T10:57:53.831374940+00:00,0,1
2024-02-06T10:57:53.831376040+00:00,0,0
2024-02-06T10:57:54.043323820+00:00,1,0
2024-02-06T10:57:54.043373840+00:00,0,0
2024-02-06T10:57:54.081374780+00:00,0,1
2024-02-06T10:57:54.081375880+00:00,0,0
2024-02-06T10:57:54.294323020+00:00,1,0
2024-02-06T10:57:54.294373020+00:00,0,0
2024-02-06T10:57:54.331379640+00:00,0,1
2024-02-06T10:57:54.331380740+00:00,0,0
2024-02-06T10:57:54.545322200+00:00,1,0
2024-02-06T10:57:54.545372220+00:00,0,0
2024-02-06T10:57:54.581383980+00:00,0,1
2024-02-06T10:57:54.581385080+00:00,0,0
2024-02-06T10:57:54.796321400+00:00,1,0
2024-02-06T10:57:54.796371400+00:00,0,0
2024-02-06T10:57:54.831367280+00:00,0,1
2024-02-06T10:57:54.831368380+00:00,0,0
2024-02-06T10:57:55.047320600+00:00,1,0
2024-02-06T10:57:55.047370600+00:00,0,0
2024-02-06T10:57:55.081371500+00:00,0,1
2024-02-06T10:57:55.081372600+00:00,0,0
2024-02-06T10:57:55.298319780+00:00,1,0
2024-02-06T10:57:55.298369780+00:00,0,0
2024-02-06T10:57:55.331376260+00:00,0,1
2024-02-06T10:57:55.331377360+00:00,0,0
2024-02-06T10:57:55.549318980+00:00,1,0
2024-02-06T10:57:55.549368980+00:00,0,0
2024-02-06T10:57:55.581380780+00:00,0,1
2024-02-06T10:57:55.581381880+00:00,0,0
2024-02-06T10:57:55.800318160+00:00,1,0
2024-02-06T10:57:55.800368180+00:00,0,0
2024-02-06T10:57:55.831385000+00:00,0,1
2024-02-06T10:57:55.831386100+00:00,0,0
2024-02-06T10:57:56.051317360+00:00,1,0
2024-02-06T10:57:56.051367360+00:00,0,0
2024-02-06T10:57:56.081389700+00:00,0,1
2024-02-06T10:57:56.081390800+00:00,0,0
2024-02-06T10:57:56.302316540+00:00,1,0
2024-02-06T10:57:56.302366560+00:00,0,0
2024-02-06T10:57:56.331390060+00:00,0,1
2024-02-06T10:57:56.331391140+00:00,0,0
2024-02-06T10:57:56.553315740+00:00,1,0
2024-02-06T10:57:56.553365740+00:00,0,0
2024-02-06T10:57:56.581394200+00:00,0,1
2024-02-06T10:57:56.581395300+00:00,0,0
2024-02-06T10:57:56.804314920+00:00,1,0
2024-02-06T10:57:56.804364940+00:00,0,0
2024-02-06T10:57:56.831399420+00:00,0,1
2024-02-06T10:57:56.831400520+00:00,0,0
2024-02-06T10:57:57.055314120+00:00,1,0
2024-02-06T10:57:57.055364120+00:00,0,0
2024-02-06T10:57:57.081403820+00:00,0,1
2024-02-06T10:57:57.081404920+00:00,0,0
2024-02-06T10:57:57.306313300+00:00,1,0
2024-02-06T10:57:57.306363320+00:00,0,0
2024-02-06T10:57:57.331408660+00:00,0,1
2024-02-06T10:57:57.331409760+00:00,0,0
2024-02-06T10:57:57.557312500+00:00,1,0
2024-02-06T10:57:57.557362500+00:00,0,0
2024-02-06T10:57:57.581413120+00:00,0,1
2024-02-06T10:57:57.581414220+00:00,0,0
2024-02-06T10:57:57.808311680+00:00,1,0
2024-02-06T10:57:57.808361700+00:00,0,0
2024-02-06T10:57:57.831417620+00:00,0,1
2024-02-06T10:57:57.831418720+00:00,0,0
2024-02-06T10:57:58.059310880+00:00,1,0
2024-02-06T10:57:58.059360880+00:00,0,0
2024-02-06T10:57:58.081421960+00:00,0,1
2024-02-06T10:57:58.081423060+00:00,0,0
2024-02-06T10:57:58.310310060+00:00,1,0
2024-02-06T10:57:58.310360080+00:00,0,0
2024-02-06T10:57:58.331426720+00:00,0,1
2024-02-06T10:57:58.331427800+00:00,0,0
2024-02-06T10:57:58.561309260+00:00,1,0
2024-02-06T10:57:58.561359260+00:00,0,0
2024-02-06T10:57:58.581430840+00:00,0,1
2024-02-06T10:57:58.581431920+00:00,0,0
2024-02-06T10:57:58.812308440+00:00,1,0
2024-02-06T10:57:58.812358460+00:00,0,0
2024-02-06T10:57:58.831435880+00:00,0,1
2024-02-06T10:57:58.831436980+00:00,0,0
2024-02-06T10:57:59.063307640+00:00,1,0
2024-02-06T10:57:59.063357640+00:00,0,0
2024-02-06T10:57:59.081440300+00:00,0,1
2024-02-06T10:57:59.081441400+00:00,0,0
2024-02-06T10:57:59.314306820+00:00,1,0
2024-02-06T10:57:59.314356820+00:00,0,0
2024-02-06T10:57:59.331444840+00:00,0,1
2024-02-06T10:57:59.331445940+00:00,0,0
2024-02-06T10:57:59.565306020+00:00,1,0
2024-02-06T10:57:59.565356020+00:00,0,0
2024-02-06T10:57:59.581449120+00:00,0,1
2024-02-06T10:57:59.581450220+00:00,0,0
2024-02-06T10:57:59.816305200+00:00,1,0
2024-02-06T10:57:59.816355200+00:00,0,0
2024-02-06T10:57:59.831454040+00:00,0,1
2024-02-06T10:57:59.831455140+00:00,0,0
2024-02-06T10:58:00.067304380+00:00,1,0
2024-02-06T10:58:00.067354400+00:00,0,0
2024-02-06T10:58:00.081458720+00:00,0,1
2024-02-06T10:58:00.081459820+00:00,0,0
2024-02-06T10:58:00.318303580+00:00,1,0
2024-02-06T10:58:00.318353580+00:00,0,0
2024-02-06T10:58:00.331463320+00:00,0,1
2024-02-06T10:58:00.331464420+00:00,0,0
2024-02-06T10:58:00.569302760+00:00,1,0
2024-02-06T10:58:00.569352780+00:00,0,0
2024-02-06T10:58:00.581467840+00:00,0,1
2024-02-06T10:58:00.581468940+00:00,0,0
2024-02-06T10:58:00.820301960+00:00,1,0
2024-02-06T10:58:00.820351960+00:00,0,0
2024-02-06T10:58:00.831468100+00:00,0,1
2024-02-06T10:58:00.831469200+00:00,0,0
2024-02-06T10:58:01.071301140+00:00,1,0
2024-02-06T10:58:01.071351140+00:00,0,0
2024-02-06T10:58:01.081472320+00:00,0,1
2024-02-06T10:58:01.081473420+00:00,0,0
2024-02-06T10:58:01.322300340+00:00,1,0
2024-02-06T10:58:01.322350340+00:00,0,0
2024-02-06T10:58:01.331477220+00:00,0,1
2024-02-06T10:58:01.331478320+00:00,0,0
2024-02-06T10:58:01.573299520+00:00,1,0
2024-02-06T10:58:01.573349520+00:00,0,0
2024-02-06T10:58:01.581481640+00:00,0,1
2024-02-06T10:58:01.581482740+00:00,0,0
2024-02-06T10:58:01.824298700+00:00,1,0
2024-02-06T10:58:01.824348720+00:00,0,0
2024-02-06T10:58:01.831486300+00:00,0,1
2024-02-06T10:58:01.831487400+00:00,0,0
2024-02-06T10:58:02.075297900+00:00,1,0
2024-02-06T10:58:02.075347900+00:00,0,0
2024-02-06T10:58:02.081468980+00:00,0,1
2024-02-06T10:58:02.081470080+00:00,0,0
2024-02-06T10:58:02.326297080+00:00,1,0
2024-02-06T10:58:02.326347100+00:00,0,0
2024-02-06T10:58:02.331473740+00:00,0,1
2024-02-06T10:58:02.331474820+00:00,0,0
2024-02-06T10:58:02.577296280+00:00,1,0
2024-02-06T10:58:02.577346280+00:00,0,0
2024-02-06T10:58:02.581478260+00:00,0,1
2024-02-06T10:58:02.581479360+00:00,0,0
2024-02-06T10:58:02.828295460+00:00,1,0
2024-02-06T10:58:02.828345460+00:00,0,0
2024-02-06T10:58:02.831482620+00:00,0,1
2024-02-06T10:58:02.831483720+00:00,0,0
2024-02-06T10:58:03.079294640+00:00,1,0
2024-02-06T10:58:03.079344660+00:00,0,0
2024-02-06T10:58:03.081486640+00:00,0,1
2024-02-06T10:58:03.081487740+00:00,0,0
2024-02-06T10:58:03.330293840+00:00,1,0
2024-02-06T10:58:03.330343840+00:00,0,0
2024-02-06T10:58:03.331487340+00:00,0,1
2024-02-06T10:58:03.331488440+00:00,0,0
2024-02-06T10:58:03.581293020+00:00,1,0
2024-02-06T10:58:03.581343020+00:00,0,0
2024-02-06T10:58:03.631515580+00:00,0,1
2024-02-06T10:58:03.631516680+00:00,0,0
2024-02-06T10:58:03.832292200+00:00,1,0
2024-02-06T10:58:03.832342220+00:00,0,0
2024-02-06T10:58:03.881511160+00:00,0,1
2024-02-06T10:58:03.881512260+00:00,0,0
2024-02-06T10:58:04.083291400+00:00,1,0
2024-02-06T10:58:04.083341400+00:00,0,0
2024-02-06T10:58:04.131519800+00:00,0,1
2024-02-06T10:58:04.131520900+00:00,0,0
2024-02-06T10:58:04.334290580+00:00,1,0
2024-02-06T10:58:04.334340580+00:00,0,0
2024-02-06T10:58:04.381520460+00:00,0,1
2024-02-06T10:58:04.381521540+00:00,0,0
2024-02-06T10:58:04.585289760+00:00,1,0
2024-02-06T10:58:04.585339780+00:00,0,0
2024-02-06T10:58:04.631525100+00:00,0,1
2024-02-06T10:58:04.631526200+00:00,0,0
2024-02-06T10:58:04.836288960+00:00,1,0
2024-02-06T10:58:04.836338960+00:00,0,0
2024-02-06T10:58:04.881508160+00:00,0,1
2024-02-06T10:58:04.881509260+00:00,0,0
2024-02-06T10:58:05.087288140+00:00,1,0
2024-02-06T10:58:05.087338160+00:00,0,0
2024-02-06T10:58:05.131512480+00:00,0,1
2024-02-06T10:58:05.131513580+00:00,0,0
2024-02-06T10:58:05.338287340+00:00,1,0
2024-02-06T10:58:05.338337340+00:00,0,0
2024-02-06T10:58:05.381517200+00:00,0,1
2024-02-06T10:58:05.381518300+00:00,0,0
2024-02-06T10:58:05.589286520+00:00,1,0
2024-02-06T10:58:05.589336520+00:00,0,0
2024-02-06T10:58:05.631521120+00:00,0,1
2024-02-06T10:58:05.631522200+00:00,0,0
2024-02-06T10:58:05.840285700+00:00,1,0
2024-02-06T10:58:05.840335700+00:00,0,0
2024-02-06T10:58:05.881525540+00:00,0,1
2024-02-06T10:58:05.881526640+00:00,0,0
2024-02-06T10:58:06.091284900+00:00,1,0
2024-02-06T10:58:06.091334900+00:00,0,0
2024-02-06T10:58:06.131525860+00:00,0,1
2024-02-06T10:58:06.131526960+00:00,0,0
2024-02-06T10:58:06.342284080+00:00,1,0
2024-02-06T10:58:06.342334080+00:00,0,0
2024-02-06T10:58:06.381530320+00:00,0,1
2024-02-06T10:58:06.381531420+00:00,0,0
2024-02-06T10:58:06.593283260+00:00,1,0
2024-02-06T10:58:06.593333260+00:00,0,0
2024-02-06T10:58:06.631534780+00:00,0,1
2024-02-06T10:58:06.631535860+00:00,0,0
2024-02-06T10:58:06.844282440+00:00,1,0
2024-02-06T10:58:06.844332460+00:00,0,0
2024-02-06T10:58:06.881539760+00:00,0,1
2024-02-06T10:58:06.881540860+00:00,0,0
2024-02-06T10:58:07.095281640+00:00,1,0
2024-02-06T10:58:07.095331640+00:00,0,0
2024-02-06T10:58:07.131544220+00:00,0,1
2024-02-06T10:58:07.131545320+00:00,0,0
2024-02-06T10:58:07.346280820+00:00,1,0
2024-02-06T10:58:07.346330820+00:00,0,0
2024-02-06T10:58:07.381549180+00:00,0,1
2024-02-06T10:58:07.381550280+00:00,0,0
2024-02-06T10:58:07.597280000+00:00,1,0
2024-02-06T10:58:07.597330020+00:00,0,0
2024-02-06T10:58:07.631553620+00:00,0,1
2024-02-06T10:58:07.631554720+00:00,0,0
2024-02-06T10:58:07.848279200+00:00,1,0
2024-02-06T10:58:07.848329200+00:00,0,0
2024-02-06T10:58:07.881558400+00:00,0,1
2024-02-06T10:58:07.881559500+00:00,0,0
2024-02-06T10:58:08.099278380+00:00,1,0
2024-02-06T10:58:08.099328380+00:00,0,0
2024-02-06T10:58:08.131562720+00:00,0,1
2024-02-06T10:58:08.131563820+00:00,0,0
2024-02-06T10:58:08.350277560+00:00,1,0
2024-02-06T10:58:08.350327580+00:00,0,0
2024-02-06T10:58:08.381567120+00:00,0,1
2024-02-06T10:58:08.381568200+00:00,0,0
2024-02-06T10:58:08.601276760+00:00,1,0
2024-02-06T10:58:08.601326760+00:00,0,0
2024-02-06T10:58:08.631571800+00:00,0,1
2024-02-06T10:58:08.631572900+00:00,0,0
2024-02-06T10:58:08.852275940+00:00,1,0
2024-02-06T10:58:08.852325940+00:00,0,0
2024-02-06T10:58:08.881576360+00:00,0,1
2024-02-06T10:58:08.881577460+00:00,0,0
2024-02-06T10:58:09.103275120+00:00,1,0
2024-02-06T10:58:09.103325120+00:00,0,0
2024-02-06T10:58:09.131580800+00:00,0,1
2024-02-06T10:58:09.131581900+00:00,0,0
2024-02-06T10:58:09.354274300+00:00,1,0
2024-02-06T10:58:09.354324320+00:00,0,0
2024-02-06T10:58:09.381585300+00:00,0,1
2024-02-06T10:58:09.381586400+00:00,0,0
2024-02-06T10:58:09.605273500+00:00,1,0
2024-02-06T10:58:09.605323500+00:00,0,0
2024-02-06T10:58:09.631589820+00:00,0,1
2024-02-06T10:58:09.631590920+00:00,0,0
2024-02-06T10:58:09.856272680+00:00,1,0
2024-02-06T10:58:09.856322680+00:00,0,0
2024-02-06T10:58:09.881594540+00:00,0,1
2024-02-06T10:58:09.881595640+00:00,0,0
2024-02-06T10:58:10.107271860+00:00,1,0
2024-02-06T10:58:10.107321880+00:00,0,0
2024-02-06T10:58:10.131599200+00:00,0,1
2024-02-06T10:58:10.131600300+00:00,0,0
2024-02-06T10:58:10.358271060+00:00,1,0
2024-02-06T10:58:10.358321060+00:00,0,0
2024-02-06T10:58:10.381603900+00:00,0,1
2024-02-06T10:58:10.381604980+00:00,0,0
2024-02-06T10:58:10.609270240+00:00,1,0
2024-02-06T10:58:10.609320240+00:00,0,0
2024-02-06T10:58:10.631603820+00:00,0,1
2024-02-06T10:58:10.631604900+00:00,0,0
2024-02-06T10:58:10.860269420+00:00,1,0
2024-02-06T10:58:10.860319420+00:00,0,0
2024-02-06T10:58:10.881608540+00:00,0,1
2024-02-06T10:58:10.881609640+00:00,0,0
2024-02-06T10:58:11.111268600+00:00,1,0
2024-02-06T10:58:11.111318620+00:00,0,0
2024-02-06T10:58:11.131617820+00:00,0,1
2024-02-06T10:58:11.131618920+00:00,0,0
2024-02-06T10:58:11.362267800+00:00,1,0
2024-02-06T10:58:11.362317800+00:00,0,0
2024-02-06T10:58:11.381617820+00:00,0,1
2024-02-06T10:58:11.381618920+00:00,0,0
2024-02-06T10:58:11.613266980+00:00,1,0
2024-02-06T10:58:11.613316980+00:00,0,0
2024-02-06T10:58:11.631622380+00:00,0,1
2024-02-06T10:58:11.631623480+00:00,0,0
2024-02-06T10:58:11.864266160+00:00,1,0
2024-02-06T10:58:11.864316160+00:00,0,0
2024-02-06T10:58:11.881605560+00:00,0,1
2024-02-06T10:58:11.881606640+00:00,0,0
2024-02-06T10:58:12.115265340+00:00,1,0
2024-02-06T10:58:12.115315360+00:00,0,0
2024-02-06T10:58:12.131609220+00:00,0,1
2024-02-06T10:58:12.131610320+00:00,0,0
2024-02-06T10:58:12.366264540+00:00,1,0
2024-02-06T10:58:12.366314540+00:00,0,0
2024-02-06T10:58:12.381614440+00:00,0,1
2024-02-06T10:58:12.381615540+00:00,0,0
2024-02-06T10:58:12.617263720+00:00,1,0
2024-02-06T10:58:12.617313720+00:00,0,0
2024-02-06T10:58:12.631618380+00:00,0,1
2024-02-06T10:58:12.631619480+00:00,0,0
2024-02-06T10:58:12.868262900+00:00,1,0
2024-02-06T10:58:12.868312900+00:00,0,0
2024-02-06T10:58:12.881623000+00:00,0,1
2024-02-06T10:58:12.881624080+00:00,0,0
2024-02-06T10:58:13.119262080+00:00,1,0
2024-02-06T10:58:13.119312100+00:00,0,0
2024-02-06T10:58:13.131627300+00:00,0,1
2024-02-06T10:58:13.131628400+00:00,0,0
2024-02-06T10:58:13.370261280+00:00,1,0
2024-02-06T10:58:13.370311280+00:00,0,0
2024-02-06T10:58:13.381627920+00:00,0,1
2024-02-06T10:58:13.381629020+00:00,0,0
2024-02-06T10:58:13.621260460+00:00,1,0
2024-02-06T10:58:13.621310460+00:00,0,0
2024-02-06T10:58:13.631632380+00:00,0,1
2024-02-06T10:58:13.631633460+00:00,0,0
2024-02-06T10:58:13.872259640+00:00,1,0
2024-02-06T10:58:13.872309640+00:00,0,0
2024-02-06T10:58:13.881636880+00:00,0,1
2024-02-06T10:58:13.881637960+00:00,0,0
2024-02-06T10:58:14.123258820+00:00,1,0
2024-02-06T10:58:14.123308820+00:00,0,0
2024-02-06T10:58:14.131641300+00:00,0,1
2024-02-06T10:58:14.131642400+00:00,0,0
2024-02-06T10:58:14.374258000+00:00,1,0
2024-02-06T10:58:14.374308020+00:00,0,0
2024-02-06T10:58:14.381646160+00:00,0,1
2024-02-06T10:58:14.381647260+00:00,0,0
2024-02-06T10:58:14.625257200+00:00,1,0
2024-02-06T10:58:14.625307200+00:00,0,0
2024-02-06T10:58:14.631650480+00:00,0,1
2024-02-06T10:58:14.631651580+00:00,0,0
2024-02-06T10:58:14.876256380+00:00,1,0
2024-02-06T10:58:14.876306380+00:00,0,0
2024-02-06T10:58:14.881655180+00:00,0,1
2024-02-06T10:58:14.881656280+00:00,0,0
2024-02-06T10:58:15.127255560+00:00,1,0
2024-02-06T10:58:15.127305560+00:00,0,0
2024-02-06T10:58:15.131659480+00:00,0,1
2024-02-06T10:58:15.131660580+00:00,0,0
2024-02-06T10:58:15.378254740+00:00,1,0
2024-02-06T10:58:15.378304760+00:00,0,0
2024-02-06T10:58:15.381664460+00:00,0,1
2024-02-06T10:58:15.381665560+00:00,0,0
2024-02-06T10:58:15.629253920+00:00,1,0
2024-02-06T10:58:15.629303940+00:00,0,0
2024-02-06T10:58:15.631668500+00:00,0,1
2024-02-06T10:58:15.631669600+00:00,0,0
2024-02-06T10:58:15.880253120+00:00,1,0
2024-02-06T10:58:15.880303120+00:00,0,0
2024-02-06T10:58:15.881673700+00:00,0,1
2024-02-06T10:58:15.881674800+00:00,0,0
2024-02-06T10:58:16.131252300+00:00,1,0
2024-02-06T10:58:16.131302300+00:00,0,0
2024-02-06T10:58:16.181689340+00:00,0,1
2024-02-06T10:58:16.181690440+00:00,0,0
2024-02-06T10:58:16.382251480+00:00,1,0
2024-02-06T10:58:16.382301480+00:00,0,0
2024-02-06T10:58:16.431671300+00:00,0,1
2024-02-06T10:58:16.431672400+00:00,0,0
2024-02-06T10:58:16.633250660+00:00,1,0
2024-02-06T10:58:16.633300680+00:00,0,0
2024-02-06T10:58:16.681675740+00:00,0,1
2024-02-06T10:58:16.681676840+00:00,0,0
2024-02-06T10:58:16.884249860+00:00,1,0
2024-02-06T10:58:16.884299860+00:00,0,0
2024-02-06T10:58:16.931680680+00:00,0,1
2024-02-06T10:58:16.931681780+00:00,0,0
2024-02-06T10:58:17.135249040+00:00,1,0
2024-02-06T10:58:17.135299040+00:00,0,0
2024-02-06T10:58:17.181685080+00:00,0,1
2024-02-06T10:58:17.181686180+00:00,0,0
2024-02-06T10:58:17.386248220+00:00,1,0
2024-02-06T10:58:17.386298220+00:00,0,0
2024-02-06T10:58:17.431690060+00:00,0,1
2024-02-06T10:58:17.431691160+00:00,0,0
2024-02-06T10:58:17.637247400+00:00,1,0
2024-02-06T10:58:17.637297400+00:00,0,0
2024-02-06T10:58:17.681694200+00:00,0,1
2024-02-06T10:58:17.681695300+00:00,0,0
2024-02-06T10:58:17.888246580+00:00,1,0
2024-02-06T10:58:17.888296600+00:00,0,0
2024-02-06T10:58:17.931699020+00:00,0,1
2024-02-06T10:58:17.931700120+00:00,0,0
2024-02-06T10:58:18.139245780+00:00,1,0
2024-02-06T10:58:18.139295780+00:00,0,0
2024-02-06T10:58:18.181703080+00:00,0,1
2024-02-06T10:58:18.181704180+00:00,0,0
2024-02-06T10:58:18.390244960+00:00,1,0
2024-02-06T10:58:18.390294960+00:00,0,0
2024-02-06T10:58:18.431708040+00:00,0,1
2024-02-06T10:58:18.431709140+00:00,0,0
2024-02-06T10:58:18.641244140+00:00,1,0
2024-02-06T10:58:18.641294140+00:00,0,0
2024-02-06T10:58:18.681712340+00:00,0,1
2024-02-06T10:58:18.681713440+00:00,0,0
2024-02-06T10:58:18.892243320+00:00,1,0
2024-02-06T10:58:18.892293320+00:00,0,0
2024-02-06T10:58:18.931717200+00:00,0,1
2024-02-06T10:58:18.931718300+00:00,0,0
2024-02-06T10:58:19.143242500+00:00,1,0
2024-02-06T10:58:19.143292520+00:00,0,0
2024-02-06T10:58:19.181721020+00:00,0,1
2024-02-06T10:58:19.181722100+00:00,0,0
2024-02-06T10:58:19.394241680+00:00,1,0
2024-02-06T10:58:19.394291700+00:00,0,0
2024-02-06T10:58:19.431725760+00:00,0,1
2024-02-06T10:58:19.431726860+00:00,0,0
2024-02-06T10:58:19.645240880+00:00,1,0
2024-02-06T10:58:19.645290880+00:00,0,0
2024-02-06T10:58:19.681730300+00:00,0,1
2024-02-06T10:58:19.681731400+00:00,0,0
2024-02-06T10:58:19.896240060+00:00,1,0
2024-02-06T10:58:19.896290060+00:00,0,0
2024-02-06T10:58:19.931735040+00:00,0,1
2024-02-06T10:58:19.931736140+00:00,0,0
2024-02-06T10:58:20.147239240+00:00,1,0
2024-02-06T10:58:20.147289240+00:00,0,0
2024-02-06T10:58:20.181739480+00:00,0,1
2024-02-06T10:58:20.181740580+00:00,0,0
2024-02-06T10:58:20.398238420+00:00,1,0
2024-02-06T10:58:20.398288420+00:00,0,0
2024-02-06T10:58:20.431739860+00:00,0,1
2024-02-06T10:58:20.431740960+00:00,0,0
2024-02-06T10:58:20.649237600+00:00,1,0
2024-02-06T10:58:20.649287620+00:00,0,0
2024-02-06T10:58:20.681745260+00:00,0,1
2024-02-06T10:58:20.681746340+00:00,0,0
2024-02-06T10:58:20.900236780+00:00,1,0
2024-02-06T10:58:20.900286800+00:00,0,0
2024-02-06T10:58:20.931749580+00:00,0,1
2024-02-06T10:58:20.931750680+00:00,0,0
2024-02-06T10:58:21.151235980+00:00,1,0
2024-02-06T10:58:21.151285980+00:00,0,0
2024-02-06T10:58:21.181757840+00:00,0,1
2024-02-06T10:58:21.181758940+00:00,0,0
2024-02-06T10:58:21.402235160+00:00,1,0
2024-02-06T10:58:21.402285160+00:00,0,0
