Time [s],Channel 0,Channel 1
2024-02-06T01:34:56.801431000+00:00,0,0
2024-02-06T01:34:56.977341080+00:00,1,0
2024-02-06T01:34:56.977391100+00:00,0,0
2024-02-06T01:34:56.999853600+00:00,0,1
2024-02-06T01:34:56.999854680+00:00,0,0
2024-02-06T01:34:57.177340440+00:00,1,0
2024-02-06T01:34:57.177390460+00:00,0,0
2024-02-06T01:34:57.199856480+00:00,0,1
2024-02-06T01:34:57.199857560+00:00,0,0
2024-02-06T01:34:57.377339800+00:00,1,0
2024-02-06T01:34:57.377389820+00:00,0,0
2024-02-06T01:34:57.399859780+00:00,0,1
2024-02-06T01:34:57.399860860+00:00,0,0
2024-02-06T01:34:57.577339160+00:00,1,0
2024-02-06T01:34:57.577389160+00:00,0,0
2024-02-06T01:34:57.599862900+00:00,0,1
2024-02-06T01:34:57.599863980+00:00,0,0
2024-02-06T01:34:57.777338520+00:00,1,0
2024-02-06T01:34:57.777388520+00:00,0,0
2024-02-06T01:34:57.799864640+00:00,0,1
2024-02-06T01:34:57.799865720+00:00,0,0
2024-02-06T01:34:57.977337880+00:00,1,0
2024-02-06T01:34:57.977387880+00:00,0,0
2024-02-06T01:34:57.999867900+00:00,0,1
2024-02-06T01:34:57.999868980+00:00,0,0
2024-02-06T01:34:58.177337240+00:00,1,0
2024-02-06T01:34:58.177387240+00:00,0,0
2024-02-06T01:34:58.199871160+00:00,0,1
2024-02-06T01:34:58.199872240+00:00,0,0
2024-02-06T01:34:58.377336600+00:00,1,0
2024-02-06T01:34:58.377386600+00:00,0,0
2024-02-06T01:34:58.399872560+00:00,0,1
2024-02-06T01:34:58.399873640+00:00,0,0
2024-02-06T01:34:58.577335940+00:00,1,0
2024-02-06T01:34:58.577385960+00:00,0,0
2024-02-06T01:34:58.599876600+00:00,0,1
2024-02-06T01:34:58.599877680+00:00,0,0
2024-02-06T01:34:58.777335300+00:00,1,0
2024-02-06T01:34:58.777385320+00:00,0,0
2024-02-06T01:34:58.799878920+00:00,0,1
2024-02-06T01:34:58.799880000+00:00,0,0
2024-02-06T01:34:58.977334660+00:00,1,0
2024-02-06T01:34:58.977384680+00:00,0,0
2024-02-06T01:34:58.999881860+00:00,0,1
2024-02-06T01:34:58.999882940+00:00,0,0
2024-02-06T01:34:59.177334020+00:00,1,0
2024-02-06T01:34:59.177384040+00:00,0,0
2024-02-06T01:34:59.199884320+00:00,0,1
2024-02-06T01:34:59.199885400+00:00,0,0
2024-02-06T01:34:59.377333380+00:00,1,0
2024-02-06T01:34:59.377383400+00:00,0,0
2024-02-06T01:34:59.399887380+00:00,0,1
2024-02-06T01:34:59.399888460+00:00,0,0
2024-02-06T01:34:59.577332740+00:00,1,0
2024-02-06T01:34:59.577382740+00:00,0,0
2024-02-06T01:34:59.599890620+00:00,0,1
2024-02-06T01:34:59.599891700+00:00,0,0
2024-02-06T01:34:59.777332100+00:00,1,0
2024-02-06T01:34:59.777382100+00:00,0,0
2024-02-06T01:34:59.799891680+00:00,0,1
2024-02-06T01:34:59.799892760+00:00,0,0
2024-02-06T01:34:59.977331460+00:00,1,0
2024-02-06T01:34:59.977381460+00:00,0,0
2024-02-06T01:34:59.999895560+00:00,0,1
2024-02-06T01:34:59.999896640+00:00,0,0
2024-02-06T01:35:00.177330820+00:00,1,0
2024-02-06T01:35:00.177380820+00:00,0,0
2024-02-06T01:35:00.199898660+00:00,0,1
2024-02-06T01:35:00.199899740+00:00,0,0
2024-02-06T01:35:00.377330160+00:00,1,0
2024-02-06T01:35:00.377380180+00:00,0,0
2024-02-06T01:35:00.399900340+00:00,0,1
2024-02-06T01:35:00.399901420+00:00,0,0
2024-02-06T01:35:00.577329520+00:00,1,0
2024-02-06T01:35:00.577379540+00:00,0,0
2024-02-06T01:35:00.599904000+00:00,0,1
2024-02-06T01:35:00.599905080+00:00,0,0
2024-02-06T01:35:00.777328880+00:00,1,0
2024-02-06T01:35:00.777378900+00:00,0,0
2024-02-06T01:35:00.799905920+00:00,0,1
2024-02-06T01:35:00.799907000+00:00,0,0
2024-02-06T01:35:00.977328240+00:00,1,0
2024-02-06T01:35:00.977378260+00:00,0,0
2024-02-06T01:35:00.999909440+00:00,0,1
2024-02-06T01:35:00.999910520+00:00,0,0
2024-02-06T01:35:01.177327600+00:00,1,0
2024-02-06T01:35:01.177377600+00:00,0,0
2024-02-06T01:35:01.199912780+00:00,0,1
2024-02-06T01:35:01.199913860+00:00,0,0
2024-02-06T01:35:01.377326960+00:00,1,0
2024-02-06T01:35:01.377376960+00:00,0,0
2024-02-06T01:35:01.399915160+00:00,0,1
2024-02-06T01:35:01.399916240+00:00,0,0
2024-02-06T01:35:01.577326320+00:00,1,0
2024-02-06T01:35:01.577376320+00:00,0,0
2024-02-06T01:35:01.599918640+00:00,0,1
2024-02-06T01:35:01.599919720+00:00,0,0
2024-02-06T01:35:01.777325680+00:00,1,0
2024-02-06T01:35:01.777375680+00:00,0,0
2024-02-06T01:35:01.799921280+00:00,0,1
2024-02-06T01:35:01.799922360+00:00,0,0
2024-02-06T01:35:01.977325020+00:00,1,0
2024-02-06T01:35:01.977375040+00:00,0,0
2024-02-06T01:35:01.999923600+00:00,0,1
2024-02-06T01:35:01.999924680+00:00,0,0
2024-02-06T01:35:02.177324380+00:00,1,0
2024-02-06T01:35:02.177374400+00:00,0,0
2024-02-06T01:35:02.199926500+00:00,0,1
2024-02-06T01:35:02.199927580+00:00,0,0
2024-02-06T01:35:02.377323740+00:00,1,0
2024-02-06T01:35:02.377373760+00:00,0,0
2024-02-06T01:35:02.399929460+00:00,0,1
2024-02-06T01:35:02.399930540+00:00,0,0
2024-02-06T01:35:02.577323100+00:00,1,0
2024-02-06T01:35:02.577373100+00:00,0,0
2024-02-06T01:35:02.599932100+00:00,0,1
2024-02-06T01:35:02.599933180+00:00,0,0
2024-02-06T01:35:02.777322460+00:00,1,0
2024-02-06T01:35:02.777372460+00:00,0,0
2024-02-06T01:35:02.799934940+00:00,0,1
2024-02-06T01:35:02.799936020+00:00,0,0
2024-02-06T01:35:02.977321820+00:00,1,0
2024-02-06T01:35:02.977371820+00:00,0,0
2024-02-06T01:35:02.999938140+00:00,0,1
2024-02-06T01:35:02.999939220+00:00,0,0
2024-02-06T01:35:03.177321180+00:00,1,0
2024-02-06T01:35:03.177371180+00:00,0,0
2024-02-06T01:35:03.199940420+00:00,0,1
2024-02-06T01:35:03.199941500+00:00,0,0
2024-02-06T01:35:03.377320520+00:00,1,0
2024-02-06T01:35:03.377370540+00:00,0,0
2024-02-06T01:35:03.399942960+00:00,0,1
2024-02-06T01:35:03.399944040+00:00,0,0
2024-02-06T01:35:03.577319880+00:00,1,0
2024-02-06T01:35:03.577369900+00:00,0,0
2024-02-06T01:35:03.599946620+00:00,0,1
2024-02-06T01:35:03.599947700+00:00,0,0
2024-02-06T01:35:03.777319240+00:00,1,0
2024-02-06T01:35:03.777369260+00:00,0,0
2024-02-06T01:35:03.799948420+00:00,0,1
2024-02-06T01:35:03.799949480+00:00,0,0
2024-02-06T01:35:03.977318600+00:00,1,0
2024-02-06T01:35:03.977368600+00:00,0,0
2024-02-06T01:35:03.999951500+00:00,0,1
2024-02-06T01:35:03.999952580+00:00,0,0
2024-02-06T01:35:04.177317960+00:00,1,0
2024-02-06T01:35:04.177367960+00:00,0,0
2024-02-06T01:35:04.199954600+00:00,0,1
2024-02-06T01:35:04.199955680+00:00,0,0
2024-02-06T01:35:04.377317320+00:00,1,0
2024-02-06T01:35:04.377367320+00:00,0,0
2024-02-06T01:35:04.399956600+00:00,0,1
2024-02-06T01:35:04.399957680+00:00,0,0
2024-02-06T01:35:04.577316660+00:00,1,0
2024-02-06T01:35:04.577366680+00:00,0,0
2024-02-06T01:35:04.599960820+00:00,0,1
2024-02-06T01:35:04.599961900+00:00,0,0
2024-02-06T01:35:04.777316020+00:00,1,0
2024-02-06T01:35:04.777366040+00:00,0,0
2024-02-06T01:35:04.799961980+00:00,0,1
2024-02-06T01:35:04.799963060+00:00,0,0
2024-02-06T01:35:04.977315380+00:00,1,0
2024-02-06T01:35:04.977365380+00:00,0,0
2024-02-06T01:35:04.999965840+00:00,0,1
2024-02-06T01:35:04.999966920+00:00,0,0
2024-02-06T01:35:05.177314740+00:00,1,0
2024-02-06T01:35:05.177364740+00:00,0,0
2024-02-06T01:35:05.199968420+00:00,0,1
2024-02-06T01:35:05.199969500+00:00,0,0
2024-02-06T01:35:05.377314100+00:00,1,0
2024-02-06T01:35:05.377364100+00:00,0,0
2024-02-06T01:35:05.399971100+00:00,0,1
2024-02-06T01:35:05.399972180+00:00,0,0
2024-02-06T01:35:05.577313440+00:00,1,0
2024-02-06T01:35:05.577363460+00:00,0,0
2024-02-06T01:35:05.599974940+00:00,0,1
2024-02-06T01:35:05.599976020+00:00,0,0
2024-02-06T01:35:05.777312800+00:00,1,0
2024-02-06T01:35:05.777362820+00:00,0,0
2024-02-06T01:35:05.799976360+00:00,0,1
2024-02-06T01:35:05.799977420+00:00,0,0
2024-02-06T01:35:05.977312160+00:00,1,0
2024-02-06T01:35:05.977362180+00:00,0,0
2024-02-06T01:35:05.999979680+00:00,0,1
2024-02-06T01:35:05.999980760+00:00,0,0
2024-02-06T01:35:06.177311520+00:00,1,0
2024-02-06T01:35:06.177361520+00:00,0,0
2024-02-06T01:35:06.199982100+00:00,0,1
2024-02-06T01:35:06.199983180+00:00,0,0
2024-02-06T01:35:06.377310880+00:00,1,0
2024-02-06T01:35:06.377360880+00:00,0,0
2024-02-06T01:35:06.399984940+00:00,0,1
2024-02-06T01:35:06.399986020+00:00,0,0
2024-02-06T01:35:06.577310220+00:00,1,0
2024-02-06T01:35:06.577360240+00:00,0,0
2024-02-06T01:35:06.599989220+00:00,0,1
2024-02-06T01:35:06.599990300+00:00,0,0
2024-02-06T01:35:06.777309580+00:00,1,0
2024-02-06T01:35:06.777359600+00:00,0,0
2024-02-06T01:35:06.799991100+00:00,0,1
2024-02-06T01:35:06.799992160+00:00,0,0
2024-02-06T01:35:06.977308940+00:00,1,0
2024-02-06T01:35:06.977358940+00:00,0,0
2024-02-06T01:35:06.999994220+00:00,0,1
2024-02-06T01:35:06.999995300+00:00,0,0
2024-02-06T01:35:07.177308300+00:00,1,0
2024-02-06T01:35:07.177358300+00:00,0,0
2024-02-06T01:35:07.199996020+00:00,0,1
2024-02-06T01:35:07.199997100+00:00,0,0
2024-02-06T01:35:07.377307640+00:00,1,0
2024-02-06T01:35:07.377357660+00:00,0,0
2024-02-06T01:35:07.400000440+00:00,0,1
2024-02-06T01:35:07.400001520+00:00,0,0
2024-02-06T01:35:07.577307000+00:00,1,0
2024-02-06T01:35:07.577357020+00:00,0,0
2024-02-06T01:35:07.600002820+00:00,0,1
2024-02-06T01:35:07.600003900+00:00,0,0
2024-02-06T01:35:07.777306360+00:00,1,0
2024-02-06T01:35:07.777356360+00:00,0,0
2024-02-06T01:35:07.800005260+00:00,0,1
2024-02-06T01:35:07.800006340+00:00,0,0
2024-02-06T01:35:07.977305720+00:00,1,0
2024-02-06T01:35:07.977355720+00:00,0,0
2024-02-06T01:35:08.000008080+00:00,0,1
2024-02-06T01:35:08.000009160+00:00,0,0
2024-02-06T01:35:08.177305080+00:00,1,0
2024-02-06T01:35:08.177355080+00:00,0,0
2024-02-06T01:35:08.200010660+00:00,0,1
2024-02-06T01:35:08.200011740+00:00,0,0
2024-02-06T01:35:08.377304420+00:00,1,0
2024-02-06T01:35:08.377354440+00:00,0,0
2024-02-06T01:35:08.400013160+00:00,0,1
2024-02-06T01:35:08.400014240+00:00,0,0
2024-02-06T01:35:08.577303780+00:00,1,0
2024-02-06T01:35:08.577353780+00:00,0,0
2024-02-06T01:35:08.600017040+00:00,0,1
2024-02-06T01:35:08.600018120+00:00,0,0
2024-02-06T01:35:08.777303140+00:00,1,0
2024-02-06T01:35:08.777353140+00:00,0,0
2024-02-06T01:35:08.800018620+00:00,0,1
2024-02-06T01:35:08.800019700+00:00,0,0
2024-02-06T01:35:08.977302480+00:00,1,0
2024-02-06T01:35:08.977352500+00:00,0,0
2024-02-06T01:35:09.000022640+00:00,0,1
2024-02-06T01:35:09.000023720+00:00,0,0
2024-02-06T01:35:09.177301840+00:00,1,0
2024-02-06T01:35:09.177351860+00:00,0,0
2024-02-06T01:35:09.200024960+00:00,0,1
2024-02-06T01:35:09.200026040+00:00,0,0
2024-02-06T01:35:09.377301200+00:00,1,0
2024-02-06T01:35:09.377351200+00:00,0,0
2024-02-06T01:35:09.400028080+00:00,0,1
2024-02-06T01:35:09.400029160+00:00,0,0
2024-02-06T01:35:09.577300560+00:00,1,0
2024-02-06T01:35:09.577350560+00:00,0,0
2024-02-06T01:35:09.600031200+00:00,0,1
2024-02-06T01:35:09.600032260+00:00,0,0
2024-02-06T01:35:09.777299900+00:00,1,0
2024-02-06T01:35:09.777349920+00:00,0,0
2024-02-06T01:35:09.800032840+00:00,0,1
2024-02-06T01:35:09.800033900+00:00,0,0
2024-02-06T01:35:09.977299260+00:00,1,0
2024-02-06T01:35:09.977349280+00:00,0,0
2024-02-06T01:35:10.000036380+00:00,0,1
2024-02-06T01:35:10.000037460+00:00,0,0
2024-02-06T01:35:10.177298620+00:00,1,0
2024-02-06T01:35:10.177348620+00:00,0,0
2024-02-06T01:35:10.200038420+00:00,0,1
2024-02-06T01:35:10.200039500+00:00,0,0
2024-02-06T01:35:10.377297980+00:00,1,0
2024-02-06T01:35:10.377347980+00:00,0,0
2024-02-06T01:35:10.400041540+00:00,0,1
2024-02-06T01:35:10.400042620+00:00,0,0
2024-02-06T01:35:10.577297320+00:00,1,0
2024-02-06T01:35:10.577347340+00:00,0,0
2024-02-06T01:35:10.600044380+00:00,0,1
2024-02-06T01:35:10.600045460+00:00,0,0
2024-02-06T01:35:10.777296680+00:00,1,0
2024-02-06T01:35:10.777346700+00:00,0,0
2024-02-06T01:35:10.800047460+00:00,0,1
2024-02-06T01:35:10.800048540+00:00,0,0
2024-02-06T01:35:10.977296040+00:00,1,0
2024-02-06T01:35:10.977346040+00:00,0,0
2024-02-06T01:35:11.000049920+00:00,0,1
2024-02-06T01:35:11.000051000+00:00,0,0
2024-02-06T01:35:11.177295400+00:00,1,0
2024-02-06T01:35:11.177345400+00:00,0,0
2024-02-06T01:35:11.200051760+00:00,0,1
2024-02-06T01:35:11.200052820+00:00,0,0
2024-02-06T01:35:11.377294740+00:00,1,0
2024-02-06T01:35:11.377344760+00:00,0,0
2024-02-06T01:35:11.400055600+00:00,0,1
2024-02-06T01:35:11.400056680+00:00,0,0
2024-02-06T01:35:11.577294100+00:00,1,0
2024-02-06T01:35:11.577344120+00:00,0,0
2024-02-06T01:35:11.600059100+00:00,0,1
2024-02-06T01:35:11.600060180+00:00,0,0
2024-02-06T01:35:11.777293460+00:00,1,0
2024-02-06T01:35:11.777343460+00:00,0,0
2024-02-06T01:35:11.800061520+00:00,0,1
2024-02-06T01:35:11.800062600+00:00,0,0
2024-02-06T01:35:11.977292800+00:00,1,0
2024-02-06T01:35:11.977342820+00:00,0,0
2024-02-06T01:35:12.000064560+00:00,0,1
2024-02-06T01:35:12.000065640+00:00,0,0
2024-02-06T01:35:12.177292160+00:00,1,0
2024-02-06T01:35:12.177342180+00:00,0,0
2024-02-06T01:35:12.200065920+00:00,0,1
2024-02-06T01:35:12.200067000+00:00,0,0
2024-02-06T01:35:12.377291520+00:00,1,0
2024-02-06T01:35:12.377341520+00:00,0,0
2024-02-06T01:35:12.400069160+00:00,0,1
2024-02-06T01:35:12.400070240+00:00,0,0
2024-02-06T01:35:12.577290880+00:00,1,0
2024-02-06T01:35:12.577340880+00:00,0,0
2024-02-06T01:35:12.600073900+00:00,0,1
2024-02-06T01:35:12.600074980+00:00,0,0
2024-02-06T01:35:12.777290220+00:00,1,0
2024-02-06T01:35:12.777340240+00:00,0,0
2024-02-06T01:35:12.800075360+00:00,0,1
2024-02-06T01:35:12.800076440+00:00,0,0
2024-02-06T01:35:12.977289580+00:00,1,0
2024-02-06T01:35:12.977339580+00:00,0,0
2024-02-06T01:35:13.000078400+00:00,0,1
2024-02-06T01:35:13.000079480+00:00,0,0
2024-02-06T01:35:13.177288940+00:00,1,0
2024-02-06T01:35:13.177338940+00:00,0,0
2024-02-06T01:35:13.200080360+00:00,0,1
2024-02-06T01:35:13.200081440+00:00,0,0
2024-02-06T01:35:13.377288280+00:00,1,0
2024-02-06T01:35:13.377338300+00:00,0,0
2024-02-06T01:35:13.400083700+00:00,0,1
2024-02-06T01:35:13.400084760+00:00,0,0
2024-02-06T01:35:13.577287640+00:00,1,0
2024-02-06T01:35:13.577337660+00:00,0,0
2024-02-06T01:35:13.600087340+00:00,0,1
2024-02-06T01:35:13.600088420+00:00,0,0
2024-02-06T01:35:13.777287000+00:00,1,0
2024-02-06T01:35:13.777337000+00:00,0,0
2024-02-06T01:35:13.800088880+00:00,0,1
2024-02-06T01:35:13.800089960+00:00,0,0
2024-02-06T01:35:13.977286340+00:00,1,0
2024-02-06T01:35:13.977336360+00:00,0,0
2024-02-06T01:35:14.000091880+00:00,0,1
2024-02-06T01:35:14.000092960+00:00,0,0
2024-02-06T01:35:14.177285700+00:00,1,0
2024-02-06T01:35:14.177335720+00:00,0,0
2024-02-06T01:35:14.200094340+00:00,0,1
2024-02-06T01:35:14.200095420+00:00,0,0
2024-02-06T01:35:14.377285060+00:00,1,0
2024-02-06T01:35:14.377335060+00:00,0,0
2024-02-06T01:35:14.400097200+00:00,0,1
2024-02-06T01:35:14.400098280+00:00,0,0
2024-02-06T01:35:14.577284420+00:00,1,0
2024-02-06T01:35:14.577334420+00:00,0,0
2024-02-06T01:35:14.600101080+00:00,0,1
2024-02-06T01:35:14.600102160+00:00,0,0
2024-02-06T01:35:14.777283760+00:00,1,0
2024-02-06T01:35:14.777333780+00:00,0,0
2024-02-06T01:35:14.800103420+00:00,0,1
2024-02-06T01:35:14.800104500+00:00,0,0
2024-02-06T01:35:14.977283120+00:00,1,0
2024-02-06T01:35:14.977333120+00:00,0,0
2024-02-06T01:35:15.000106740+00:00,0,1
2024-02-06T01:35:15.000107820+00:00,0,0
2024-02-06T01:35:15.177282480+00:00,1,0
2024-02-06T01:35:15.177332480+00:00,0,0
2024-02-06T01:35:15.200109080+00:00,0,1
2024-02-06T01:35:15.200110160+00:00,0,0
2024-02-06T01:35:15.377281820+00:00,1,0
2024-02-06T01:35:15.377331840+00:00,0,0
2024-02-06T01:35:15.400112320+00:00,0,1
2024-02-06T01:35:15.400113400+00:00,0,0
2024-02-06T01:35:15.577281180+00:00,1,0
2024-02-06T01:35:15.577331180+00:00,0,0
2024-02-06T01:35:15.600114600+00:00,0,1
2024-02-06T01:35:15.600115680+00:00,0,0
2024-02-06T01:35:15.777280540+00:00,1,0
2024-02-06T01:35:15.777330540+00:00,0,0
2024-02-06T01:35:15.800117480+00:00,0,1
2024-02-06T01:35:15.800118560+00:00,0,0
2024-02-06T01:35:15.977279880+00:00,1,0
2024-02-06T01:35:15.977329900+00:00,0,0
2024-02-06T01:35:16.000120240+00:00,0,1
2024-02-06T01:35:16.000121320+00:00,0,0
2024-02-06T01:35:16.177279240+00:00,1,0
2024-02-06T01:35:16.177329240+00:00,0,0
2024-02-06T01:35:16.200122440+00:00,0,1
2024-02-06T01:35:16.200123520+00:00,0,0
2024-02-06T01:35:16.377278580+00:00,1,0
2024-02-06T01:35:16.377328600+00:00,0,0
2024-02-06T01:35:16.400125880+00:00,0,1
2024-02-06T01:35:16.400126960+00:00,0,0
2024-02-06T01:35:16.577277940+00:00,1,0
2024-02-06T01:35:16.577327960+00:00,0,0
2024-02-06T01:35:16.600129300+00:00,0,1
2024-02-06T01:35:16.600130380+00:00,0,0
2024-02-06T01:35:16.777277300+00:00,1,0
2024-02-06T01:35:16.777327300+00:00,0,0
2024-02-06T01:35:16.800131980+00:00,0,1
2024-02-06T01:35:16.800133060+00:00,0,0
2024-02-06T01:35:16.977276640+00:00,1,0
2024-02-06T01:35:16.977326660+00:00,0,0
2024-02-06T01:35:17.000135220+00:00,0,1
2024-02-06T01:35:17.000136300+00:00,0,0
2024-02-06T01:35:17.177276000+00:00,1,0
2024-02-06T01:35:17.177326020+00:00,0,0
2024-02-06T01:35:17.200136240+00:00,0,1
2024-02-06T01:35:17.200137320+00:00,0,0
2024-02-06T01:35:17.377275360+00:00,1,0
2024-02-06T01:35:17.377325360+00:00,0,0
2024-02-06T01:35:17.400140120+00:00,0,1
2024-02-06T01:35:17.400141200+00:00,0,0
2024-02-06T01:35:17.577274700+00:00,1,0
2024-02-06T01:35:17.577324720+00:00,0,0
2024-02-06T01:35:17.600143080+00:00,0,1
2024-02-06T01:35:17.600144140+00:00,0,0
2024-02-06T01:35:17.777274060+00:00,1,0
2024-02-06T01:35:17.777324060+00:00,0,0
2024-02-06T01:35:17.800145440+00:00,0,1
2024-02-06T01:35:17.800146520+00:00,0,0
2024-02-06T01:35:17.977273420+00:00,1,0
2024-02-06T01:35:17.977323420+00:00,0,0
2024-02-06T01:35:18.000148060+00:00,0,1
2024-02-06T01:35:18.000149140+00:00,0,0
2024-02-06T01:35:18.177272760+00:00,1,0
2024-02-06T01:35:18.177322780+00:00,0,0
2024-02-06T01:35:18.200151380+00:00,0,1
2024-02-06T01:35:18.200152460+00:00,0,0
2024-02-06T01:35:18.377272120+00:00,1,0
2024-02-06T01:35:18.377322120+00:00,0,0
2024-02-06T01:35:18.400153340+00:00,0,1
2024-02-06T01:35:18.400154420+00:00,0,0
2024-02-06T01:35:18.577271480+00:00,1,0
2024-02-06T01:35:18.577321480+00:00,0,0
2024-02-06T01:35:18.600157520+00:00,0,1
2024-02-06T01:35:18.600158600+00:00,0,0
2024-02-06T01:35:18.777270820+00:00,1,0
2024-02-06T01:35:18.777320840+00:00,0,0
2024-02-06T01:35:18.800159220+00:00,0,1
2024-02-06T01:35:18.800160300+00:00,0,0
2024-02-06T01:35:18.977270180+00:00,1,0
2024-02-06T01:35:18.977320180+00:00,0,0
2024-02-06T01:35:19.000162480+00:00,0,1
2024-02-06T01:35:19.000163560+00:00,0,0
2024-02-06T01:35:19.177269540+00:00,1,0
2024-02-06T01:35:19.177319540+00:00,0,0
2024-02-06T01:35:19.200165520+00:00,0,1
2024-02-06T01:35:19.200166600+00:00,0,0
2024-02-06T01:35:19.377268880+00:00,1,0
2024-02-06T01:35:19.377318900+00:00,0,0
2024-02-06T01:35:19.400167920+00:00,0,1
2024-02-06T01:35:19.400169000+00:00,0,0
2024-02-06T01:35:19.577268240+00:00,1,0
2024-02-06T01:35:19.577318240+00:00,0,0
2024-02-06T01:35:19.600172100+00:00,0,1
2024-02-06T01:35:19.600173180+00:00,0,0
2024-02-06T01:35:19.777267580+00:00,1,0
2024-02-06T01:35:19.777317600+00:00,0,0
2024-02-06T01:35:19.800173720+00:00,0,1
2024-02-06T01:35:19.800174800+00:00,0,0
2024-02-06T01:35:19.977266940+00:00,1,0
2024-02-06T01:35:19.977316960+00:00,0,0
2024-02-06T01:35:20.000177080+00:00,0,1
2024-02-06T01:35:20.000178160+00:00,0,0
2024-02-06T01:35:20.177266300+00:00,1,0
2024-02-06T01:35:20.177316300+00:00,0,0
2024-02-06T01:35:20.200179820+00:00,0,1
2024-02-06T01:35:20.200180900+00:00,0,0
2024-02-06T01:35:20.377265640+00:00,1,0
2024-02-06T01:35:20.377315660+00:00,0,0
2024-02-06T01:35:20.400181760+00:00,0,1
2024-02-06T01:35:20.400182840+00:00,0,0
2024-02-06T01:35:20.577265000+00:00,1,0
2024-02-06T01:35:20.577315000+00:00,0,0
2024-02-06T01:35:20.600185100+00:00,0,1
2024-02-06T01:35:20.600186180+00:00,0,0
2024-02-06T01:35:20.777264360+00:00,1,0
2024-02-06T01:35:20.777314360+00:00,0,0
2024-02-06T01:35:20.800187340+00:00,0,1
2024-02-06T01:35:20.800188420+00:00,0,0
2024-02-06T01:35:20.977263700+00:00,1,0
2024-02-06T01:35:20.977313720+00:00,0,0
2024-02-06T01:35:21.000190100+00:00,0,1
2024-02-06T01:35:21.000191180+00:00,0,0
2024-02-06T01:35:21.177263060+00:00,1,0
2024-02-06T01:35:21.177313060+00:00,0,0
2024-02-06T01:35:21.200192020+00:00,0,1
2024-02-06T01:35:21.200193100+00:00,0,0
2024-02-06T01:35:21.377262400+00:00,1,0
2024-02-06T01:35:21.377312420+00:00,0,0
2024-02-06T01:35:21.400197180+00:00,0,1
2024-02-06T01:35:21.400198260+00:00,0,0
2024-02-06T01:35:21.577261760+00:00,1,0
2024-02-06T01:35:21.577311780+00:00,0,0
2024-02-06T01:35:21.600199520+00:00,0,1
2024-02-06T01:35:21.600200600+00:00,0,0
2024-02-06T01:35:21.777261120+00:00,1,0
2024-02-06T01:35:21.777311120+00:00,0,0
