Time [s],Channel 0,Channel 1
2024-02-05T10:59:16.400280000+00:00,0,0
2024-02-05T10:59:16.621366600+00:00,1,0
2024-02-05T10:59:16.621416610+00:00,0,0
2024-02-05T10:59:16.632449690+00:00,0,1
2024-02-05T10:59:16.632450920+00:00,0,0
2024-02-05T10:59:16.871365620+00:00,1,0
2024-02-05T10:59:16.871415630+00:00,0,0
2024-02-05T10:59:16.882453700+00:00,0,1
2024-02-05T10:59:16.882454940+00:00,0,0
2024-02-05T10:59:17.121364640+00:00,1,0
2024-02-05T10:59:17.121414650+00:00,0,0
2024-02-05T10:59:17.132455550+00:00,0,1
2024-02-05T10:59:17.132456790+00:00,0,0
2024-02-05T10:59:17.371363660+00:00,1,0
2024-02-05T10:59:17.371413670+00:00,0,0
2024-02-05T10:59:17.382459530+00:00,0,1
2024-02-05T10:59:17.382460770+00:00,0,0
2024-02-05T10:59:17.621362680+00:00,1,0
2024-02-05T10:59:17.621412690+00:00,0,0
2024-02-05T10:59:17.632461080+00:00,0,1
2024-02-05T10:59:17.632462310+00:00,0,0
2024-02-05T10:59:17.871361700+00:00,1,0
2024-02-05T10:59:17.871411710+00:00,0,0
2024-02-05T10:59:17.882467040+00:00,0,1
2024-02-05T10:59:17.882468280+00:00,0,0
2024-02-05T10:59:18.121360720+00:00,1,0
2024-02-05T10:59:18.121410730+00:00,0,0
2024-02-05T10:59:18.132469590+00:00,0,1
2024-02-05T10:59:18.132470830+00:00,0,0
2024-02-05T10:59:18.371359740+00:00,1,0
2024-02-05T10:59:18.371409750+00:00,0,0
2024-02-05T10:59:18.382472580+00:00,0,1
2024-02-05T10:59:18.382473810+00:00,0,0
2024-02-05T10:59:18.621358760+00:00,1,0
2024-02-05T10:59:18.621408770+00:00,0,0
2024-02-05T10:59:18.632476980+00:00,0,1
2024-02-05T10:59:18.632478220+00:00,0,0
2024-02-05T10:59:18.871357780+00:00,1,0
2024-02-05T10:59:18.871407790+00:00,0,0
2024-02-05T10:59:18.882479520+00:00,0,1
2024-02-05T10:59:18.882480760+00:00,0,0
2024-02-05T10:59:19.121356800+00:00,1,0
2024-02-05T10:59:19.121406810+00:00,0,0
2024-02-05T10:59:19.132483700+00:00,0,1
2024-02-05T10:59:19.132484930+00:00,0,0
2024-02-05T10:59:19.371355820+00:00,1,0
2024-02-05T10:59:19.371405830+00:00,0,0
2024-02-05T10:59:19.382486650+00:00,0,1
2024-02-05T10:59:19.382487880+00:00,0,0
2024-02-05T10:59:19.621354840+00:00,1,0
2024-02-05T10:59:19.621404850+00:00,0,0
2024-02-05T10:59:19.632489060+00:00,0,1
2024-02-05T10:59:19.632490300+00:00,0,0
2024-02-05T10:59:19.871353860+00:00,1,0
2024-02-05T10:59:19.871403870+00:00,0,0
2024-02-05T10:59:19.882492840+00:00,0,1
2024-02-05T10:59:19.882494070+00:00,0,0
2024-02-05T10:59:20.121352880+00:00,1,0
2024-02-05T10:59:20.121402890+00:00,0,0
2024-02-05T10:59:20.132496500+00:00,0,1
2024-02-05T10:59:20.132497730+00:00,0,0
2024-02-05T10:59:20.371351900+00:00,1,0
2024-02-05T10:59:20.371401910+00:00,0,0
2024-02-05T10:59:20.382500620+00:00,0,1
2024-02-05T10:59:20.382501850+00:00,0,0
2024-02-05T10:59:20.621350920+00:00,1,0
2024-02-05T10:59:20.621400930+00:00,0,0
2024-02-05T10:59:20.632505100+00:00,0,1
2024-02-05T10:59:20.632506330+00:00,0,0
2024-02-05T10:59:20.871349940+00:00,1,0
2024-02-05T10:59:20.871399950+00:00,0,0
2024-02-05T10:59:20.882507940+00:00,0,1
2024-02-05T10:59:20.882509180+00:00,0,0
2024-02-05T10:59:21.121348960+00:00,1,0
2024-02-05T10:59:21.121398970+00:00,0,0
2024-02-05T10:59:21.132510380+00:00,0,1
2024-02-05T10:59:21.132511620+00:00,0,0
2024-02-05T10:59:21.371347980+00:00,1,0
2024-02-05T10:59:21.371397990+00:00,0,0
2024-02-05T10:59:21.382513820+00:00,0,1
2024-02-05T10:59:21.382515060+00:00,0,0
2024-02-05T10:59:21.621347000+00:00,1,0
2024-02-05T10:59:21.621397010+00:00,0,0
2024-02-05T10:59:21.632518540+00:00,0,1
2024-02-05T10:59:21.632519780+00:00,0,0
2024-02-05T10:59:21.871346020+00:00,1,0
2024-02-05T10:59:21.871396030+00:00,0,0
2024-02-05T10:59:21.882522560+00:00,0,1
2024-02-05T10:59:21.882523790+00:00,0,0
2024-02-05T10:59:22.121345040+00:00,1,0
2024-02-05T10:59:22.121395050+00:00,0,0
2024-02-05T10:59:22.132524200+00:00,0,1
2024-02-05T10:59:22.132525430+00:00,0,0
2024-02-05T10:59:22.371344060+00:00,1,0
2024-02-05T10:59:22.371394070+00:00,0,0
2024-02-05T10:59:22.382527620+00:00,0,1
2024-02-05T10:59:22.382528860+00:00,0,0
2024-02-05T10:59:22.621343080+00:00,1,0
2024-02-05T10:59:22.621393090+00:00,0,0
2024-02-05T10:59:22.632531190+00:00,0,1
2024-02-05T10:59:22.632532420+00:00,0,0
2024-02-05T10:59:22.871342100+00:00,1,0
2024-02-05T10:59:22.871392110+00:00,0,0
2024-02-05T10:59:22.882536550+00:00,0,1
2024-02-05T10:59:22.882537790+00:00,0,0
2024-02-05T10:59:23.121341120+00:00,1,0
2024-02-05T10:59:23.121391130+00:00,0,0
2024-02-05T10:59:23.132539290+00:00,0,1
2024-02-05T10:59:23.132540520+00:00,0,0
2024-02-05T10:59:23.371340140+00:00,1,0
2024-02-05T10:59:23.371390140+00:00,0,0
2024-02-05T10:59:23.382543240+00:00,0,1
2024-02-05T10:59:23.382544480+00:00,0,0
2024-02-05T10:59:23.621339150+00:00,1,0
2024-02-05T10:59:23.621389160+00:00,0,0
2024-02-05T10:59:23.632544370+00:00,0,1
2024-02-05T10:59:23.632545610+00:00,0,0
2024-02-05T10:59:23.871338170+00:00,1,0
2024-02-05T10:59:23.871388180+00:00,0,0
2024-02-05T10:59:23.882548760+00:00,0,1
2024-02-05T10:59:23.882550000+00:00,0,0
2024-02-05T10:59:24.121337190+00:00,1,0
2024-02-05T10:59:24.121387200+00:00,0,0
2024-02-05T10:59:24.132551610+00:00,0,1
2024-02-05T10:59:24.132552840+00:00,0,0
2024-02-05T10:59:24.371336210+00:00,1,0
2024-02-05T10:59:24.371386220+00:00,0,0
2024-02-05T10:59:24.382554660+00:00,0,1
2024-02-05T10:59:24.382555900+00:00,0,0
2024-02-05T10:59:24.621335230+00:00,1,0
2024-02-05T10:59:24.621385240+00:00,0,0
2024-02-05T10:59:24.632559240+00:00,0,1
2024-02-05T10:59:24.632560480+00:00,0,0
2024-02-05T10:59:24.871334250+00:00,1,0
2024-02-05T10:59:24.871384260+00:00,0,0
2024-02-05T10:59:24.882562140+00:00,0,1
2024-02-05T10:59:24.882563370+00:00,0,0
2024-02-05T10:59:25.121333270+00:00,1,0
2024-02-05T10:59:25.121383280+00:00,0,0
2024-02-05T10:59:25.132565300+00:00,0,1
2024-02-05T10:59:25.132566540+00:00,0,0
2024-02-05T10:59:25.371332290+00:00,1,0
2024-02-05T10:59:25.371382300+00:00,0,0
2024-02-05T10:59:25.382571670+00:00,0,1
2024-02-05T10:59:25.382572910+00:00,0,0
2024-02-05T10:59:25.621331310+00:00,1,0
2024-02-05T10:59:25.621381320+00:00,0,0
2024-02-05T10:59:25.632572390+00:00,0,1
2024-02-05T10:59:25.632573620+00:00,0,0
2024-02-05T10:59:25.871330330+00:00,1,0
2024-02-05T10:59:25.871380340+00:00,0,0
2024-02-05T10:59:25.882576400+00:00,0,1
2024-02-05T10:59:25.882577630+00:00,0,0
2024-02-05T10:59:26.121329340+00:00,1,0
2024-02-05T10:59:26.121379350+00:00,0,0
2024-02-05T10:59:26.132578720+00:00,0,1
2024-02-05T10:59:26.132579950+00:00,0,0
2024-02-05T10:59:26.371328360+00:00,1,0
2024-02-05T10:59:26.371378370+00:00,0,0
2024-02-05T10:59:26.382584560+00:00,0,1
2024-02-05T10:59:26.382585790+00:00,0,0
2024-02-05T10:59:26.621327380+00:00,1,0
2024-02-05T10:59:26.621377390+00:00,0,0
2024-02-05T10:59:26.632587940+00:00,0,1
2024-02-05T10:59:26.632589180+00:00,0,0
2024-02-05T10:59:26.871326400+00:00,1,0
2024-02-05T10:59:26.871376410+00:00,0,0
2024-02-05T10:59:26.882592450+00:00,0,1
2024-02-05T10:59:26.882593690+00:00,0,0
2024-02-05T10:59:27.121325420+00:00,1,0
2024-02-05T10:59:27.121375430+00:00,0,0
2024-02-05T10:59:27.132594390+00:00,0,1
2024-02-05T10:59:27.132595620+00:00,0,0
2024-02-05T10:59:27.371324430+00:00,1,0
2024-02-05T10:59:27.371374440+00:00,0,0
2024-02-05T10:59:27.382596110+00:00,0,1
2024-02-05T10:59:27.382597350+00:00,0,0
2024-02-05T10:59:27.621323450+00:00,1,0
2024-02-05T10:59:27.621373460+00:00,0,0
2024-02-05T10:59:27.632601380+00:00,0,1
2024-02-05T10:59:27.632602620+00:00,0,0
2024-02-05T10:59:27.871322470+00:00,1,0
2024-02-05T10:59:27.871372480+00:00,0,0
2024-02-05T10:59:27.882606020+00:00,0,1
2024-02-05T10:59:27.882607250+00:00,0,0
2024-02-05T10:59:28.121321490+00:00,1,0
2024-02-05T10:59:28.121371500+00:00,0,0
2024-02-05T10:59:28.132608310+00:00,0,1
2024-02-05T10:59:28.132609550+00:00,0,0
2024-02-05T10:59:28.371320500+00:00,1,0
2024-02-05T10:59:28.371370510+00:00,0,0
2024-02-05T10:59:28.382610620+00:00,0,1
2024-02-05T10:59:28.382611860+00:00,0,0
2024-02-05T10:59:28.621319520+00:00,1,0
2024-02-05T10:59:28.621369530+00:00,0,0
2024-02-05T10:59:28.632615790+00:00,0,1
2024-02-05T10:59:28.632617030+00:00,0,0
2024-02-05T10:59:28.871318540+00:00,1,0
2024-02-05T10:59:28.871368550+00:00,0,0
2024-02-05T10:59:28.882617590+00:00,0,1
2024-02-05T10:59:28.882618830+00:00,0,0
2024-02-05T10:59:29.121317560+00:00,1,0
2024-02-05T10:59:29.121367570+00:00,0,0
2024-02-05T10:59:29.132622620+00:00,0,1
2024-02-05T10:59:29.132623860+00:00,0,0
2024-02-05T10:59:29.371316570+00:00,1,0
2024-02-05T10:59:29.371366580+00:00,0,0
2024-02-05T10:59:29.382624680+00:00,0,1
2024-02-05T10:59:29.382625920+00:00,0,0
2024-02-05T10:59:29.621315590+00:00,1,0
2024-02-05T10:59:29.621365600+00:00,0,0
2024-02-05T10:59:29.632628150+00:00,0,1
2024-02-05T10:59:29.632629380+00:00,0,0
2024-02-05T10:59:29.871314610+00:00,1,0
2024-02-05T10:59:29.871364620+00:00,0,0
2024-02-05T10:59:29.882632140+00:00,0,1
2024-02-05T10:59:29.882633380+00:00,0,0
2024-02-05T10:59:30.121313630+00:00,1,0
2024-02-05T10:59:30.121363640+00:00,0,0
2024-02-05T10:59:30.132636810+00:00,0,1
2024-02-05T10:59:30.132638050+00:00,0,0
2024-02-05T10:59:30.371312640+00:00,1,0
2024-02-05T10:59:30.371362650+00:00,0,0
2024-02-05T10:59:30.382639130+00:00,0,1
2024-02-05T10:59:30.382640360+00:00,0,0
2024-02-05T10:59:30.621311660+00:00,1,0
2024-02-05T10:59:30.621361670+00:00,0,0
2024-02-05T10:59:30.632642850+00:00,0,1
2024-02-05T10:59:30.632644080+00:00,0,0
2024-02-05T10:59:30.871310680+00:00,1,0
2024-02-05T10:59:30.871360690+00:00,0,0
2024-02-05T10:59:30.882645480+00:00,0,1
2024-02-05T10:59:30.882646720+00:00,0,0
2024-02-05T10:59:31.121309700+00:00,1,0
2024-02-05T10:59:31.121359700+00:00,0,0
2024-02-05T10:59:31.132648940+00:00,0,1
2024-02-05T10:59:31.132650180+00:00,0,0
2024-02-05T10:59:31.371308710+00:00,1,0
2024-02-05T10:59:31.371358720+00:00,0,0
2024-02-05T10:59:31.382653260+00:00,0,1
2024-02-05T10:59:31.382654490+00:00,0,0
2024-02-05T10:59:31.621307730+00:00,1,0
2024-02-05T10:59:31.621357740+00:00,0,0
2024-02-05T10:59:31.632657350+00:00,0,1
2024-02-05T10:59:31.632658590+00:00,0,0
2024-02-05T10:59:31.871306750+00:00,1,0
2024-02-05T10:59:31.871356760+00:00,0,0
2024-02-05T10:59:31.882658840+00:00,0,1
2024-02-05T10:59:31.882660070+00:00,0,0
2024-02-05T10:59:32.121305760+00:00,1,0
2024-02-05T10:59:32.121355770+00:00,0,0
2024-02-05T10:59:32.132663380+00:00,0,1
2024-02-05T10:59:32.132664610+00:00,0,0
2024-02-05T10:59:32.371304780+00:00,1,0
2024-02-05T10:59:32.371354790+00:00,0,0
2024-02-05T10:59:32.382667980+00:00,0,1
2024-02-05T10:59:32.382669220+00:00,0,0
2024-02-05T10:59:32.621303800+00:00,1,0
2024-02-05T10:59:32.621353810+00:00,0,0
2024-02-05T10:59:32.632668290+00:00,0,1
2024-02-05T10:59:32.632669530+00:00,0,0
2024-02-05T10:59:32.871302810+00:00,1,0
2024-02-05T10:59:32.871352820+00:00,0,0
2024-02-05T10:59:32.882673270+00:00,0,1
2024-02-05T10:59:32.882674500+00:00,0,0
2024-02-05T10:59:33.121301830+00:00,1,0
2024-02-05T10:59:33.121351840+00:00,0,0
2024-02-05T10:59:33.132677560+00:00,0,1
2024-02-05T10:59:33.132678790+00:00,0,0
2024-02-05T10:59:33.371300840+00:00,1,0
2024-02-05T10:59:33.371350850+00:00,0,0
2024-02-05T10:59:33.382680580+00:00,0,1
2024-02-05T10:59:33.382681820+00:00,0,0
2024-02-05T10:59:33.621299860+00:00,1,0
2024-02-05T10:59:33.621349870+00:00,0,0
2024-02-05T10:59:33.632683900+00:00,0,1
2024-02-05T10:59:33.632685140+00:00,0,0
2024-02-05T10:59:33.871298880+00:00,1,0
2024-02-05T10:59:33.871348890+00:00,0,0
2024-02-05T10:59:33.882688370+00:00,0,1
2024-02-05T10:59:33.882689610+00:00,0,0
2024-02-05T10:59:34.121297890+00:00,1,0
2024-02-05T10:59:34.121347900+00:00,0,0
2024-02-05T10:59:34.132688890+00:00,0,1
2024-02-05T10:59:34.132690120+00:00,0,0
2024-02-05T10:59:34.371296910+00:00,1,0
2024-02-05T10:59:34.371346920+00:00,0,0
2024-02-05T10:59:34.382694030+00:00,0,1
2024-02-05T10:59:34.382695260+00:00,0,0
2024-02-05T10:59:34.621295920+00:00,1,0
2024-02-05T10:59:34.621345930+00:00,0,0
2024-02-05T10:59:34.632696310+00:00,0,1
2024-02-05T10:59:34.632697540+00:00,0,0
2024-02-05T10:59:34.871294940+00:00,1,0
2024-02-05T10:59:34.871344950+00:00,0,0
2024-02-05T10:59:34.882702060+00:00,0,1
2024-02-05T10:59:34.882703290+00:00,0,0
2024-02-05T10:59:35.121293960+00:00,1,0
2024-02-05T10:59:35.121343970+00:00,0,0
2024-02-05T10:59:35.132704690+00:00,0,1
2024-02-05T10:59:35.132705920+00:00,0,0
2024-02-05T10:59:35.371292970+00:00,1,0
2024-02-05T10:59:35.371342980+00:00,0,0
2024-02-05T10:59:35.382708630+00:00,0,1
2024-02-05T10:59:35.382709870+00:00,0,0
2024-02-05T10:59:35.621291990+00:00,1,0
2024-02-05T10:59:35.621342000+00:00,0,0
2024-02-05T10:59:35.632712450+00:00,0,1
2024-02-05T10:59:35.632713690+00:00,0,0
2024-02-05T10:59:35.871291000+00:00,1,0
2024-02-05T10:59:35.871341010+00:00,0,0
2024-02-05T10:59:35.882714960+00:00,0,1
2024-02-05T10:59:35.882716200+00:00,0,0
2024-02-05T10:59:36.121290020+00:00,1,0
2024-02-05T10:59:36.121340030+00:00,0,0
2024-02-05T10:59:36.132716740+00:00,0,1
2024-02-05T10:59:36.132717970+00:00,0,0
2024-02-05T10:59:36.371289030+00:00,1,0
2024-02-05T10:59:36.371339040+00:00,0,0
2024-02-05T10:59:36.382720260+00:00,0,1
2024-02-05T10:59:36.382721490+00:00,0,0
2024-02-05T10:59:36.621288050+00:00,1,0
2024-02-05T10:59:36.621338060+00:00,0,0
2024-02-05T10:59:36.632724410+00:00,0,1
2024-02-05T10:59:36.632725640+00:00,0,0
2024-02-05T10:59:36.871287060+00:00,1,0
2024-02-05T10:59:36.871337070+00:00,0,0
2024-02-05T10:59:36.882728430+00:00,0,1
2024-02-05T10:59:36.882729670+00:00,0,0
2024-02-05T10:59:37.121286080+00:00,1,0
2024-02-05T10:59:37.121336090+00:00,0,0
2024-02-05T10:59:37.132731130+00:00,0,1
2024-02-05T10:59:37.132732360+00:00,0,0
2024-02-05T10:59:37.371285100+00:00,1,0
2024-02-05T10:59:37.371335110+00:00,0,0
2024-02-05T10:59:37.382737540+00:00,0,1
2024-02-05T10:59:37.382738770+00:00,0,0
2024-02-05T10:59:37.621284110+00:00,1,0
2024-02-05T10:59:37.621334120+00:00,0,0
2024-02-05T10:59:37.632738210+00:00,0,1
2024-02-05T10:59:37.632739450+00:00,0,0
2024-02-05T10:59:37.871283130+00:00,1,0
2024-02-05T10:59:37.871333140+00:00,0,0
2024-02-05T10:59:37.882741510+00:00,0,1
2024-02-05T10:59:37.882742750+00:00,0,0
2024-02-05T10:59:38.121282140+00:00,1,0
2024-02-05T10:59:38.121332150+00:00,0,0
2024-02-05T10:59:38.132744650+00:00,0,1
2024-02-05T10:59:38.132745890+00:00,0,0
2024-02-05T10:59:38.371281160+00:00,1,0
2024-02-05T10:59:38.371331170+00:00,0,0
2024-02-05T10:59:38.382748930+00:00,0,1
2024-02-05T10:59:38.382750160+00:00,0,0
2024-02-05T10:59:38.621280170+00:00,1,0
2024-02-05T10:59:38.621330180+00:00,0,0
2024-02-05T10:59:38.632751500+00:00,0,1
2024-02-05T10:59:38.632752730+00:00,0,0
2024-02-05T10:59:38.871279190+00:00,1,0
2024-02-05T10:59:38.871329200+00:00,0,0
2024-02-05T10:59:38.882756580+00:00,0,1
2024-02-05T10:59:38.882757820+00:00,0,0
2024-02-05T10:59:39.121278200+00:00,1,0
2024-02-05T10:59:39.121328210+00:00,0,0
2024-02-05T10:59:39.132759640+00:00,0,1
2024-02-05T10:59:39.132760870+00:00,0,0
2024-02-05T10:59:39.371277220+00:00,1,0
2024-02-05T10:59:39.371327230+00:00,0,0
2024-02-05T10:59:39.382762970+00:00,0,1
2024-02-05T10:59:39.382764210+00:00,0,0
2024-02-05T10:59:39.621276230+00:00,1,0
2024-02-05T10:59:39.621326240+00:00,0,0
2024-02-05T10:59:39.632767290+00:00,0,1
2024-02-05T10:59:39.632768530+00:00,0,0
2024-02-05T10:59:39.871275250+00:00,1,0
2024-02-05T10:59:39.871325260+00:00,0,0
2024-02-05T10:59:39.882771450+00:00,0,1
2024-02-05T10:59:39.882772680+00:00,0,0
2024-02-05T10:59:40.121274260+00:00,1,0
2024-02-05T10:59:40.121324270+00:00,0,0
2024-02-05T10:59:40.132772610+00:00,0,1
2024-02-05T10:59:40.132773850+00:00,0,0
2024-02-05T10:59:40.371273280+00:00,1,0
2024-02-05T10:59:40.371323290+00:00,0,0
2024-02-05T10:59:40.382778040+00:00,0,1
2024-02-05T10:59:40.382779270+00:00,0,0
2024-02-05T10:59:40.621272290+00:00,1,0
2024-02-05T10:59:40.621322300+00:00,0,0
2024-02-05T10:59:40.632780270+00:00,0,1
2024-02-05T10:59:40.632781500+00:00,0,0
2024-02-05T10:59:40.871271310+00:00,1,0
2024-02-05T10:59:40.871321320+00:00,0,0
2024-02-05T10:59:40.882784440+00:00,0,1
2024-02-05T10:59:40.882785670+00:00,0,0
2024-02-05T10:59:41.121270320+00:00,1,0
2024-02-05T10:59:41.121320330+00:00,0,0
2024-02-05T10:59:41.132787210+00:00,0,1
2024-02-05T10:59:41.132788450+00:00,0,0
2024-02-05T10:59:41.371269340+00:00,1,0
2024-02-05T10:59:41.371319340+00:00,0,0
2024-02-05T10:59:41.382791570+00:00,0,1
2024-02-05T10:59:41.382792810+00:00,0,0
2024-02-05T10:59:41.621268350+00:00,1,0
2024-02-05T10:59:41.621318360+00:00,0,0
2024-02-05T10:59:41.632793090+00:00,0,1
2024-02-05T10:59:41.632794320+00:00,0,0
2024-02-05T10:59:41.871267360+00:00,1,0
2024-02-05T10:59:41.871317370+00:00,0,0
2024-02-05T10:59:41.882798010+00:00,0,1
2024-02-05T10:59:41.882799250+00:00,0,0
2024-02-05T10:59:42.121266380+00:00,1,0
2024-02-05T10:59:42.121316390+00:00,0,0
2024-02-05T10:59:42.132799970+00:00,0,1
2024-02-05T10:59:42.132801210+00:00,0,0
2024-02-05T10:59:42.371265390+00:00,1,0
2024-02-05T10:59:42.371315400+00:00,0,0
2024-02-05T10:59:42.382803580+00:00,0,1
2024-02-05T10:59:42.382804810+00:00,0,0
2024-02-05T10:59:42.621264410+00:00,1,0
2024-02-05T10:59:42.621314420+00:00,0,0
2024-02-05T10:59:42.632807370+00:00,0,1
2024-02-05T10:59:42.632808610+00:00,0,0
2024-02-05T10:59:42.871263420+00:00,1,0
2024-02-05T10:59:42.871313430+00:00,0,0
2024-02-05T10:59:42.882810760+00:00,0,1
2024-02-05T10:59:42.882812000+00:00,0,0
2024-02-05T10:59:43.121262440+00:00,1,0
2024-02-05T10:59:43.121312450+00:00,0,0
2024-02-05T10:59:43.132813310+00:00,0,1
2024-02-05T10:59:43.132814540+00:00,0,0
2024-02-05T10:59:43.371261450+00:00,1,0
2024-02-05T10:59:43.371311460+00:00,0,0
2024-02-05T10:59:43.382818640+00:00,0,1
2024-02-05T10:59:43.382819870+00:00,0,0
2024-02-05T10:59:43.621260470+00:00,1,0
2024-02-05T10:59:43.621310480+00:00,0,0
2024-02-05T10:59:43.632820610+00:00,0,1
2024-02-05T10:59:43.632821840+00:00,0,0
2024-02-05T10:59:43.871259480+00:00,1,0
2024-02-05T10:59:43.871309490+00:00,0,0
2024-02-05T10:59:43.882826260+00:00,0,1
2024-02-05T10:59:43.882827500+00:00,0,0
2024-02-05T10:59:44.121258490+00:00,1,0
2024-02-05T10:59:44.121308500+00:00,0,0
2024-02-05T10:59:44.132829240+00:00,0,1
2024-02-05T10:59:44.132830480+00:00,0,0
2024-02-05T10:59:44.371257510+00:00,1,0
2024-02-05T10:59:44.371307520+00:00,0,0
2024-02-05T10:59:44.382830930+00:00,0,1
2024-02-05T10:59:44.382832170+00:00,0,0
2024-02-05T10:59:44.621256520+00:00,1,0
2024-02-05T10:59:44.621306530+00:00,0,0
2024-02-05T10:59:44.632836350+00:00,0,1
2024-02-05T10:59:44.632837590+00:00,0,0
2024-02-05T10:59:44.871255540+00:00,1,0
2024-02-05T10:59:44.871305550+00:00,0,0
2024-02-05T10:59:44.882838230+00:00,0,1
2024-02-05T10:59:44.882839470+00:00,0,0
2024-02-05T10:59:45.121254550+00:00,1,0
2024-02-05T10:59:45.121304560+00:00,0,0
2024-02-05T10:59:45.132841740+00:00,0,1
2024-02-05T10:59:45.132842980+00:00,0,0
2024-02-05T10:59:45.371253570+00:00,1,0
2024-02-05T10:59:45.371303580+00:00,0,0
2024-02-05T10:59:45.382847560+00:00,0,1
2024-02-05T10:59:45.382848800+00:00,0,0
2024-02-05T10:59:45.621252580+00:00,1,0
2024-02-05T10:59:45.621302590+00:00,0,0
2024-02-05T10:59:45.632848020+00:00,0,1
2024-02-05T10:59:45.632849260+00:00,0,0
2024-02-05T10:59:45.871251590+00:00,1,0
2024-02-05T10:59:45.871301600+00:00,0,0
2024-02-05T10:59:45.882851480+00:00,0,1
2024-02-05T10:59:45.882852710+00:00,0,0
2024-02-05T10:59:46.121250610+00:00,1,0
2024-02-05T10:59:46.121300620+00:00,0,0
2024-02-05T10:59:46.132855600+00:00,0,1
2024-02-05T10:59:46.132856840+00:00,0,0
2024-02-05T10:59:46.371249620+00:00,1,0
2024-02-05T10:59:46.371299630+00:00,0,0
2024-02-05T10:59:46.382860780+00:00,0,1
2024-02-05T10:59:46.382862010+00:00,0,0
2024-02-05T10:59:46.621248640+00:00,1,0
2024-02-05T10:59:46.621298650+00:00,0,0
2024-02-05T10:59:46.632863590+00:00,0,1
2024-02-05T10:59:46.632864820+00:00,0,0
2024-02-05T10:59:46.871247650+00:00,1,0
2024-02-05T10:59:46.871297660+00:00,0,0
2024-02-05T10:59:46.882865030+00:00,0,1
2024-02-05T10:59:46.882866270+00:00,0,0
2024-02-05T10:59:47.121246670+00:00,1,0
2024-02-05T10:59:47.121296680+00:00,0,0
2024-02-05T10:59:47.132869780+00:00,0,1
2024-02-05T10:59:47.132871010+00:00,0,0
2024-02-05T10:59:47.371245680+00:00,1,0
2024-02-05T10:59:47.371295690+00:00,0,0
2024-02-05T10:59:47.382875010+00:00,0,1
2024-02-05T10:59:47.382876240+00:00,0,0
2024-02-05T10:59:47.621244690+00:00,1,0
2024-02-05T10:59:47.621294700+00:00,0,0
