Time [s],Channel 0,Channel 1
2023-12-04T07:39:31.345825000+00:00,0,0
2023-12-04T07:39:31.393360070+00:00,1,0
2023-12-04T07:39:31.393410260+00:00,0,0
2023-12-04T07:39:31.403548040+00:00,0,1
2023-12-04T07:39:31.403548490+00:00,0,0
2023-12-04T07:39:31.493359700+00:00,1,0
2023-12-04T07:39:31.493409890+00:00,0,0
2023-12-04T07:39:31.506958870+00:00,0,1
2023-12-04T07:39:31.506959700+00:00,0,0
2023-12-04T07:39:31.593359330+00:00,1,0
2023-12-04T07:39:31.593409520+00:00,0,0
2023-12-04T07:39:31.604575620+00:00,0,1
2023-12-04T07:39:31.604650490+00:00,0,0
2023-12-04T07:39:31.693358960+00:00,1,0
2023-12-04T07:39:31.693409150+00:00,0,0
2023-12-04T07:39:31.703342290+00:00,0,1
2023-12-04T07:39:31.703342740+00:00,0,0
2023-12-04T07:39:31.793358590+00:00,1,0
2023-12-04T07:39:31.793408790+00:00,0,0
2023-12-04T07:39:31.806926430+00:00,0,1
2023-12-04T07:39:31.806926890+00:00,0,0
2023-12-04T07:39:31.893358220+00:00,1,0
2023-12-04T07:39:31.893408420+00:00,0,0
2023-12-04T07:39:31.905783650+00:00,0,1
2023-12-04T07:39:31.905792000+00:00,0,0
2023-12-04T07:39:31.993357850+00:00,1,0
2023-12-04T07:39:31.993408050+00:00,0,0
2023-12-04T07:39:32.003551240+00:00,0,1
2023-12-04T07:39:32.003551690+00:00,0,0
2023-12-04T07:39:32.093357480+00:00,1,0
2023-12-04T07:39:32.093407680+00:00,0,0
2023-12-04T07:39:32.106952960+00:00,0,1
2023-12-04T07:39:32.106953410+00:00,0,0
2023-12-04T07:39:32.193357110+00:00,1,0
2023-12-04T07:39:32.193407310+00:00,0,0
2023-12-04T07:39:32.204580720+00:00,0,1
2023-12-04T07:39:32.204653670+00:00,0,0
2023-12-04T07:39:32.293356740+00:00,1,0
2023-12-04T07:39:32.293406940+00:00,0,0
2023-12-04T07:39:32.303360010+00:00,0,1
2023-12-04T07:39:32.303360460+00:00,0,0
2023-12-04T07:39:32.393356370+00:00,1,0
2023-12-04T07:39:32.393406570+00:00,0,0
2023-12-04T07:39:32.406935860+00:00,0,1
2023-12-04T07:39:32.406936310+00:00,0,0
2023-12-04T07:39:32.493356010+00:00,1,0
2023-12-04T07:39:32.493406200+00:00,0,0
2023-12-04T07:39:32.505779200+00:00,0,1
2023-12-04T07:39:32.505787550+00:00,0,0
2023-12-04T07:39:32.593355640+00:00,1,0
2023-12-04T07:39:32.593405830+00:00,0,0
2023-12-04T07:39:32.603562560+00:00,0,1
2023-12-04T07:39:32.603563020+00:00,0,0
2023-12-04T07:39:32.693355270+00:00,1,0
2023-12-04T07:39:32.693405460+00:00,0,0
2023-12-04T07:39:32.706969290+00:00,0,1
2023-12-04T07:39:32.706969410+00:00,0,0
2023-12-04T07:39:32.793354900+00:00,1,0
2023-12-04T07:39:32.793405090+00:00,0,0
2023-12-04T07:39:32.804656780+00:00,0,1
2023-12-04T07:39:32.804661320+00:00,0,0
2023-12-04T07:39:32.893354530+00:00,1,0
2023-12-04T07:39:32.893404730+00:00,0,0
2023-12-04T07:39:32.903353720+00:00,0,1
2023-12-04T07:39:32.903354200+00:00,0,0
2023-12-04T07:39:32.993354160+00:00,1,0
2023-12-04T07:39:32.993404360+00:00,0,0
2023-12-04T07:39:33.006925870+00:00,0,1
2023-12-04T07:39:33.006926320+00:00,0,0
2023-12-04T07:39:33.093353790+00:00,1,0
2023-12-04T07:39:33.093403990+00:00,0,0
2023-12-04T07:39:33.105824660+00:00,0,1
2023-12-04T07:39:33.105833020+00:00,0,0
2023-12-04T07:39:33.193353420+00:00,1,0
2023-12-04T07:39:33.193403620+00:00,0,0
2023-12-04T07:39:33.203587910+00:00,0,1
2023-12-04T07:39:33.203588370+00:00,0,0
2023-12-04T07:39:33.293353050+00:00,1,0
2023-12-04T07:39:33.293403250+00:00,0,0
2023-12-04T07:39:33.306972540+00:00,0,1
2023-12-04T07:39:33.306973250+00:00,0,0
2023-12-04T07:39:33.393352680+00:00,1,0
2023-12-04T07:39:33.393402880+00:00,0,0
2023-12-04T07:39:33.404672040+00:00,0,1
2023-12-04T07:39:33.404676590+00:00,0,0
2023-12-04T07:39:33.493352310+00:00,1,0
2023-12-04T07:39:33.493402510+00:00,0,0
2023-12-04T07:39:33.510871130+00:00,0,1
2023-12-04T07:39:33.510871580+00:00,0,0
2023-12-04T07:39:33.593351950+00:00,1,0
2023-12-04T07:39:33.593402140+00:00,0,0
2023-12-04T07:39:33.603189690+00:00,0,1
2023-12-04T07:39:33.603190140+00:00,0,0
2023-12-04T07:39:33.693351580+00:00,1,0
2023-12-04T07:39:33.693401770+00:00,0,0
2023-12-04T07:39:33.707896790+00:00,0,1
2023-12-04T07:39:33.707897240+00:00,0,0
2023-12-04T07:39:33.793351210+00:00,1,0
2023-12-04T07:39:33.793401400+00:00,0,0
2023-12-04T07:39:33.803378090+00:00,0,1
2023-12-04T07:39:33.803378540+00:00,0,0
2023-12-04T07:39:33.893350840+00:00,1,0
2023-12-04T07:39:33.893401040+00:00,0,0
2023-12-04T07:39:33.906973910+00:00,0,1
2023-12-04T07:39:33.906974360+00:00,0,0
2023-12-04T07:39:33.993350470+00:00,1,0
2023-12-04T07:39:33.993400670+00:00,0,0
2023-12-04T07:39:34.007069690+00:00,0,1
2023-12-04T07:39:34.007078040+00:00,0,0
2023-12-04T07:39:34.093350100+00:00,1,0
2023-12-04T07:39:34.093400300+00:00,0,0
2023-12-04T07:39:34.103225090+00:00,0,1
2023-12-04T07:39:34.103225620+00:00,0,0
2023-12-04T07:39:34.193349730+00:00,1,0
2023-12-04T07:39:34.193399930+00:00,0,0
2023-12-04T07:39:34.204168230+00:00,0,1
2023-12-04T07:39:34.204168690+00:00,0,0
2023-12-04T07:39:34.293349360+00:00,1,0
2023-12-04T07:39:34.293399560+00:00,0,0
2023-12-04T07:39:34.303305900+00:00,0,1
2023-12-04T07:39:34.303306360+00:00,0,0
2023-12-04T07:39:34.393348990+00:00,1,0
2023-12-04T07:39:34.393399190+00:00,0,0
2023-12-04T07:39:34.403411380+00:00,0,1
2023-12-04T07:39:34.403411830+00:00,0,0
2023-12-04T07:39:34.493348620+00:00,1,0
2023-12-04T07:39:34.493398820+00:00,0,0
2023-12-04T07:39:34.506955150+00:00,0,1
2023-12-04T07:39:34.506955600+00:00,0,0
2023-12-04T07:39:34.593348260+00:00,1,0
2023-12-04T07:39:34.593398450+00:00,0,0
2023-12-04T07:39:34.604716240+00:00,0,1
2023-12-04T07:39:34.604724590+00:00,0,0
2023-12-04T07:39:34.693347890+00:00,1,0
2023-12-04T07:39:34.693398080+00:00,0,0
2023-12-04T07:39:34.703377630+00:00,0,1
2023-12-04T07:39:34.703378090+00:00,0,0
2023-12-04T07:39:34.793347520+00:00,1,0
2023-12-04T07:39:34.793397710+00:00,0,0
2023-12-04T07:39:34.811926350+00:00,0,1
2023-12-04T07:39:34.811926810+00:00,0,0
2023-12-04T07:39:34.893347150+00:00,1,0
2023-12-04T07:39:34.893397340+00:00,0,0
2023-12-04T07:39:34.905803400+00:00,0,1
2023-12-04T07:39:34.905811750+00:00,0,0
2023-12-04T07:39:34.993346780+00:00,1,0
2023-12-04T07:39:34.993396970+00:00,0,0
2023-12-04T07:39:35.003588220+00:00,0,1
2023-12-04T07:39:35.003588680+00:00,0,0
2023-12-04T07:39:35.093346410+00:00,1,0
2023-12-04T07:39:35.093396610+00:00,0,0
2023-12-04T07:39:35.106990090+00:00,0,1
2023-12-04T07:39:35.106990550+00:00,0,0
2023-12-04T07:39:35.193346040+00:00,1,0
2023-12-04T07:39:35.193396240+00:00,0,0
2023-12-04T07:39:35.204673710+00:00,0,1
2023-12-04T07:39:35.204678250+00:00,0,0
2023-12-04T07:39:35.293345670+00:00,1,0
2023-12-04T07:39:35.293395870+00:00,0,0
2023-12-04T07:39:35.306225900+00:00,0,1
2023-12-04T07:39:35.306230310+00:00,0,0
2023-12-04T07:39:35.393345300+00:00,1,0
2023-12-04T07:39:35.393395500+00:00,0,0
2023-12-04T07:39:35.403201510+00:00,0,1
2023-12-04T07:39:35.403201970+00:00,0,0
2023-12-04T07:39:35.493344930+00:00,1,0
2023-12-04T07:39:35.493395130+00:00,0,0
2023-12-04T07:39:35.504193860+00:00,0,1
2023-12-04T07:39:35.504194310+00:00,0,0
2023-12-04T07:39:35.593344560+00:00,1,0
2023-12-04T07:39:35.593394760+00:00,0,0
2023-12-04T07:39:35.603400140+00:00,0,1
2023-12-04T07:39:35.603400620+00:00,0,0
2023-12-04T07:39:35.693344190+00:00,1,0
2023-12-04T07:39:35.693394390+00:00,0,0
2023-12-04T07:39:35.706985320+00:00,0,1
2023-12-04T07:39:35.706985780+00:00,0,0
2023-12-04T07:39:35.793343820+00:00,1,0
2023-12-04T07:39:35.793394020+00:00,0,0
2023-12-04T07:39:35.804754800+00:00,0,1
2023-12-04T07:39:35.804763150+00:00,0,0
2023-12-04T07:39:35.893343450+00:00,1,0
2023-12-04T07:39:35.893393650+00:00,0,0
2023-12-04T07:39:35.903388020+00:00,0,1
2023-12-04T07:39:35.903388470+00:00,0,0
2023-12-04T07:39:35.993343090+00:00,1,0
2023-12-04T07:39:35.993393280+00:00,0,0
2023-12-04T07:39:36.006949810+00:00,0,1
2023-12-04T07:39:36.006950270+00:00,0,0
2023-12-04T07:39:36.093342710+00:00,1,0
2023-12-04T07:39:36.093392910+00:00,0,0
2023-12-04T07:39:36.115803890+00:00,0,1
2023-12-04T07:39:36.115812240+00:00,0,0
2023-12-04T07:39:36.193342340+00:00,1,0
2023-12-04T07:39:36.193392540+00:00,0,0
2023-12-04T07:39:36.203542490+00:00,0,1
2023-12-04T07:39:36.203542940+00:00,0,0
2023-12-04T07:39:36.293341980+00:00,1,0
2023-12-04T07:39:36.293392170+00:00,0,0
2023-12-04T07:39:36.306952440+00:00,0,1
2023-12-04T07:39:36.306952900+00:00,0,0
2023-12-04T07:39:36.393341610+00:00,1,0
2023-12-04T07:39:36.393391800+00:00,0,0
2023-12-04T07:39:36.404749570+00:00,0,1
2023-12-04T07:39:36.404753970+00:00,0,0
2023-12-04T07:39:36.493341240+00:00,1,0
2023-12-04T07:39:36.493391430+00:00,0,0
2023-12-04T07:39:36.503392030+00:00,0,1
2023-12-04T07:39:36.503392480+00:00,0,0
2023-12-04T07:39:36.593340870+00:00,1,0
2023-12-04T07:39:36.593391060+00:00,0,0
2023-12-04T07:39:36.606955060+00:00,0,1
2023-12-04T07:39:36.606955510+00:00,0,0
2023-12-04T07:39:36.693340500+00:00,1,0
2023-12-04T07:39:36.693390690+00:00,0,0
2023-12-04T07:39:36.718305200+00:00,0,1
2023-12-04T07:39:36.718313550+00:00,0,0
2023-12-04T07:39:36.793340130+00:00,1,0
2023-12-04T07:39:36.793390330+00:00,0,0
2023-12-04T07:39:36.802136220+00:00,0,1
2023-12-04T07:39:36.802136680+00:00,0,0
2023-12-04T07:39:36.893339760+00:00,1,0
2023-12-04T07:39:36.893389950+00:00,0,0
2023-12-04T07:39:36.906973310+00:00,0,1
2023-12-04T07:39:36.906973770+00:00,0,0
2023-12-04T07:39:36.993339390+00:00,1,0
2023-12-04T07:39:36.993389580+00:00,0,0
2023-12-04T07:39:37.004729420+00:00,0,1
2023-12-04T07:39:37.004733820+00:00,0,0
2023-12-04T07:39:37.093339020+00:00,1,0
2023-12-04T07:39:37.093389220+00:00,0,0
2023-12-04T07:39:37.103375260+00:00,0,1
2023-12-04T07:39:37.103375710+00:00,0,0
2023-12-04T07:39:37.193338650+00:00,1,0
2023-12-04T07:39:37.193388850+00:00,0,0
2023-12-04T07:39:37.206964480+00:00,0,1
2023-12-04T07:39:37.206964930+00:00,0,0
2023-12-04T07:39:37.293338280+00:00,1,0
2023-12-04T07:39:37.293388480+00:00,0,0
2023-12-04T07:39:37.305965600+00:00,0,1
2023-12-04T07:39:37.305973960+00:00,0,0
2023-12-04T07:39:37.393337910+00:00,1,0
2023-12-04T07:39:37.393388110+00:00,0,0
2023-12-04T07:39:37.411098510+00:00,0,1
2023-12-04T07:39:37.411098960+00:00,0,0
2023-12-04T07:39:37.493337540+00:00,1,0
2023-12-04T07:39:37.493387740+00:00,0,0
2023-12-04T07:39:37.503252730+00:00,0,1
2023-12-04T07:39:37.503253180+00:00,0,0
2023-12-04T07:39:37.593337170+00:00,1,0
2023-12-04T07:39:37.593387370+00:00,0,0
2023-12-04T07:39:37.610471890+00:00,0,1
2023-12-04T07:39:37.610472350+00:00,0,0
2023-12-04T07:39:37.693336800+00:00,1,0
2023-12-04T07:39:37.693387000+00:00,0,0
2023-12-04T07:39:37.703337240+00:00,0,1
2023-12-04T07:39:37.703337700+00:00,0,0
2023-12-04T07:39:37.793336430+00:00,1,0
2023-12-04T07:39:37.793386630+00:00,0,0
2023-12-04T07:39:37.806976930+00:00,0,1
2023-12-04T07:39:37.806977380+00:00,0,0
2023-12-04T07:39:37.893336060+00:00,1,0
2023-12-04T07:39:37.893386260+00:00,0,0
2023-12-04T07:39:37.905934330+00:00,0,1
2023-12-04T07:39:37.905942840+00:00,0,0
2023-12-04T07:39:37.993335690+00:00,1,0
2023-12-04T07:39:37.993385890+00:00,0,0
2023-12-04T07:39:38.017325550+00:00,0,1
2023-12-04T07:39:38.017326000+00:00,0,0
2023-12-04T07:39:38.093335320+00:00,1,0
2023-12-04T07:39:38.093385520+00:00,0,0
2023-12-04T07:39:38.103255800+00:00,0,1
2023-12-04T07:39:38.103256250+00:00,0,0
2023-12-04T07:39:38.193334950+00:00,1,0
2023-12-04T07:39:38.193385150+00:00,0,0
2023-12-04T07:39:38.207957100+00:00,0,1
2023-12-04T07:39:38.207957550+00:00,0,0
2023-12-04T07:39:38.293334580+00:00,1,0
2023-12-04T07:39:38.293384780+00:00,0,0
2023-12-04T07:39:38.303304480+00:00,0,1
2023-12-04T07:39:38.303304930+00:00,0,0
2023-12-04T07:39:38.393334210+00:00,1,0
2023-12-04T07:39:38.393384410+00:00,0,0
2023-12-04T07:39:38.407003640+00:00,0,1
2023-12-04T07:39:38.407004090+00:00,0,0
2023-12-04T07:39:38.493333840+00:00,1,0
2023-12-04T07:39:38.493384040+00:00,0,0
2023-12-04T07:39:38.505953560+00:00,0,1
2023-12-04T07:39:38.505962050+00:00,0,0
2023-12-04T07:39:38.593333470+00:00,1,0
2023-12-04T07:39:38.593383670+00:00,0,0
2023-12-04T07:39:38.603616530+00:00,0,1
2023-12-04T07:39:38.603616990+00:00,0,0
2023-12-04T07:39:38.693333100+00:00,1,0
2023-12-04T07:39:38.693383300+00:00,0,0
2023-12-04T07:39:38.707039150+00:00,0,1
2023-12-04T07:39:38.707039610+00:00,0,0
2023-12-04T07:39:38.793332730+00:00,1,0
2023-12-04T07:39:38.793382930+00:00,0,0
2023-12-04T07:39:38.804805740+00:00,0,1
2023-12-04T07:39:38.804810150+00:00,0,0
2023-12-04T07:39:38.893332360+00:00,1,0
2023-12-04T07:39:38.893382560+00:00,0,0
2023-12-04T07:39:38.903430010+00:00,0,1
2023-12-04T07:39:38.903430470+00:00,0,0
2023-12-04T07:39:38.993331990+00:00,1,0
2023-12-04T07:39:38.993382190+00:00,0,0
2023-12-04T07:39:39.007007140+00:00,0,1
2023-12-04T07:39:39.007007600+00:00,0,0
2023-12-04T07:39:39.093331620+00:00,1,0
2023-12-04T07:39:39.093381820+00:00,0,0
2023-12-04T07:39:39.105978020+00:00,0,1
2023-12-04T07:39:39.105986370+00:00,0,0
2023-12-04T07:39:39.193331250+00:00,1,0
2023-12-04T07:39:39.193381450+00:00,0,0
2023-12-04T07:39:39.203626060+00:00,0,1
2023-12-04T07:39:39.203626510+00:00,0,0
2023-12-04T07:39:39.293330890+00:00,1,0
2023-12-04T07:39:39.293381080+00:00,0,0
2023-12-04T07:39:39.317008920+00:00,0,1
2023-12-04T07:39:39.317009370+00:00,0,0
2023-12-04T07:39:39.393330510+00:00,1,0
2023-12-04T07:39:39.393380710+00:00,0,0
2023-12-04T07:39:39.404795860+00:00,0,1
2023-12-04T07:39:39.404800270+00:00,0,0
2023-12-04T07:39:39.493330140+00:00,1,0
2023-12-04T07:39:39.493380340+00:00,0,0
2023-12-04T07:39:39.503419980+00:00,0,1
2023-12-04T07:39:39.503420440+00:00,0,0
2023-12-04T07:39:39.593329770+00:00,1,0
2023-12-04T07:39:39.593379970+00:00,0,0
2023-12-04T07:39:39.607027030+00:00,0,1
2023-12-04T07:39:39.607027450+00:00,0,0
2023-12-04T07:39:39.693329400+00:00,1,0
2023-12-04T07:39:39.693379600+00:00,0,0
2023-12-04T07:39:39.705990090+00:00,0,1
2023-12-04T07:39:39.705998440+00:00,0,0
2023-12-04T07:39:39.793329030+00:00,1,0
2023-12-04T07:39:39.793379230+00:00,0,0
2023-12-04T07:39:39.803654920+00:00,0,1
2023-12-04T07:39:39.803655370+00:00,0,0
2023-12-04T07:39:39.893328660+00:00,1,0
2023-12-04T07:39:39.893378860+00:00,0,0
2023-12-04T07:39:39.909546460+00:00,0,1
2023-12-04T07:39:39.909546920+00:00,0,0
2023-12-04T07:39:39.993328290+00:00,1,0
2023-12-04T07:39:39.993378490+00:00,0,0
2023-12-04T07:39:40.004826690+00:00,0,1
2023-12-04T07:39:40.004831090+00:00,0,0
2023-12-04T07:39:40.093327920+00:00,1,0
2023-12-04T07:39:40.093378120+00:00,0,0
2023-12-04T07:39:40.103577930+00:00,0,1
2023-12-04T07:39:40.103578390+00:00,0,0
2023-12-04T07:39:40.193327550+00:00,1,0
2023-12-04T07:39:40.193377750+00:00,0,0
2023-12-04T07:39:40.207019350+00:00,0,1
2023-12-04T07:39:40.207019810+00:00,0,0
2023-12-04T07:39:40.293327180+00:00,1,0
2023-12-04T07:39:40.293377380+00:00,0,0
2023-12-04T07:39:40.306006760+00:00,0,1
2023-12-04T07:39:40.306015120+00:00,0,0
2023-12-04T07:39:40.393326810+00:00,1,0
2023-12-04T07:39:40.393377010+00:00,0,0
2023-12-04T07:39:40.403653440+00:00,0,1
2023-12-04T07:39:40.403653890+00:00,0,0
2023-12-04T07:39:40.493326440+00:00,1,0
2023-12-04T07:39:40.493376640+00:00,0,0
2023-12-04T07:39:40.507058720+00:00,0,1
2023-12-04T07:39:40.507059180+00:00,0,0
2023-12-04T07:39:40.593326070+00:00,1,0
2023-12-04T07:39:40.593376270+00:00,0,0
2023-12-04T07:39:40.617447880+00:00,0,1
2023-12-04T07:39:40.617448330+00:00,0,0
2023-12-04T07:39:40.693325700+00:00,1,0
2023-12-04T07:39:40.693375900+00:00,0,0
2023-12-04T07:39:40.703238420+00:00,0,1
2023-12-04T07:39:40.703238870+00:00,0,0
2023-12-04T07:39:40.793325330+00:00,1,0
2023-12-04T07:39:40.793375530+00:00,0,0
2023-12-04T07:39:40.808043130+00:00,0,1
2023-12-04T07:39:40.808043590+00:00,0,0
2023-12-04T07:39:40.893324960+00:00,1,0
2023-12-04T07:39:40.893375160+00:00,0,0
2023-12-04T07:39:40.903410090+00:00,0,1
2023-12-04T07:39:40.903410540+00:00,0,0
2023-12-04T07:39:40.993324590+00:00,1,0
2023-12-04T07:39:40.993374790+00:00,0,0
2023-12-04T07:39:41.003592430+00:00,0,1
2023-12-04T07:39:41.003592880+00:00,0,0
2023-12-04T07:39:41.093324220+00:00,1,0
2023-12-04T07:39:41.093374420+00:00,0,0
2023-12-04T07:39:41.107026670+00:00,0,1
2023-12-04T07:39:41.107027130+00:00,0,0
2023-12-04T07:39:41.193323850+00:00,1,0
2023-12-04T07:39:41.193374040+00:00,0,0
2023-12-04T07:39:41.207250710+00:00,0,1
2023-12-04T07:39:41.207259070+00:00,0,0
2023-12-04T07:39:41.293323480+00:00,1,0
2023-12-04T07:39:41.293373680+00:00,0,0
2023-12-04T07:39:41.303313470+00:00,0,1
2023-12-04T07:39:41.303313940+00:00,0,0
2023-12-04T07:39:41.393323110+00:00,1,0
2023-12-04T07:39:41.393373310+00:00,0,0
2023-12-04T07:39:41.408170950+00:00,0,1
2023-12-04T07:39:41.408171400+00:00,0,0
2023-12-04T07:39:41.493322740+00:00,1,0
2023-12-04T07:39:41.493372930+00:00,0,0
2023-12-04T07:39:41.503431420+00:00,0,1
2023-12-04T07:39:41.503431880+00:00,0,0
2023-12-04T07:39:41.593322370+00:00,1,0
2023-12-04T07:39:41.593372560+00:00,0,0
2023-12-04T07:39:41.603425160+00:00,0,1
2023-12-04T07:39:41.603425620+00:00,0,0
2023-12-04T07:39:41.693322000+00:00,1,0
2023-12-04T07:39:41.693372200+00:00,0,0
2023-12-04T07:39:41.707033450+00:00,0,1
2023-12-04T07:39:41.707033900+00:00,0,0
2023-12-04T07:39:41.793321630+00:00,1,0
2023-12-04T07:39:41.793371820+00:00,0,0
2023-12-04T07:39:41.804816440+00:00,0,1
2023-12-04T07:39:41.804824790+00:00,0,0
2023-12-04T07:39:41.893321260+00:00,1,0
2023-12-04T07:39:41.893371450+00:00,0,0
2023-12-04T07:39:41.918415380+00:00,0,1
2023-12-04T07:39:41.918415830+00:00,0,0
2023-12-04T07:39:41.993320890+00:00,1,0
2023-12-04T07:39:41.993371080+00:00,0,0
2023-12-04T07:39:42.003293870+00:00,0,1
2023-12-04T07:39:42.003294320+00:00,0,0
2023-12-04T07:39:42.093320520+00:00,1,0
2023-12-04T07:39:42.093370710+00:00,0,0
2023-12-04T07:39:42.108069840+00:00,0,1
2023-12-04T07:39:42.108070290+00:00,0,0
2023-12-04T07:39:42.193320150+00:00,1,0
2023-12-04T07:39:42.193370340+00:00,0,0
2023-12-04T07:39:42.203606900+00:00,0,1
2023-12-04T07:39:42.203607360+00:00,0,0
2023-12-04T07:39:42.293319780+00:00,1,0
2023-12-04T07:39:42.293369970+00:00,0,0
2023-12-04T07:39:42.307071620+00:00,0,1
2023-12-04T07:39:42.307072080+00:00,0,0
2023-12-04T07:39:42.393319410+00:00,1,0
2023-12-04T07:39:42.393369600+00:00,0,0
2023-12-04T07:39:42.404826980+00:00,0,1
2023-12-04T07:39:42.404835330+00:00,0,0
2023-12-04T07:39:42.493319030+00:00,1,0
2023-12-04T07:39:42.493369230+00:00,0,0
2023-12-04T07:39:42.503603560+00:00,0,1
2023-12-04T07:39:42.503604010+00:00,0,0
2023-12-04T07:39:42.593318660+00:00,1,0
2023-12-04T07:39:42.593368860+00:00,0,0
2023-12-04T07:39:42.607042310+00:00,0,1
2023-12-04T07:39:42.607042760+00:00,0,0
2023-12-04T07:39:42.693318290+00:00,1,0
2023-12-04T07:39:42.693368490+00:00,0,0
2023-12-04T07:39:42.706033480+00:00,0,1
2023-12-04T07:39:42.706041830+00:00,0,0
2023-12-04T07:39:42.793317920+00:00,1,0
2023-12-04T07:39:42.793368120+00:00,0,0
2023-12-04T07:39:42.803683590+00:00,0,1
2023-12-04T07:39:42.803684050+00:00,0,0
2023-12-04T07:39:42.893317550+00:00,1,0
2023-12-04T07:39:42.893367750+00:00,0,0
2023-12-04T07:39:42.907080110+00:00,0,1
2023-12-04T07:39:42.907080580+00:00,0,0
2023-12-04T07:39:42.993317180+00:00,1,0
2023-12-04T07:39:42.993367380+00:00,0,0
2023-12-04T07:39:43.004837290+00:00,0,1
2023-12-04T07:39:43.004841690+00:00,0,0
2023-12-04T07:39:43.093316810+00:00,1,0
2023-12-04T07:39:43.093367010+00:00,0,0
2023-12-04T07:39:43.103598220+00:00,0,1
2023-12-04T07:39:43.103598680+00:00,0,0
2023-12-04T07:39:43.193316440+00:00,1,0
2023-12-04T07:39:43.193366630+00:00,0,0
2023-12-04T07:39:43.218251180+00:00,0,1
2023-12-04T07:39:43.218251630+00:00,0,0
2023-12-04T07:39:43.293316070+00:00,1,0
2023-12-04T07:39:43.293366270+00:00,0,0
2023-12-04T07:39:43.306036870+00:00,0,1
2023-12-04T07:39:43.306045220+00:00,0,0
2023-12-04T07:39:43.393315700+00:00,1,0
2023-12-04T07:39:43.393365890+00:00,0,0
2023-12-04T07:39:43.403682040+00:00,0,1
2023-12-04T07:39:43.403682500+00:00,0,0
2023-12-04T07:39:43.493315330+00:00,1,0
2023-12-04T07:39:43.493365520+00:00,0,0
2023-12-04T07:39:43.507083050+00:00,0,1
2023-12-04T07:39:43.507083520+00:00,0,0
2023-12-04T07:39:43.593314960+00:00,1,0
2023-12-04T07:39:43.593365150+00:00,0,0
2023-12-04T07:39:43.604840760+00:00,0,1
2023-12-04T07:39:43.604845160+00:00,0,0
2023-12-04T07:39:43.693314590+00:00,1,0
2023-12-04T07:39:43.693364780+00:00,0,0
2023-12-04T07:39:43.703604610+00:00,0,1
2023-12-04T07:39:43.703605070+00:00,0,0
2023-12-04T07:39:43.793314210+00:00,1,0
2023-12-04T07:39:43.793364410+00:00,0,0
