Time [s],Channel 0,Channel 1
2023-12-20T06:40:39.669580000+00:00,0,0
2023-12-20T06:40:39.812721150+00:00,1,0
2023-12-20T06:40:39.812771170+00:00,0,0
2023-12-20T06:40:39.824299160+00:00,0,1
2023-12-20T06:40:39.824299610+00:00,0,0
2023-12-20T06:40:40.112720270+00:00,1,0
2023-12-20T06:40:40.112770280+00:00,0,0
2023-12-20T06:40:40.121815570+00:00,0,1
2023-12-20T06:40:40.121816020+00:00,0,0
2023-12-20T06:40:40.412719380+00:00,1,0
2023-12-20T06:40:40.412769400+00:00,0,0
2023-12-20T06:40:40.425581740+00:00,0,1
2023-12-20T06:40:40.425582190+00:00,0,0
2023-12-20T06:40:40.712718500+00:00,1,0
2023-12-20T06:40:40.712768520+00:00,0,0
2023-12-20T06:40:40.728174600+00:00,0,1
2023-12-20T06:40:40.728175050+00:00,0,0
2023-12-20T06:40:41.012717620+00:00,1,0
2023-12-20T06:40:41.012767640+00:00,0,0
2023-12-20T06:40:41.023566570+00:00,0,1
2023-12-20T06:40:41.023567020+00:00,0,0
2023-12-20T06:40:41.312716740+00:00,1,0
2023-12-20T06:40:41.312766750+00:00,0,0
2023-12-20T06:40:41.319731710+00:00,0,1
2023-12-20T06:40:41.319732170+00:00,0,0
2023-12-20T06:40:41.612715860+00:00,1,0
2023-12-20T06:40:41.612765870+00:00,0,0
2023-12-20T06:40:41.625516890+00:00,0,1
2023-12-20T06:40:41.625517350+00:00,0,0
2023-12-20T06:40:41.912714970+00:00,1,0
2023-12-20T06:40:41.912764990+00:00,0,0
2023-12-20T06:40:41.928400070+00:00,0,1
2023-12-20T06:40:41.928400520+00:00,0,0
2023-12-20T06:40:42.212714090+00:00,1,0
2023-12-20T06:40:42.212764110+00:00,0,0
2023-12-20T06:40:42.226525250+00:00,0,1
2023-12-20T06:40:42.226533670+00:00,0,0
2023-12-20T06:40:42.512713210+00:00,1,0
2023-12-20T06:40:42.512763220+00:00,0,0
2023-12-20T06:40:42.523286180+00:00,0,1
2023-12-20T06:40:42.523286630+00:00,0,0
2023-12-20T06:40:42.812712330+00:00,1,0
2023-12-20T06:40:42.812762340+00:00,0,0
2023-12-20T06:40:42.825465420+00:00,0,1
2023-12-20T06:40:42.825465880+00:00,0,0
2023-12-20T06:40:43.112711440+00:00,1,0
2023-12-20T06:40:43.112761460+00:00,0,0
2023-12-20T06:40:43.125671770+00:00,0,1
2023-12-20T06:40:43.125672220+00:00,0,0
2023-12-20T06:40:43.412710560+00:00,1,0
2023-12-20T06:40:43.412760580+00:00,0,0
2023-12-20T06:40:43.426399720+00:00,0,1
2023-12-20T06:40:43.426400180+00:00,0,0
2023-12-20T06:40:43.712709680+00:00,1,0
2023-12-20T06:40:43.712759690+00:00,0,0
2023-12-20T06:40:43.728583170+00:00,0,1
2023-12-20T06:40:43.728583620+00:00,0,0
2023-12-20T06:40:44.012708790+00:00,1,0
2023-12-20T06:40:44.012758810+00:00,0,0
2023-12-20T06:40:44.026711290+00:00,0,1
2023-12-20T06:40:44.026711740+00:00,0,0
2023-12-20T06:40:44.312707910+00:00,1,0
2023-12-20T06:40:44.312757930+00:00,0,0
2023-12-20T06:40:44.325755080+00:00,0,1
2023-12-20T06:40:44.325755540+00:00,0,0
2023-12-20T06:40:44.612707030+00:00,1,0
2023-12-20T06:40:44.612757040+00:00,0,0
2023-12-20T06:40:44.626465930+00:00,0,1
2023-12-20T06:40:44.626466380+00:00,0,0
2023-12-20T06:40:44.912706140+00:00,1,0
2023-12-20T06:40:44.912756160+00:00,0,0
2023-12-20T06:40:44.924999420+00:00,0,1
2023-12-20T06:40:44.924999880+00:00,0,0
2023-12-20T06:40:45.212705260+00:00,1,0
2023-12-20T06:40:45.212755270+00:00,0,0
2023-12-20T06:40:45.224360490+00:00,0,1
2023-12-20T06:40:45.224360940+00:00,0,0
2023-12-20T06:40:45.512704370+00:00,1,0
2023-12-20T06:40:45.512754390+00:00,0,0
2023-12-20T06:40:45.523642130+00:00,0,1
2023-12-20T06:40:45.523642580+00:00,0,0
2023-12-20T06:40:45.812703490+00:00,1,0
2023-12-20T06:40:45.812753510+00:00,0,0
2023-12-20T06:40:45.828070160+00:00,0,1
2023-12-20T06:40:45.828070610+00:00,0,0
2023-12-20T06:40:46.112702610+00:00,1,0
2023-12-20T06:40:46.112752620+00:00,0,0
2023-12-20T06:40:46.118814550+00:00,0,1
2023-12-20T06:40:46.118815010+00:00,0,0
2023-12-20T06:40:46.412701720+00:00,1,0
2023-12-20T06:40:46.412751740+00:00,0,0
2023-12-20T06:40:46.424395790+00:00,0,1
2023-12-20T06:40:46.424396250+00:00,0,0
2023-12-20T06:40:46.712700840+00:00,1,0
2023-12-20T06:40:46.712750850+00:00,0,0
2023-12-20T06:40:46.723591940+00:00,0,1
2023-12-20T06:40:46.723592390+00:00,0,0
2023-12-20T06:40:47.012699950+00:00,1,0
2023-12-20T06:40:47.012749970+00:00,0,0
2023-12-20T06:40:47.024266910+00:00,0,1
2023-12-20T06:40:47.024267360+00:00,0,0
2023-12-20T06:40:47.312699070+00:00,1,0
2023-12-20T06:40:47.312749080+00:00,0,0
2023-12-20T06:40:47.324003750+00:00,0,1
2023-12-20T06:40:47.324004200+00:00,0,0
2023-12-20T06:40:47.612698180+00:00,1,0
2023-12-20T06:40:47.612748200+00:00,0,0
2023-12-20T06:40:47.618961970+00:00,0,1
2023-12-20T06:40:47.618962430+00:00,0,0
2023-12-20T06:40:47.912697290+00:00,1,0
2023-12-20T06:40:47.912747310+00:00,0,0
2023-12-20T06:40:47.923985110+00:00,0,1
2023-12-20T06:40:47.923985560+00:00,0,0
2023-12-20T06:40:48.212696410+00:00,1,0
2023-12-20T06:40:48.212746420+00:00,0,0
2023-12-20T06:40:48.223982100+00:00,0,1
2023-12-20T06:40:48.223982550+00:00,0,0
2023-12-20T06:40:48.512695520+00:00,1,0
2023-12-20T06:40:48.512745540+00:00,0,0
2023-12-20T06:40:48.525971080+00:00,0,1
2023-12-20T06:40:48.525971530+00:00,0,0
2023-12-20T06:40:48.812694640+00:00,1,0
2023-12-20T06:40:48.812744650+00:00,0,0
2023-12-20T06:40:48.825321740+00:00,0,1
2023-12-20T06:40:48.825322190+00:00,0,0
2023-12-20T06:40:49.112693750+00:00,1,0
2023-12-20T06:40:49.112743760+00:00,0,0
2023-12-20T06:40:49.121778600+00:00,0,1
2023-12-20T06:40:49.121779050+00:00,0,0
2023-12-20T06:40:49.412692860+00:00,1,0
2023-12-20T06:40:49.412742880+00:00,0,0
2023-12-20T06:40:49.425654260+00:00,0,1
2023-12-20T06:40:49.425654720+00:00,0,0
2023-12-20T06:40:49.712691980+00:00,1,0
2023-12-20T06:40:49.712741990+00:00,0,0
2023-12-20T06:40:49.736473700+00:00,0,1
2023-12-20T06:40:49.736474150+00:00,0,0
2023-12-20T06:40:50.012691090+00:00,1,0
2023-12-20T06:40:50.012741100+00:00,0,0
2023-12-20T06:40:50.028359560+00:00,0,1
2023-12-20T06:40:50.028360020+00:00,0,0
2023-12-20T06:40:50.312690200+00:00,1,0
2023-12-20T06:40:50.312740220+00:00,0,0
2023-12-20T06:40:50.325704020+00:00,0,1
2023-12-20T06:40:50.325704480+00:00,0,0
2023-12-20T06:40:50.612689310+00:00,1,0
2023-12-20T06:40:50.612739330+00:00,0,0
2023-12-20T06:40:50.634127960+00:00,0,1
2023-12-20T06:40:50.634128410+00:00,0,0
2023-12-20T06:40:50.912688430+00:00,1,0
2023-12-20T06:40:50.912738440+00:00,0,0
2023-12-20T06:40:50.923624330+00:00,0,1
2023-12-20T06:40:50.923624780+00:00,0,0
2023-12-20T06:40:51.212687540+00:00,1,0
2023-12-20T06:40:51.212737550+00:00,0,0
2023-12-20T06:40:51.224263590+00:00,0,1
2023-12-20T06:40:51.224264040+00:00,0,0
2023-12-20T06:40:51.512686650+00:00,1,0
2023-12-20T06:40:51.512736670+00:00,0,0
2023-12-20T06:40:51.524539440+00:00,0,1
2023-12-20T06:40:51.524539900+00:00,0,0
2023-12-20T06:40:51.812685760+00:00,1,0
2023-12-20T06:40:51.812735780+00:00,0,0
2023-12-20T06:40:51.823751240+00:00,0,1
2023-12-20T06:40:51.823751690+00:00,0,0
2023-12-20T06:40:52.112684870+00:00,1,0
2023-12-20T06:40:52.112734890+00:00,0,0
2023-12-20T06:40:52.128406550+00:00,0,1
2023-12-20T06:40:52.128407010+00:00,0,0
2023-12-20T06:40:52.412683990+00:00,1,0
2023-12-20T06:40:52.412734000+00:00,0,0
2023-12-20T06:40:52.424335890+00:00,0,1
2023-12-20T06:40:52.424336340+00:00,0,0
2023-12-20T06:40:52.712683100+00:00,1,0
2023-12-20T06:40:52.712733110+00:00,0,0
2023-12-20T06:40:52.720547770+00:00,0,1
2023-12-20T06:40:52.720548220+00:00,0,0
2023-12-20T06:40:53.012682210+00:00,1,0
2023-12-20T06:40:53.012732220+00:00,0,0
2023-12-20T06:40:53.025753430+00:00,0,1
2023-12-20T06:40:53.025753890+00:00,0,0
2023-12-20T06:40:53.312681320+00:00,1,0
2023-12-20T06:40:53.312731340+00:00,0,0
2023-12-20T06:40:53.324803920+00:00,0,1
2023-12-20T06:40:53.324804370+00:00,0,0
2023-12-20T06:40:53.612680430+00:00,1,0
2023-12-20T06:40:53.612730450+00:00,0,0
2023-12-20T06:40:53.625191950+00:00,0,1
2023-12-20T06:40:53.625192400+00:00,0,0
2023-12-20T06:40:53.912679540+00:00,1,0
2023-12-20T06:40:53.912729560+00:00,0,0
2023-12-20T06:40:53.924000370+00:00,0,1
2023-12-20T06:40:53.924000820+00:00,0,0
2023-12-20T06:40:54.212678650+00:00,1,0
2023-12-20T06:40:54.212728670+00:00,0,0
2023-12-20T06:40:54.225411090+00:00,0,1
2023-12-20T06:40:54.225411550+00:00,0,0
2023-12-20T06:40:54.512677760+00:00,1,0
2023-12-20T06:40:54.512727780+00:00,0,0
2023-12-20T06:40:54.524099640+00:00,0,1
2023-12-20T06:40:54.524100090+00:00,0,0
2023-12-20T06:40:54.812676870+00:00,1,0
2023-12-20T06:40:54.812726890+00:00,0,0
2023-12-20T06:40:54.825328070+00:00,0,1
2023-12-20T06:40:54.825328530+00:00,0,0
2023-12-20T06:40:55.112675980+00:00,1,0
2023-12-20T06:40:55.112726000+00:00,0,0
2023-12-20T06:40:55.124218500+00:00,0,1
2023-12-20T06:40:55.124218950+00:00,0,0
2023-12-20T06:40:55.412675090+00:00,1,0
2023-12-20T06:40:55.412725110+00:00,0,0
2023-12-20T06:40:55.419823020+00:00,0,1
2023-12-20T06:40:55.419823470+00:00,0,0
2023-12-20T06:40:55.712674200+00:00,1,0
2023-12-20T06:40:55.712724220+00:00,0,0
2023-12-20T06:40:55.733695750+00:00,0,1
2023-12-20T06:40:55.733696210+00:00,0,0
2023-12-20T06:40:56.012673310+00:00,1,0
2023-12-20T06:40:56.012723330+00:00,0,0
2023-12-20T06:40:56.025375990+00:00,0,1
2023-12-20T06:40:56.025376440+00:00,0,0
2023-12-20T06:40:56.312672420+00:00,1,0
2023-12-20T06:40:56.312722440+00:00,0,0
2023-12-20T06:40:56.325592230+00:00,0,1
2023-12-20T06:40:56.325592690+00:00,0,0
2023-12-20T06:40:56.612671530+00:00,1,0
2023-12-20T06:40:56.612721550+00:00,0,0
2023-12-20T06:40:56.624168740+00:00,0,1
2023-12-20T06:40:56.624169190+00:00,0,0
2023-12-20T06:40:56.912670640+00:00,1,0
2023-12-20T06:40:56.912720660+00:00,0,0
2023-12-20T06:40:56.920686220+00:00,0,1
2023-12-20T06:40:56.920686670+00:00,0,0
2023-12-20T06:40:57.212669750+00:00,1,0
2023-12-20T06:40:57.212719770+00:00,0,0
2023-12-20T06:40:57.226621690+00:00,0,1
2023-12-20T06:40:57.226630120+00:00,0,0
2023-12-20T06:40:57.512668860+00:00,1,0
2023-12-20T06:40:57.512718870+00:00,0,0
2023-12-20T06:40:57.523971210+00:00,0,1
2023-12-20T06:40:57.523971660+00:00,0,0
2023-12-20T06:40:57.812667970+00:00,1,0
2023-12-20T06:40:57.812717980+00:00,0,0
2023-12-20T06:40:57.826525250+00:00,0,1
2023-12-20T06:40:57.826525710+00:00,0,0
2023-12-20T06:40:58.112667080+00:00,1,0
2023-12-20T06:40:58.112717090+00:00,0,0
2023-12-20T06:40:58.123927280+00:00,0,1
2023-12-20T06:40:58.123927730+00:00,0,0
2023-12-20T06:40:58.412666180+00:00,1,0
2023-12-20T06:40:58.412716200+00:00,0,0
2023-12-20T06:40:58.424156910+00:00,0,1
2023-12-20T06:40:58.424157360+00:00,0,0
2023-12-20T06:40:58.712665290+00:00,1,0
2023-12-20T06:40:58.712715310+00:00,0,0
2023-12-20T06:40:58.729482610+00:00,0,1
2023-12-20T06:40:58.729483060+00:00,0,0
2023-12-20T06:40:59.012664400+00:00,1,0
2023-12-20T06:40:59.012714420+00:00,0,0
2023-12-20T06:40:59.027982540+00:00,0,1
2023-12-20T06:40:59.027983000+00:00,0,0
2023-12-20T06:40:59.312663510+00:00,1,0
2023-12-20T06:40:59.312713520+00:00,0,0
2023-12-20T06:40:59.326535810+00:00,0,1
2023-12-20T06:40:59.326536270+00:00,0,0
2023-12-20T06:40:59.612662620+00:00,1,0
2023-12-20T06:40:59.612712630+00:00,0,0
2023-12-20T06:40:59.625513900+00:00,0,1
2023-12-20T06:40:59.625514350+00:00,0,0
2023-12-20T06:40:59.912661720+00:00,1,0
2023-12-20T06:40:59.912711740+00:00,0,0
2023-12-20T06:40:59.926445820+00:00,0,1
2023-12-20T06:40:59.926446280+00:00,0,0
2023-12-20T06:41:00.212660830+00:00,1,0
2023-12-20T06:41:00.212710850+00:00,0,0
2023-12-20T06:41:00.225987620+00:00,0,1
2023-12-20T06:41:00.225988080+00:00,0,0
2023-12-20T06:41:00.512659940+00:00,1,0
2023-12-20T06:41:00.512709960+00:00,0,0
2023-12-20T06:41:00.526135350+00:00,0,1
2023-12-20T06:41:00.526135810+00:00,0,0
2023-12-20T06:41:00.812659050+00:00,1,0
2023-12-20T06:41:00.812709070+00:00,0,0
2023-12-20T06:41:00.824519800+00:00,0,1
2023-12-20T06:41:00.824520260+00:00,0,0
2023-12-20T06:41:01.112658160+00:00,1,0
2023-12-20T06:41:01.112708170+00:00,0,0
2023-12-20T06:41:01.127297240+00:00,0,1
2023-12-20T06:41:01.127297700+00:00,0,0
2023-12-20T06:41:01.412657260+00:00,1,0
2023-12-20T06:41:01.412707280+00:00,0,0
2023-12-20T06:41:01.425122530+00:00,0,1
2023-12-20T06:41:01.425122990+00:00,0,0
2023-12-20T06:41:01.712656370+00:00,1,0
2023-12-20T06:41:01.712706390+00:00,0,0
2023-12-20T06:41:01.726875700+00:00,0,1
2023-12-20T06:41:01.726876150+00:00,0,0
2023-12-20T06:41:02.012655480+00:00,1,0
2023-12-20T06:41:02.012705500+00:00,0,0
2023-12-20T06:41:02.024374120+00:00,0,1
2023-12-20T06:41:02.024374580+00:00,0,0
2023-12-20T06:41:02.312654590+00:00,1,0
2023-12-20T06:41:02.312704600+00:00,0,0
2023-12-20T06:41:02.325945000+00:00,0,1
2023-12-20T06:41:02.325945460+00:00,0,0
2023-12-20T06:41:02.612653690+00:00,1,0
2023-12-20T06:41:02.612703710+00:00,0,0
2023-12-20T06:41:02.626688450+00:00,0,1
2023-12-20T06:41:02.626688900+00:00,0,0
2023-12-20T06:41:02.912652800+00:00,1,0
2023-12-20T06:41:02.912702820+00:00,0,0
2023-12-20T06:41:02.926462530+00:00,0,1
2023-12-20T06:41:02.926462980+00:00,0,0
2023-12-20T06:41:03.212651910+00:00,1,0
2023-12-20T06:41:03.212701920+00:00,0,0
2023-12-20T06:41:03.227731560+00:00,0,1
2023-12-20T06:41:03.227732020+00:00,0,0
2023-12-20T06:41:03.512651010+00:00,1,0
2023-12-20T06:41:03.512701030+00:00,0,0
2023-12-20T06:41:03.523987630+00:00,0,1
2023-12-20T06:41:03.523988090+00:00,0,0
2023-12-20T06:41:03.812650120+00:00,1,0
2023-12-20T06:41:03.812700140+00:00,0,0
2023-12-20T06:41:03.827264660+00:00,0,1
2023-12-20T06:41:03.827265110+00:00,0,0
2023-12-20T06:41:04.112649230+00:00,1,0
2023-12-20T06:41:04.112699240+00:00,0,0
2023-12-20T06:41:04.126340550+00:00,0,1
2023-12-20T06:41:04.126341000+00:00,0,0
2023-12-20T06:41:04.412648330+00:00,1,0
2023-12-20T06:41:04.412698350+00:00,0,0
2023-12-20T06:41:04.419182520+00:00,0,1
2023-12-20T06:41:04.419182970+00:00,0,0
2023-12-20T06:41:04.712647440+00:00,1,0
2023-12-20T06:41:04.712697460+00:00,0,0
2023-12-20T06:41:04.725340200+00:00,0,1
2023-12-20T06:41:04.725340650+00:00,0,0
2023-12-20T06:41:05.012646550+00:00,1,0
2023-12-20T06:41:05.012696560+00:00,0,0
2023-12-20T06:41:05.026654730+00:00,0,1
2023-12-20T06:41:05.026663160+00:00,0,0
2023-12-20T06:41:05.312645650+00:00,1,0
2023-12-20T06:41:05.312695670+00:00,0,0
2023-12-20T06:41:05.324454520+00:00,0,1
2023-12-20T06:41:05.324454970+00:00,0,0
2023-12-20T06:41:05.612644760+00:00,1,0
2023-12-20T06:41:05.612694780+00:00,0,0
2023-12-20T06:41:05.628006260+00:00,0,1
2023-12-20T06:41:05.628006710+00:00,0,0
2023-12-20T06:41:05.912643870+00:00,1,0
2023-12-20T06:41:05.912693880+00:00,0,0
2023-12-20T06:41:05.923817590+00:00,0,1
2023-12-20T06:41:05.923818040+00:00,0,0
2023-12-20T06:41:06.212642970+00:00,1,0
2023-12-20T06:41:06.212692990+00:00,0,0
2023-12-20T06:41:06.224162810+00:00,0,1
2023-12-20T06:41:06.224163260+00:00,0,0
2023-12-20T06:41:06.512642080+00:00,1,0
2023-12-20T06:41:06.512692090+00:00,0,0
2023-12-20T06:41:06.525572120+00:00,0,1
2023-12-20T06:41:06.525572570+00:00,0,0
2023-12-20T06:41:06.812641180+00:00,1,0
2023-12-20T06:41:06.812691200+00:00,0,0
2023-12-20T06:41:06.826088080+00:00,0,1
2023-12-20T06:41:06.826088530+00:00,0,0
2023-12-20T06:41:07.112640290+00:00,1,0
2023-12-20T06:41:07.112690310+00:00,0,0
2023-12-20T06:41:07.124277060+00:00,0,1
2023-12-20T06:41:07.124277510+00:00,0,0
2023-12-20T06:41:07.412639400+00:00,1,0
2023-12-20T06:41:07.412689410+00:00,0,0
2023-12-20T06:41:07.425924840+00:00,0,1
2023-12-20T06:41:07.425925290+00:00,0,0
2023-12-20T06:41:07.712638500+00:00,1,0
2023-12-20T06:41:07.712688520+00:00,0,0
2023-12-20T06:41:07.737211730+00:00,0,1
2023-12-20T06:41:07.737212180+00:00,0,0
2023-12-20T06:41:08.012637610+00:00,1,0
2023-12-20T06:41:08.012687620+00:00,0,0
2023-12-20T06:41:08.024771230+00:00,0,1
2023-12-20T06:41:08.024771680+00:00,0,0
2023-12-20T06:41:08.312636710+00:00,1,0
2023-12-20T06:41:08.312686730+00:00,0,0
2023-12-20T06:41:08.324092100+00:00,0,1
2023-12-20T06:41:08.324092560+00:00,0,0
2023-12-20T06:41:08.612635820+00:00,1,0
2023-12-20T06:41:08.612685830+00:00,0,0
2023-12-20T06:41:08.625673320+00:00,0,1
2023-12-20T06:41:08.625673770+00:00,0,0
2023-12-20T06:41:08.912634920+00:00,1,0
2023-12-20T06:41:08.912684940+00:00,0,0
2023-12-20T06:41:08.926093790+00:00,0,1
2023-12-20T06:41:08.926094240+00:00,0,0
2023-12-20T06:41:09.212634030+00:00,1,0
2023-12-20T06:41:09.212684040+00:00,0,0
2023-12-20T06:41:09.223837260+00:00,0,1
2023-12-20T06:41:09.223837720+00:00,0,0
2023-12-20T06:41:09.512633130+00:00,1,0
2023-12-20T06:41:09.512683150+00:00,0,0
2023-12-20T06:41:09.524081510+00:00,0,1
2023-12-20T06:41:09.524081960+00:00,0,0
2023-12-20T06:41:09.812632240+00:00,1,0
2023-12-20T06:41:09.812682250+00:00,0,0
2023-12-20T06:41:09.824168410+00:00,0,1
2023-12-20T06:41:09.824168870+00:00,0,0
2023-12-20T06:41:10.112631340+00:00,1,0
2023-12-20T06:41:10.112681360+00:00,0,0
2023-12-20T06:41:10.125671250+00:00,0,1
2023-12-20T06:41:10.125671710+00:00,0,0
2023-12-20T06:41:10.412630450+00:00,1,0
2023-12-20T06:41:10.412680460+00:00,0,0
2023-12-20T06:41:10.431148020+00:00,0,1
2023-12-20T06:41:10.431148470+00:00,0,0
2023-12-20T06:41:10.712629550+00:00,1,0
2023-12-20T06:41:10.712679570+00:00,0,0
2023-12-20T06:41:10.725485600+00:00,0,1
2023-12-20T06:41:10.725486050+00:00,0,0
2023-12-20T06:41:11.012628660+00:00,1,0
2023-12-20T06:41:11.012678670+00:00,0,0
2023-12-20T06:41:11.026009000+00:00,0,1
2023-12-20T06:41:11.026009450+00:00,0,0
2023-12-20T06:41:11.312627760+00:00,1,0
2023-12-20T06:41:11.312677780+00:00,0,0
2023-12-20T06:41:11.325521030+00:00,0,1
2023-12-20T06:41:11.325521490+00:00,0,0
2023-12-20T06:41:11.612626870+00:00,1,0
2023-12-20T06:41:11.612676880+00:00,0,0
2023-12-20T06:41:11.628472210+00:00,0,1
2023-12-20T06:41:11.628472660+00:00,0,0
2023-12-20T06:41:11.912625970+00:00,1,0
2023-12-20T06:41:11.912675990+00:00,0,0
2023-12-20T06:41:11.932192560+00:00,0,1
2023-12-20T06:41:11.932193020+00:00,0,0
2023-12-20T06:41:12.212625080+00:00,1,0
2023-12-20T06:41:12.212675090+00:00,0,0
2023-12-20T06:41:12.224111550+00:00,0,1
2023-12-20T06:41:12.224112010+00:00,0,0
2023-12-20T06:41:12.512624180+00:00,1,0
2023-12-20T06:41:12.512674200+00:00,0,0
2023-12-20T06:41:12.527349120+00:00,0,1
2023-12-20T06:41:12.527349570+00:00,0,0
2023-12-20T06:41:12.812623290+00:00,1,0
2023-12-20T06:41:12.812673300+00:00,0,0
2023-12-20T06:41:12.835499230+00:00,0,1
2023-12-20T06:41:12.835499680+00:00,0,0
2023-12-20T06:41:13.112622390+00:00,1,0
2023-12-20T06:41:13.112672410+00:00,0,0
2023-12-20T06:41:13.126159240+00:00,0,1
2023-12-20T06:41:13.126159700+00:00,0,0
2023-12-20T06:41:13.412621490+00:00,1,0
2023-12-20T06:41:13.412671510+00:00,0,0
2023-12-20T06:41:13.425373480+00:00,0,1
2023-12-20T06:41:13.425373940+00:00,0,0
2023-12-20T06:41:13.712620600+00:00,1,0
2023-12-20T06:41:13.712670620+00:00,0,0
2023-12-20T06:41:13.728248010+00:00,0,1
2023-12-20T06:41:13.728248460+00:00,0,0
2023-12-20T06:41:14.012619700+00:00,1,0
2023-12-20T06:41:14.012669720+00:00,0,0
2023-12-20T06:41:14.024982170+00:00,0,1
2023-12-20T06:41:14.024982620+00:00,0,0
2023-12-20T06:41:14.312618810+00:00,1,0
2023-12-20T06:41:14.312668820+00:00,0,0
2023-12-20T06:41:14.324091930+00:00,0,1
2023-12-20T06:41:14.324092380+00:00,0,0
2023-12-20T06:41:14.612617910+00:00,1,0
2023-12-20T06:41:14.612667930+00:00,0,0
2023-12-20T06:41:14.626084320+00:00,0,1
2023-12-20T06:41:14.626084780+00:00,0,0
2023-12-20T06:41:14.912617020+00:00,1,0
2023-12-20T06:41:14.912667030+00:00,0,0
2023-12-20T06:41:14.924494640+00:00,0,1
2023-12-20T06:41:14.924495100+00:00,0,0
2023-12-20T06:41:15.212616120+00:00,1,0
2023-12-20T06:41:15.212666140+00:00,0,0
2023-12-20T06:41:15.225627970+00:00,0,1
2023-12-20T06:41:15.225628420+00:00,0,0
2023-12-20T06:41:15.512615220+00:00,1,0
2023-12-20T06:41:15.512665240+00:00,0,0
2023-12-20T06:41:15.525230700+00:00,0,1
2023-12-20T06:41:15.525231150+00:00,0,0
2023-12-20T06:41:15.812614330+00:00,1,0
2023-12-20T06:41:15.812664340+00:00,0,0
2023-12-20T06:41:15.826763900+00:00,0,1
2023-12-20T06:41:15.826764350+00:00,0,0
2023-12-20T06:41:16.112613430+00:00,1,0
2023-12-20T06:41:16.112663450+00:00,0,0
2023-12-20T06:41:16.130240320+00:00,0,1
2023-12-20T06:41:16.130240770+00:00,0,0
2023-12-20T06:41:16.412612540+00:00,1,0
2023-12-20T06:41:16.412662550+00:00,0,0
2023-12-20T06:41:16.424937020+00:00,0,1
2023-12-20T06:41:16.424937480+00:00,0,0
2023-12-20T06:41:16.712611640+00:00,1,0
2023-12-20T06:41:16.712661660+00:00,0,0
2023-12-20T06:41:16.725894300+00:00,0,1
2023-12-20T06:41:16.725894750+00:00,0,0
2023-12-20T06:41:17.012610740+00:00,1,0
2023-12-20T06:41:17.012660760+00:00,0,0
