Time [s],Channel 0,Channel 1
2023-12-20T01:16:09.026318000+00:00,0,0
2023-12-20T01:16:09.123298540+00:00,1,0
2023-12-20T01:16:09.123348550+00:00,0,0
2023-12-20T01:16:09.187510400+00:00,0,1
2023-12-20T01:16:09.187518810+00:00,0,0
2023-12-20T01:16:09.523297420+00:00,1,0
2023-12-20T01:16:09.523347430+00:00,0,0
2023-12-20T01:16:09.597500410+00:00,0,1
2023-12-20T01:16:09.597508820+00:00,0,0
2023-12-20T01:16:09.923296300+00:00,1,0
2023-12-20T01:16:09.923346320+00:00,0,0
2023-12-20T01:16:09.997601510+00:00,0,1
2023-12-20T01:16:09.997609920+00:00,0,0
2023-12-20T01:16:10.323295180+00:00,1,0
2023-12-20T01:16:10.323345200+00:00,0,0
2023-12-20T01:16:10.407591360+00:00,0,1
2023-12-20T01:16:10.407599760+00:00,0,0
2023-12-20T01:16:10.723294060+00:00,1,0
2023-12-20T01:16:10.723344080+00:00,0,0
2023-12-20T01:16:10.817597210+00:00,0,1
2023-12-20T01:16:10.817605610+00:00,0,0
2023-12-20T01:16:11.123292940+00:00,1,0
2023-12-20T01:16:11.123342960+00:00,0,0
2023-12-20T01:16:11.227567140+00:00,0,1
2023-12-20T01:16:11.227575550+00:00,0,0
2023-12-20T01:16:11.523291820+00:00,1,0
2023-12-20T01:16:11.523341840+00:00,0,0
2023-12-20T01:16:11.637557020+00:00,0,1
2023-12-20T01:16:11.637565420+00:00,0,0
2023-12-20T01:16:11.923290710+00:00,1,0
2023-12-20T01:16:11.923340720+00:00,0,0
2023-12-20T01:16:12.057523310+00:00,0,1
2023-12-20T01:16:12.057531710+00:00,0,0
2023-12-20T01:16:12.323289590+00:00,1,0
2023-12-20T01:16:12.323339600+00:00,0,0
2023-12-20T01:16:12.357564240+00:00,0,1
2023-12-20T01:16:12.357572640+00:00,0,0
2023-12-20T01:16:12.723288470+00:00,1,0
2023-12-20T01:16:12.723338480+00:00,0,0
2023-12-20T01:16:12.767558120+00:00,0,1
2023-12-20T01:16:12.767566530+00:00,0,0
2023-12-20T01:16:13.123287350+00:00,1,0
2023-12-20T01:16:13.123337360+00:00,0,0
2023-12-20T01:16:13.177563880+00:00,0,1
2023-12-20T01:16:13.177572290+00:00,0,0
2023-12-20T01:16:13.523286230+00:00,1,0
2023-12-20T01:16:13.523336250+00:00,0,0
2023-12-20T01:16:13.587565780+00:00,0,1
2023-12-20T01:16:13.587574190+00:00,0,0
2023-12-20T01:16:13.923285110+00:00,1,0
2023-12-20T01:16:13.923335130+00:00,0,0
2023-12-20T01:16:13.997559630+00:00,0,1
2023-12-20T01:16:13.997568030+00:00,0,0
2023-12-20T01:16:14.323283990+00:00,1,0
2023-12-20T01:16:14.323334010+00:00,0,0
2023-12-20T01:16:14.407565450+00:00,0,1
2023-12-20T01:16:14.407573850+00:00,0,0
2023-12-20T01:16:14.723282870+00:00,1,0
2023-12-20T01:16:14.723332890+00:00,0,0
2023-12-20T01:16:14.817547620+00:00,0,1
2023-12-20T01:16:14.817556030+00:00,0,0
2023-12-20T01:16:15.123281750+00:00,1,0
2023-12-20T01:16:15.123331770+00:00,0,0
2023-12-20T01:16:15.227553280+00:00,0,1
2023-12-20T01:16:15.227561690+00:00,0,0
2023-12-20T01:16:15.523280630+00:00,1,0
2023-12-20T01:16:15.523330650+00:00,0,0
2023-12-20T01:16:15.637527320+00:00,0,1
2023-12-20T01:16:15.637535720+00:00,0,0
2023-12-20T01:16:15.923279510+00:00,1,0
2023-12-20T01:16:15.923329530+00:00,0,0
2023-12-20T01:16:16.047537210+00:00,0,1
2023-12-20T01:16:16.047545620+00:00,0,0
2023-12-20T01:16:16.323278390+00:00,1,0
2023-12-20T01:16:16.323328410+00:00,0,0
2023-12-20T01:16:16.448256250+00:00,0,1
2023-12-20T01:16:16.448256700+00:00,0,0
2023-12-20T01:16:16.723277270+00:00,1,0
2023-12-20T01:16:16.723327290+00:00,0,0
2023-12-20T01:16:16.757579970+00:00,0,1
2023-12-20T01:16:16.757588370+00:00,0,0
2023-12-20T01:16:17.123276150+00:00,1,0
2023-12-20T01:16:17.123326170+00:00,0,0
2023-12-20T01:16:17.177566190+00:00,0,1
2023-12-20T01:16:17.177574590+00:00,0,0
2023-12-20T01:16:17.523275030+00:00,1,0
2023-12-20T01:16:17.523325050+00:00,0,0
2023-12-20T01:16:17.578975950+00:00,0,1
2023-12-20T01:16:17.578984350+00:00,0,0
2023-12-20T01:16:17.923273910+00:00,1,0
2023-12-20T01:16:17.923323930+00:00,0,0
2023-12-20T01:16:17.987565490+00:00,0,1
2023-12-20T01:16:17.987573890+00:00,0,0
2023-12-20T01:16:18.323272790+00:00,1,0
2023-12-20T01:16:18.323322800+00:00,0,0
2023-12-20T01:16:18.397583260+00:00,0,1
2023-12-20T01:16:18.397591660+00:00,0,0
2023-12-20T01:16:18.723271670+00:00,1,0
2023-12-20T01:16:18.723321680+00:00,0,0
2023-12-20T01:16:18.807597060+00:00,0,1
2023-12-20T01:16:18.807605460+00:00,0,0
2023-12-20T01:16:19.123270550+00:00,1,0
2023-12-20T01:16:19.123320560+00:00,0,0
2023-12-20T01:16:19.317591490+00:00,0,1
2023-12-20T01:16:19.317599890+00:00,0,0
2023-12-20T01:16:19.523269430+00:00,1,0
2023-12-20T01:16:19.523319440+00:00,0,0
2023-12-20T01:16:19.627592770+00:00,0,1
2023-12-20T01:16:19.627601170+00:00,0,0
2023-12-20T01:16:19.923268300+00:00,1,0
2023-12-20T01:16:19.923318320+00:00,0,0
2023-12-20T01:16:20.037598600+00:00,0,1
2023-12-20T01:16:20.037607000+00:00,0,0
2023-12-20T01:16:20.323267180+00:00,1,0
2023-12-20T01:16:20.323317200+00:00,0,0
2023-12-20T01:16:20.447592490+00:00,0,1
2023-12-20T01:16:20.447600890+00:00,0,0
2023-12-20T01:16:20.723266060+00:00,1,0
2023-12-20T01:16:20.723316070+00:00,0,0
2023-12-20T01:16:20.757554220+00:00,0,1
2023-12-20T01:16:20.757562630+00:00,0,0
2023-12-20T01:16:21.123264940+00:00,1,0
2023-12-20T01:16:21.123314950+00:00,0,0
2023-12-20T01:16:21.167575910+00:00,0,1
2023-12-20T01:16:21.167584310+00:00,0,0
2023-12-20T01:16:21.523263810+00:00,1,0
2023-12-20T01:16:21.523313830+00:00,0,0
2023-12-20T01:16:21.578974160+00:00,0,1
2023-12-20T01:16:21.578982570+00:00,0,0
2023-12-20T01:16:21.923262690+00:00,1,0
2023-12-20T01:16:21.923312710+00:00,0,0
2023-12-20T01:16:21.987484210+00:00,0,1
2023-12-20T01:16:21.987492610+00:00,0,0
2023-12-20T01:16:22.323261570+00:00,1,0
2023-12-20T01:16:22.323311580+00:00,0,0
2023-12-20T01:16:22.387957160+00:00,0,1
2023-12-20T01:16:22.387957610+00:00,0,0
2023-12-20T01:16:22.723260440+00:00,1,0
2023-12-20T01:16:22.723310460+00:00,0,0
2023-12-20T01:16:22.807563400+00:00,0,1
2023-12-20T01:16:22.807571810+00:00,0,0
2023-12-20T01:16:23.123259320+00:00,1,0
2023-12-20T01:16:23.123309340+00:00,0,0
2023-12-20T01:16:23.207660600+00:00,0,1
2023-12-20T01:16:23.207669000+00:00,0,0
2023-12-20T01:16:23.523258200+00:00,1,0
2023-12-20T01:16:23.523308210+00:00,0,0
2023-12-20T01:16:23.617638430+00:00,0,1
2023-12-20T01:16:23.617646840+00:00,0,0
2023-12-20T01:16:23.923257070+00:00,1,0
2023-12-20T01:16:23.923307090+00:00,0,0
2023-12-20T01:16:24.037580880+00:00,0,1
2023-12-20T01:16:24.037589280+00:00,0,0
2023-12-20T01:16:24.323255950+00:00,1,0
2023-12-20T01:16:24.323305960+00:00,0,0
2023-12-20T01:16:24.437610360+00:00,0,1
2023-12-20T01:16:24.437618760+00:00,0,0
2023-12-20T01:16:24.723254820+00:00,1,0
2023-12-20T01:16:24.723304840+00:00,0,0
2023-12-20T01:16:24.847628230+00:00,0,1
2023-12-20T01:16:24.847636640+00:00,0,0
2023-12-20T01:16:25.123253700+00:00,1,0
2023-12-20T01:16:25.123303710+00:00,0,0
2023-12-20T01:16:25.267586400+00:00,0,1
2023-12-20T01:16:25.267594800+00:00,0,0
2023-12-20T01:16:25.523252570+00:00,1,0
2023-12-20T01:16:25.523302590+00:00,0,0
2023-12-20T01:16:25.567619490+00:00,0,1
2023-12-20T01:16:25.567627900+00:00,0,0
2023-12-20T01:16:25.923251450+00:00,1,0
2023-12-20T01:16:25.923301470+00:00,0,0
2023-12-20T01:16:25.977613230+00:00,0,1
2023-12-20T01:16:25.977621640+00:00,0,0
2023-12-20T01:16:26.323250330+00:00,1,0
2023-12-20T01:16:26.323300340+00:00,0,0
2023-12-20T01:16:26.387623060+00:00,0,1
2023-12-20T01:16:26.387631460+00:00,0,0
2023-12-20T01:16:26.723249200+00:00,1,0
2023-12-20T01:16:26.723299220+00:00,0,0
2023-12-20T01:16:26.797624890+00:00,0,1
2023-12-20T01:16:26.797633300+00:00,0,0
2023-12-20T01:16:27.123248080+00:00,1,0
2023-12-20T01:16:27.123298090+00:00,0,0
2023-12-20T01:16:27.207634630+00:00,0,1
2023-12-20T01:16:27.207643030+00:00,0,0
2023-12-20T01:16:27.523246950+00:00,1,0
2023-12-20T01:16:27.523296970+00:00,0,0
2023-12-20T01:16:27.617588930+00:00,0,1
2023-12-20T01:16:27.617597330+00:00,0,0
2023-12-20T01:16:27.923245830+00:00,1,0
2023-12-20T01:16:27.923295840+00:00,0,0
2023-12-20T01:16:28.027582800+00:00,0,1
2023-12-20T01:16:28.027591210+00:00,0,0
2023-12-20T01:16:28.323244700+00:00,1,0
2023-12-20T01:16:28.323294710+00:00,0,0
2023-12-20T01:16:28.437576690+00:00,0,1
2023-12-20T01:16:28.437585090+00:00,0,0
2023-12-20T01:16:28.723243570+00:00,1,0
2023-12-20T01:16:28.723293590+00:00,0,0
2023-12-20T01:16:28.847590590+00:00,0,1
2023-12-20T01:16:28.847598990+00:00,0,0
2023-12-20T01:16:29.123242450+00:00,1,0
2023-12-20T01:16:29.123292460+00:00,0,0
2023-12-20T01:16:29.257608130+00:00,0,1
2023-12-20T01:16:29.257616530+00:00,0,0
2023-12-20T01:16:29.523241320+00:00,1,0
2023-12-20T01:16:29.523291340+00:00,0,0
2023-12-20T01:16:29.557633240+00:00,0,1
2023-12-20T01:16:29.557641650+00:00,0,0
2023-12-20T01:16:29.923240200+00:00,1,0
2023-12-20T01:16:29.923290210+00:00,0,0
2023-12-20T01:16:29.967878610+00:00,0,1
2023-12-20T01:16:29.967887010+00:00,0,0
2023-12-20T01:16:30.323239070+00:00,1,0
2023-12-20T01:16:30.323289080+00:00,0,0
2023-12-20T01:16:30.377644920+00:00,0,1
2023-12-20T01:16:30.377653320+00:00,0,0
2023-12-20T01:16:30.723237940+00:00,1,0
2023-12-20T01:16:30.723287960+00:00,0,0
2023-12-20T01:16:30.787638740+00:00,0,1
2023-12-20T01:16:30.787647140+00:00,0,0
2023-12-20T01:16:31.123236820+00:00,1,0
2023-12-20T01:16:31.123286830+00:00,0,0
2023-12-20T01:16:31.197829970+00:00,0,1
2023-12-20T01:16:31.197838370+00:00,0,0
2023-12-20T01:16:31.523235690+00:00,1,0
2023-12-20T01:16:31.523285710+00:00,0,0
2023-12-20T01:16:31.607646440+00:00,0,1
2023-12-20T01:16:31.607654840+00:00,0,0
2023-12-20T01:16:31.923234560+00:00,1,0
2023-12-20T01:16:31.923284580+00:00,0,0
2023-12-20T01:16:32.017656290+00:00,0,1
2023-12-20T01:16:32.017664690+00:00,0,0
2023-12-20T01:16:32.323233440+00:00,1,0
2023-12-20T01:16:32.323283450+00:00,0,0
2023-12-20T01:16:32.427642150+00:00,0,1
2023-12-20T01:16:32.427650560+00:00,0,0
2023-12-20T01:16:32.723232310+00:00,1,0
2023-12-20T01:16:32.723282320+00:00,0,0
2023-12-20T01:16:32.837611740+00:00,0,1
2023-12-20T01:16:32.837612190+00:00,0,0
2023-12-20T01:16:33.123231180+00:00,1,0
2023-12-20T01:16:33.123281200+00:00,0,0
2023-12-20T01:16:33.247665750+00:00,0,1
2023-12-20T01:16:33.247674160+00:00,0,0
2023-12-20T01:16:33.523230050+00:00,1,0
2023-12-20T01:16:33.523280070+00:00,0,0
2023-12-20T01:16:33.557607460+00:00,0,1
2023-12-20T01:16:33.557615870+00:00,0,0
2023-12-20T01:16:33.923228930+00:00,1,0
2023-12-20T01:16:33.923278940+00:00,0,0
2023-12-20T01:16:33.967860830+00:00,0,1
2023-12-20T01:16:33.967869230+00:00,0,0
2023-12-20T01:16:34.323227800+00:00,1,0
2023-12-20T01:16:34.323277810+00:00,0,0
2023-12-20T01:16:34.377615270+00:00,0,1
2023-12-20T01:16:34.377623670+00:00,0,0
2023-12-20T01:16:34.723226670+00:00,1,0
2023-12-20T01:16:34.723276690+00:00,0,0
2023-12-20T01:16:34.787617080+00:00,0,1
2023-12-20T01:16:34.787625480+00:00,0,0
2023-12-20T01:16:35.123225550+00:00,1,0
2023-12-20T01:16:35.123275560+00:00,0,0
2023-12-20T01:16:35.187714320+00:00,0,1
2023-12-20T01:16:35.187722730+00:00,0,0
2023-12-20T01:16:35.523224420+00:00,1,0
2023-12-20T01:16:35.523274430+00:00,0,0
2023-12-20T01:16:35.607624780+00:00,0,1
2023-12-20T01:16:35.607633180+00:00,0,0
2023-12-20T01:16:35.923223290+00:00,1,0
2023-12-20T01:16:35.923273300+00:00,0,0
2023-12-20T01:16:36.007709960+00:00,0,1
2023-12-20T01:16:36.007718360+00:00,0,0
2023-12-20T01:16:36.323222160+00:00,1,0
2023-12-20T01:16:36.323272180+00:00,0,0
2023-12-20T01:16:36.417664050+00:00,0,1
2023-12-20T01:16:36.417672450+00:00,0,0
2023-12-20T01:16:36.723221030+00:00,1,0
2023-12-20T01:16:36.723271050+00:00,0,0
2023-12-20T01:16:36.829191750+00:00,0,1
2023-12-20T01:16:36.829200150+00:00,0,0
2023-12-20T01:16:37.123219900+00:00,1,0
2023-12-20T01:16:37.123269920+00:00,0,0
2023-12-20T01:16:37.237663660+00:00,0,1
2023-12-20T01:16:37.237672070+00:00,0,0
2023-12-20T01:16:37.523218780+00:00,1,0
2023-12-20T01:16:37.523268790+00:00,0,0
2023-12-20T01:16:37.647665550+00:00,0,1
2023-12-20T01:16:37.647673960+00:00,0,0
2023-12-20T01:16:37.923217650+00:00,1,0
2023-12-20T01:16:37.923267660+00:00,0,0
2023-12-20T01:16:37.957694880+00:00,0,1
2023-12-20T01:16:37.957703280+00:00,0,0
2023-12-20T01:16:38.323216520+00:00,1,0
2023-12-20T01:16:38.323266530+00:00,0,0
2023-12-20T01:16:38.367696630+00:00,0,1
2023-12-20T01:16:38.367705040+00:00,0,0
2023-12-20T01:16:38.723215390+00:00,1,0
2023-12-20T01:16:38.723265410+00:00,0,0
2023-12-20T01:16:38.777686560+00:00,0,1
2023-12-20T01:16:38.777694960+00:00,0,0
2023-12-20T01:16:39.123214260+00:00,1,0
2023-12-20T01:16:39.123264280+00:00,0,0
2023-12-20T01:16:39.187700260+00:00,0,1
2023-12-20T01:16:39.187708660+00:00,0,0
2023-12-20T01:16:39.523213130+00:00,1,0
2023-12-20T01:16:39.523263150+00:00,0,0
2023-12-20T01:16:39.597678290+00:00,0,1
2023-12-20T01:16:39.597686690+00:00,0,0
2023-12-20T01:16:39.923212000+00:00,1,0
2023-12-20T01:16:39.923262020+00:00,0,0
2023-12-20T01:16:40.007684150+00:00,0,1
2023-12-20T01:16:40.007692550+00:00,0,0
2023-12-20T01:16:40.323210880+00:00,1,0
2023-12-20T01:16:40.323260890+00:00,0,0
2023-12-20T01:16:40.417642350+00:00,0,1
2023-12-20T01:16:40.417650750+00:00,0,0
2023-12-20T01:16:40.723209750+00:00,1,0
2023-12-20T01:16:40.723259760+00:00,0,0
2023-12-20T01:16:40.829197760+00:00,0,1
2023-12-20T01:16:40.829206160+00:00,0,0
2023-12-20T01:16:41.123208620+00:00,1,0
2023-12-20T01:16:41.123258630+00:00,0,0
2023-12-20T01:16:41.237657820+00:00,0,1
2023-12-20T01:16:41.237666220+00:00,0,0
2023-12-20T01:16:41.523207490+00:00,1,0
2023-12-20T01:16:41.523257500+00:00,0,0
2023-12-20T01:16:41.647647930+00:00,0,1
2023-12-20T01:16:41.647656330+00:00,0,0
2023-12-20T01:16:41.923206360+00:00,1,0
2023-12-20T01:16:41.923256370+00:00,0,0
2023-12-20T01:16:42.048271140+00:00,0,1
2023-12-20T01:16:42.048271590+00:00,0,0
2023-12-20T01:16:42.323205230+00:00,1,0
2023-12-20T01:16:42.323255240+00:00,0,0
2023-12-20T01:16:42.357698590+00:00,0,1
2023-12-20T01:16:42.357706990+00:00,0,0
2023-12-20T01:16:42.723204100+00:00,1,0
2023-12-20T01:16:42.723254110+00:00,0,0
2023-12-20T01:16:42.767708480+00:00,0,1
2023-12-20T01:16:42.767716880+00:00,0,0
2023-12-20T01:16:43.123202970+00:00,1,0
2023-12-20T01:16:43.123252980+00:00,0,0
2023-12-20T01:16:43.177698320+00:00,0,1
2023-12-20T01:16:43.177706720+00:00,0,0
2023-12-20T01:16:43.523201840+00:00,1,0
2023-12-20T01:16:43.523251860+00:00,0,0
2023-12-20T01:16:43.587696180+00:00,0,1
2023-12-20T01:16:43.587704590+00:00,0,0
2023-12-20T01:16:43.923200710+00:00,1,0
2023-12-20T01:16:43.923250730+00:00,0,0
2023-12-20T01:16:44.007614790+00:00,0,1
2023-12-20T01:16:44.007623190+00:00,0,0
2023-12-20T01:16:44.323199580+00:00,1,0
2023-12-20T01:16:44.323249600+00:00,0,0
2023-12-20T01:16:44.407699870+00:00,0,1
2023-12-20T01:16:44.407708280+00:00,0,0
2023-12-20T01:16:44.723198450+00:00,1,0
2023-12-20T01:16:44.723248460+00:00,0,0
2023-12-20T01:16:44.829184090+00:00,0,1
2023-12-20T01:16:44.829192490+00:00,0,0
2023-12-20T01:16:45.123197320+00:00,1,0
2023-12-20T01:16:45.123247330+00:00,0,0
2023-12-20T01:16:45.228929760+00:00,0,1
2023-12-20T01:16:45.228938160+00:00,0,0
2023-12-20T01:16:45.523196190+00:00,1,0
2023-12-20T01:16:45.523246200+00:00,0,0
2023-12-20T01:16:45.637709330+00:00,0,1
2023-12-20T01:16:45.637717730+00:00,0,0
2023-12-20T01:16:45.923195060+00:00,1,0
2023-12-20T01:16:45.923245070+00:00,0,0
2023-12-20T01:16:46.047712060+00:00,0,1
2023-12-20T01:16:46.047720470+00:00,0,0
2023-12-20T01:16:46.323193930+00:00,1,0
2023-12-20T01:16:46.323243940+00:00,0,0
2023-12-20T01:16:46.357684770+00:00,0,1
2023-12-20T01:16:46.357693170+00:00,0,0
2023-12-20T01:16:46.723192800+00:00,1,0
2023-12-20T01:16:46.723242810+00:00,0,0
2023-12-20T01:16:46.767670830+00:00,0,1
2023-12-20T01:16:46.767679240+00:00,0,0
2023-12-20T01:16:47.123191670+00:00,1,0
2023-12-20T01:16:47.123241680+00:00,0,0
2023-12-20T01:16:47.168337390+00:00,0,1
2023-12-20T01:16:47.168337850+00:00,0,0
2023-12-20T01:16:47.523190540+00:00,1,0
2023-12-20T01:16:47.523240550+00:00,0,0
2023-12-20T01:16:47.580424070+00:00,0,1
2023-12-20T01:16:47.580432470+00:00,0,0
2023-12-20T01:16:47.923189400+00:00,1,0
2023-12-20T01:16:47.923239420+00:00,0,0
2023-12-20T01:16:47.997620810+00:00,0,1
2023-12-20T01:16:47.997629220+00:00,0,0
2023-12-20T01:16:48.323188270+00:00,1,0
2023-12-20T01:16:48.323238290+00:00,0,0
2023-12-20T01:16:48.397761580+00:00,0,1
2023-12-20T01:16:48.397769980+00:00,0,0
2023-12-20T01:16:48.723187140+00:00,1,0
2023-12-20T01:16:48.723237160+00:00,0,0
2023-12-20T01:16:48.807767360+00:00,0,1
2023-12-20T01:16:48.807775760+00:00,0,0
2023-12-20T01:16:49.123186010+00:00,1,0
2023-12-20T01:16:49.123236030+00:00,0,0
2023-12-20T01:16:49.217749350+00:00,0,1
2023-12-20T01:16:49.217757750+00:00,0,0
2023-12-20T01:16:49.523184880+00:00,1,0
2023-12-20T01:16:49.523234900+00:00,0,0
2023-12-20T01:16:49.627727230+00:00,0,1
2023-12-20T01:16:49.627735640+00:00,0,0
2023-12-20T01:16:49.923183750+00:00,1,0
2023-12-20T01:16:49.923233760+00:00,0,0
2023-12-20T01:16:50.037752990+00:00,0,1
2023-12-20T01:16:50.037761390+00:00,0,0
2023-12-20T01:16:50.323182620+00:00,1,0
2023-12-20T01:16:50.323232630+00:00,0,0
2023-12-20T01:16:50.447730960+00:00,0,1
2023-12-20T01:16:50.447739370+00:00,0,0
2023-12-20T01:16:50.723181490+00:00,1,0
2023-12-20T01:16:50.723231500+00:00,0,0
2023-12-20T01:16:50.757756200+00:00,0,1
2023-12-20T01:16:50.757764610+00:00,0,0
2023-12-20T01:16:51.123180350+00:00,1,0
2023-12-20T01:16:51.123230370+00:00,0,0
2023-12-20T01:16:51.167734220+00:00,0,1
2023-12-20T01:16:51.167742620+00:00,0,0
2023-12-20T01:16:51.523179220+00:00,1,0
2023-12-20T01:16:51.523229240+00:00,0,0
2023-12-20T01:16:51.579128440+00:00,0,1
2023-12-20T01:16:51.579136840+00:00,0,0
2023-12-20T01:16:51.923178090+00:00,1,0
2023-12-20T01:16:51.923228110+00:00,0,0
2023-12-20T01:16:51.987725870+00:00,0,1
2023-12-20T01:16:51.987734270+00:00,0,0
2023-12-20T01:16:52.323176960+00:00,1,0
2023-12-20T01:16:52.323226980+00:00,0,0
2023-12-20T01:16:52.397739680+00:00,0,1
2023-12-20T01:16:52.397748080+00:00,0,0
2023-12-20T01:16:52.723175830+00:00,1,0
2023-12-20T01:16:52.723225840+00:00,0,0
2023-12-20T01:16:52.807737490+00:00,0,1
2023-12-20T01:16:52.807745900+00:00,0,0
2023-12-20T01:16:53.123174690+00:00,1,0
2023-12-20T01:16:53.123224710+00:00,0,0
2023-12-20T01:16:53.217723580+00:00,0,1
2023-12-20T01:16:53.217731990+00:00,0,0
2023-12-20T01:16:53.523173560+00:00,1,0
2023-12-20T01:16:53.523223580+00:00,0,0
2023-12-20T01:16:53.627705580+00:00,0,1
2023-12-20T01:16:53.627713980+00:00,0,0
2023-12-20T01:16:53.923172430+00:00,1,0
2023-12-20T01:16:53.923222450+00:00,0,0
2023-12-20T01:16:54.037723210+00:00,0,1
2023-12-20T01:16:54.037731610+00:00,0,0
2023-12-20T01:16:54.323171300+00:00,1,0
2023-12-20T01:16:54.323221310+00:00,0,0
2023-12-20T01:16:54.447702160+00:00,0,1
2023-12-20T01:16:54.447710560+00:00,0,0
2023-12-20T01:16:54.723170160+00:00,1,0
2023-12-20T01:16:54.723220180+00:00,0,0
2023-12-20T01:16:54.857707950+00:00,0,1
2023-12-20T01:16:54.857716350+00:00,0,0
2023-12-20T01:16:55.123169030+00:00,1,0
2023-12-20T01:16:55.123219050+00:00,0,0
2023-12-20T01:16:55.267725650+00:00,0,1
2023-12-20T01:16:55.267734050+00:00,0,0
2023-12-20T01:16:55.523167900+00:00,1,0
2023-12-20T01:16:55.523217920+00:00,0,0
2023-12-20T01:16:55.567754770+00:00,0,1
2023-12-20T01:16:55.567763170+00:00,0,0
2023-12-20T01:16:55.923166770+00:00,1,0
2023-12-20T01:16:55.923216780+00:00,0,0
2023-12-20T01:16:55.977752580+00:00,0,1
2023-12-20T01:16:55.977760980+00:00,0,0
2023-12-20T01:16:56.323165640+00:00,1,0
2023-12-20T01:16:56.323215650+00:00,0,0
2023-12-20T01:16:56.397655390+00:00,0,1
2023-12-20T01:16:56.397663790+00:00,0,0
2023-12-20T01:16:56.723164500+00:00,1,0
2023-12-20T01:16:56.723214520+00:00,0,0
2023-12-20T01:16:56.797760210+00:00,0,1
2023-12-20T01:16:56.797768610+00:00,0,0
2023-12-20T01:16:57.123163370+00:00,1,0
2023-12-20T01:16:57.123213390+00:00,0,0
2023-12-20T01:16:57.207781980+00:00,0,1
2023-12-20T01:16:57.207790390+00:00,0,0
2023-12-20T01:16:57.523162240+00:00,1,0
2023-12-20T01:16:57.523212250+00:00,0,0
2023-12-20T01:16:57.617763970+00:00,0,1
2023-12-20T01:16:57.617772370+00:00,0,0
2023-12-20T01:16:57.923161110+00:00,1,0
2023-12-20T01:16:57.923211120+00:00,0,0
2023-12-20T01:16:58.027765720+00:00,0,1
2023-12-20T01:16:58.027774130+00:00,0,0
2023-12-20T01:16:58.323159970+00:00,1,0
2023-12-20T01:16:58.323209990+00:00,0,0
2023-12-20T01:16:58.437755670+00:00,0,1
2023-12-20T01:16:58.437764080+00:00,0,0
2023-12-20T01:16:58.723158840+00:00,1,0
2023-12-20T01:16:58.723208860+00:00,0,0
