Time [s],Channel 0,Channel 1
2023-10-23T23:10:34.036973000+00:00,0,0
2023-10-23T23:10:34.037858760+00:00,1,0
2023-10-23T23:10:34.037908760+00:00,0,0
2023-10-23T23:10:34.038909050+00:00,0,1
2023-10-23T23:10:34.038909080+00:00,0,0
2023-10-23T23:10:34.040858750+00:00,1,0
2023-10-23T23:10:34.040908760+00:00,0,0
2023-10-23T23:10:34.041907700+00:00,0,1
2023-10-23T23:10:34.041907730+00:00,0,0
2023-10-23T23:10:34.043858740+00:00,1,0
2023-10-23T23:10:34.043908750+00:00,0,0
2023-10-23T23:10:34.044906440+00:00,0,1
2023-10-23T23:10:34.044906480+00:00,0,0
2023-10-23T23:10:34.046858730+00:00,1,0
2023-10-23T23:10:34.046908740+00:00,0,0
2023-10-23T23:10:34.047905050+00:00,0,1
2023-10-23T23:10:34.047905080+00:00,0,0
2023-10-23T23:10:34.049858720+00:00,1,0
2023-10-23T23:10:34.049908730+00:00,0,0
2023-10-23T23:10:34.050903770+00:00,0,1
2023-10-23T23:10:34.050903800+00:00,0,0
2023-10-23T23:10:34.052858710+00:00,1,0
2023-10-23T23:10:34.052908720+00:00,0,0
2023-10-23T23:10:34.053911090+00:00,0,1
2023-10-23T23:10:34.053911120+00:00,0,0
2023-10-23T23:10:34.055858700+00:00,1,0
2023-10-23T23:10:34.055908710+00:00,0,0
2023-10-23T23:10:34.056909830+00:00,0,1
2023-10-23T23:10:34.056909860+00:00,0,0
2023-10-23T23:10:34.058858690+00:00,1,0
2023-10-23T23:10:34.058908700+00:00,0,0
2023-10-23T23:10:34.059908510+00:00,0,1
2023-10-23T23:10:34.059908540+00:00,0,0
2023-10-23T23:10:34.061858680+00:00,1,0
2023-10-23T23:10:34.061908690+00:00,0,0
2023-10-23T23:10:34.062907130+00:00,0,1
2023-10-23T23:10:34.062907160+00:00,0,0
2023-10-23T23:10:34.064858670+00:00,1,0
2023-10-23T23:10:34.064908680+00:00,0,0
2023-10-23T23:10:34.065905780+00:00,0,1
2023-10-23T23:10:34.065905810+00:00,0,0
2023-10-23T23:10:34.067858660+00:00,1,0
2023-10-23T23:10:34.067908670+00:00,0,0
2023-10-23T23:10:34.068904530+00:00,0,1
2023-10-23T23:10:34.068904560+00:00,0,0
2023-10-23T23:10:34.070858660+00:00,1,0
2023-10-23T23:10:34.070908660+00:00,0,0
2023-10-23T23:10:34.071903110+00:00,0,1
2023-10-23T23:10:34.071903140+00:00,0,0
2023-10-23T23:10:34.073858650+00:00,1,0
2023-10-23T23:10:34.073908650+00:00,0,0
2023-10-23T23:10:34.074910500+00:00,0,1
2023-10-23T23:10:34.074910530+00:00,0,0
2023-10-23T23:10:34.076858640+00:00,1,0
2023-10-23T23:10:34.076908640+00:00,0,0
2023-10-23T23:10:34.077909220+00:00,0,1
2023-10-23T23:10:34.077909250+00:00,0,0
2023-10-23T23:10:34.079858630+00:00,1,0
2023-10-23T23:10:34.079908630+00:00,0,0
2023-10-23T23:10:34.080907920+00:00,0,1
2023-10-23T23:10:34.080907950+00:00,0,0
2023-10-23T23:10:34.082858620+00:00,1,0
2023-10-23T23:10:34.082908630+00:00,0,0
2023-10-23T23:10:34.083906590+00:00,0,1
2023-10-23T23:10:34.083906620+00:00,0,0
2023-10-23T23:10:34.085858610+00:00,1,0
2023-10-23T23:10:34.085908620+00:00,0,0
2023-10-23T23:10:34.086905240+00:00,0,1
2023-10-23T23:10:34.086905270+00:00,0,0
2023-10-23T23:10:34.088858600+00:00,1,0
2023-10-23T23:10:34.088908610+00:00,0,0
2023-10-23T23:10:34.089903890+00:00,0,1
2023-10-23T23:10:34.089903920+00:00,0,0
2023-10-23T23:10:34.091858590+00:00,1,0
2023-10-23T23:10:34.091908600+00:00,0,0
2023-10-23T23:10:34.092911050+00:00,0,1
2023-10-23T23:10:34.092911080+00:00,0,0
2023-10-23T23:10:34.094858580+00:00,1,0
2023-10-23T23:10:34.094908590+00:00,0,0
2023-10-23T23:10:34.095909890+00:00,0,1
2023-10-23T23:10:34.095909920+00:00,0,0
2023-10-23T23:10:34.097858570+00:00,1,0
2023-10-23T23:10:34.097908580+00:00,0,0
2023-10-23T23:10:34.098908390+00:00,0,1
2023-10-23T23:10:34.098908420+00:00,0,0
2023-10-23T23:10:34.100858560+00:00,1,0
2023-10-23T23:10:34.100908570+00:00,0,0
2023-10-23T23:10:34.101907210+00:00,0,1
2023-10-23T23:10:34.101907240+00:00,0,0
2023-10-23T23:10:34.103858550+00:00,1,0
2023-10-23T23:10:34.103908560+00:00,0,0
2023-10-23T23:10:34.104905890+00:00,0,1
2023-10-23T23:10:34.104905920+00:00,0,0
2023-10-23T23:10:34.106858540+00:00,1,0
2023-10-23T23:10:34.106908550+00:00,0,0
2023-10-23T23:10:34.107904560+00:00,0,1
2023-10-23T23:10:34.107904590+00:00,0,0
2023-10-23T23:10:34.109858530+00:00,1,0
2023-10-23T23:10:34.109908540+00:00,0,0
2023-10-23T23:10:34.110903210+00:00,0,1
2023-10-23T23:10:34.110903240+00:00,0,0
2023-10-23T23:10:34.112858530+00:00,1,0
2023-10-23T23:10:34.112908530+00:00,0,0
2023-10-23T23:10:34.113910430+00:00,0,1
2023-10-23T23:10:34.113910460+00:00,0,0
2023-10-23T23:10:34.115858520+00:00,1,0
2023-10-23T23:10:34.115908520+00:00,0,0
2023-10-23T23:10:34.116909320+00:00,0,1
2023-10-23T23:10:34.116909350+00:00,0,0
2023-10-23T23:10:34.118858510+00:00,1,0
2023-10-23T23:10:34.118908510+00:00,0,0
2023-10-23T23:10:34.119907920+00:00,0,1
2023-10-23T23:10:34.119907950+00:00,0,0
2023-10-23T23:10:34.121858500+00:00,1,0
2023-10-23T23:10:34.121908510+00:00,0,0
2023-10-23T23:10:34.122906670+00:00,0,1
2023-10-23T23:10:34.122906700+00:00,0,0
2023-10-23T23:10:34.124858490+00:00,1,0
2023-10-23T23:10:34.124908500+00:00,0,0
2023-10-23T23:10:34.125905340+00:00,0,1
2023-10-23T23:10:34.125905370+00:00,0,0
2023-10-23T23:10:34.127858480+00:00,1,0
2023-10-23T23:10:34.127908490+00:00,0,0
2023-10-23T23:10:34.128903830+00:00,0,1
2023-10-23T23:10:34.128903860+00:00,0,0
2023-10-23T23:10:34.130858470+00:00,1,0
2023-10-23T23:10:34.130908480+00:00,0,0
2023-10-23T23:10:34.131911260+00:00,0,1
2023-10-23T23:10:34.131911290+00:00,0,0
2023-10-23T23:10:34.133858460+00:00,1,0
2023-10-23T23:10:34.133908470+00:00,0,0
2023-10-23T23:10:34.134909820+00:00,0,1
2023-10-23T23:10:34.134909850+00:00,0,0
2023-10-23T23:10:34.136858450+00:00,1,0
2023-10-23T23:10:34.136908460+00:00,0,0
2023-10-23T23:10:34.137908490+00:00,0,1
2023-10-23T23:10:34.137908520+00:00,0,0
2023-10-23T23:10:34.139858440+00:00,1,0
2023-10-23T23:10:34.139908450+00:00,0,0
2023-10-23T23:10:34.140907410+00:00,0,1
2023-10-23T23:10:34.140907440+00:00,0,0
2023-10-23T23:10:34.142858430+00:00,1,0
2023-10-23T23:10:34.142908440+00:00,0,0
2023-10-23T23:10:34.143905960+00:00,0,1
2023-10-23T23:10:34.143905990+00:00,0,0
2023-10-23T23:10:34.145858420+00:00,1,0
2023-10-23T23:10:34.145908430+00:00,0,0
2023-10-23T23:10:34.146904680+00:00,0,1
2023-10-23T23:10:34.146904710+00:00,0,0
2023-10-23T23:10:34.148858410+00:00,1,0
2023-10-23T23:10:34.148908420+00:00,0,0
2023-10-23T23:10:34.149903400+00:00,0,1
2023-10-23T23:10:34.149903440+00:00,0,0
2023-10-23T23:10:34.151858410+00:00,1,0
2023-10-23T23:10:34.151908410+00:00,0,0
2023-10-23T23:10:34.152910750+00:00,0,1
2023-10-23T23:10:34.152910780+00:00,0,0
2023-10-23T23:10:34.154858400+00:00,1,0
2023-10-23T23:10:34.154908400+00:00,0,0
2023-10-23T23:10:34.155909420+00:00,0,1
2023-10-23T23:10:34.155909450+00:00,0,0
2023-10-23T23:10:34.157858390+00:00,1,0
2023-10-23T23:10:34.157908390+00:00,0,0
2023-10-23T23:10:34.158908070+00:00,0,1
2023-10-23T23:10:34.158908100+00:00,0,0
2023-10-23T23:10:34.160858380+00:00,1,0
2023-10-23T23:10:34.160908380+00:00,0,0
2023-10-23T23:10:34.161906720+00:00,0,1
2023-10-23T23:10:34.161906750+00:00,0,0
2023-10-23T23:10:34.163858370+00:00,1,0
2023-10-23T23:10:34.163908380+00:00,0,0
2023-10-23T23:10:34.164905230+00:00,0,1
2023-10-23T23:10:34.164905260+00:00,0,0
2023-10-23T23:10:34.166858360+00:00,1,0
2023-10-23T23:10:34.166908370+00:00,0,0
2023-10-23T23:10:34.167904070+00:00,0,1
2023-10-23T23:10:34.167904100+00:00,0,0
2023-10-23T23:10:34.169858350+00:00,1,0
2023-10-23T23:10:34.169908360+00:00,0,0
2023-10-23T23:10:34.170902790+00:00,0,1
2023-10-23T23:10:34.170902820+00:00,0,0
2023-10-23T23:10:34.172858340+00:00,1,0
2023-10-23T23:10:34.172908350+00:00,0,0
2023-10-23T23:10:34.173909920+00:00,0,1
2023-10-23T23:10:34.173909950+00:00,0,0
2023-10-23T23:10:34.175858330+00:00,1,0
2023-10-23T23:10:34.175908340+00:00,0,0
2023-10-23T23:10:34.176908760+00:00,0,1
2023-10-23T23:10:34.176908790+00:00,0,0
2023-10-23T23:10:34.178858320+00:00,1,0
2023-10-23T23:10:34.178908330+00:00,0,0
2023-10-23T23:10:34.179907440+00:00,0,1
2023-10-23T23:10:34.179907470+00:00,0,0
2023-10-23T23:10:34.181858310+00:00,1,0
2023-10-23T23:10:34.181908320+00:00,0,0
2023-10-23T23:10:34.182906110+00:00,0,1
2023-10-23T23:10:34.182906140+00:00,0,0
2023-10-23T23:10:34.184858300+00:00,1,0
2023-10-23T23:10:34.184908310+00:00,0,0
2023-10-23T23:10:34.185904760+00:00,0,1
2023-10-23T23:10:34.185904790+00:00,0,0
2023-10-23T23:10:34.187858290+00:00,1,0
2023-10-23T23:10:34.187908300+00:00,0,0
2023-10-23T23:10:34.188903290+00:00,0,1
2023-10-23T23:10:34.188903320+00:00,0,0
2023-10-23T23:10:34.190858280+00:00,1,0
2023-10-23T23:10:34.190908290+00:00,0,0
2023-10-23T23:10:34.191910800+00:00,0,1
2023-10-23T23:10:34.191910830+00:00,0,0
2023-10-23T23:10:34.193858280+00:00,1,0
2023-10-23T23:10:34.193908280+00:00,0,0
2023-10-23T23:10:34.194909310+00:00,0,1
2023-10-23T23:10:34.194909340+00:00,0,0
2023-10-23T23:10:34.196858270+00:00,1,0
2023-10-23T23:10:34.196908270+00:00,0,0
2023-10-23T23:10:34.197908120+00:00,0,1
2023-10-23T23:10:34.197908150+00:00,0,0
2023-10-23T23:10:34.199858260+00:00,1,0
2023-10-23T23:10:34.199908260+00:00,0,0
2023-10-23T23:10:34.200906850+00:00,0,1
2023-10-23T23:10:34.200906880+00:00,0,0
2023-10-23T23:10:34.202858250+00:00,1,0
2023-10-23T23:10:34.202908250+00:00,0,0
2023-10-23T23:10:34.203905570+00:00,0,1
2023-10-23T23:10:34.203905600+00:00,0,0
2023-10-23T23:10:34.205858240+00:00,1,0
2023-10-23T23:10:34.205908250+00:00,0,0
2023-10-23T23:10:34.206904190+00:00,0,1
2023-10-23T23:10:34.206904220+00:00,0,0
2023-10-23T23:10:34.208858230+00:00,1,0
2023-10-23T23:10:34.208908240+00:00,0,0
2023-10-23T23:10:34.209902820+00:00,0,1
2023-10-23T23:10:34.209902850+00:00,0,0
2023-10-23T23:10:34.211858220+00:00,1,0
2023-10-23T23:10:34.211908230+00:00,0,0
2023-10-23T23:10:34.212910210+00:00,0,1
2023-10-23T23:10:34.212910240+00:00,0,0
2023-10-23T23:10:34.214858210+00:00,1,0
2023-10-23T23:10:34.214908220+00:00,0,0
2023-10-23T23:10:34.215908690+00:00,0,1
2023-10-23T23:10:34.215908720+00:00,0,0
2023-10-23T23:10:34.217858200+00:00,1,0
2023-10-23T23:10:34.217908210+00:00,0,0
2023-10-23T23:10:34.218907540+00:00,0,1
2023-10-23T23:10:34.218907560+00:00,0,0
2023-10-23T23:10:34.220858190+00:00,1,0
2023-10-23T23:10:34.220908200+00:00,0,0
2023-10-23T23:10:34.221906280+00:00,0,1
2023-10-23T23:10:34.221906310+00:00,0,0
2023-10-23T23:10:34.223858180+00:00,1,0
2023-10-23T23:10:34.223908190+00:00,0,0
2023-10-23T23:10:34.224904880+00:00,0,1
2023-10-23T23:10:34.224904910+00:00,0,0
2023-10-23T23:10:34.226858170+00:00,1,0
2023-10-23T23:10:34.226908180+00:00,0,0
2023-10-23T23:10:34.227903560+00:00,0,1
2023-10-23T23:10:34.227903590+00:00,0,0
2023-10-23T23:10:34.229858160+00:00,1,0
2023-10-23T23:10:34.229908170+00:00,0,0
2023-10-23T23:10:34.230910900+00:00,0,1
2023-10-23T23:10:34.230910930+00:00,0,0
2023-10-23T23:10:34.232858150+00:00,1,0
2023-10-23T23:10:34.232908160+00:00,0,0
2023-10-23T23:10:34.233909550+00:00,0,1
2023-10-23T23:10:34.233909580+00:00,0,0
2023-10-23T23:10:34.235858150+00:00,1,0
2023-10-23T23:10:34.235908150+00:00,0,0
2023-10-23T23:10:34.236908200+00:00,0,1
2023-10-23T23:10:34.236908230+00:00,0,0
2023-10-23T23:10:34.238858140+00:00,1,0
2023-10-23T23:10:34.238908140+00:00,0,0
2023-10-23T23:10:34.239906920+00:00,0,1
2023-10-23T23:10:34.239906950+00:00,0,0
2023-10-23T23:10:34.241858130+00:00,1,0
2023-10-23T23:10:34.241908130+00:00,0,0
2023-10-23T23:10:34.242905430+00:00,0,1
2023-10-23T23:10:34.242905460+00:00,0,0
2023-10-23T23:10:34.244858120+00:00,1,0
2023-10-23T23:10:34.244908120+00:00,0,0
2023-10-23T23:10:34.245904270+00:00,0,1
2023-10-23T23:10:34.245904300+00:00,0,0
2023-10-23T23:10:34.247858110+00:00,1,0
2023-10-23T23:10:34.247908120+00:00,0,0
2023-10-23T23:10:34.248902900+00:00,0,1
2023-10-23T23:10:34.248902930+00:00,0,0
2023-10-23T23:10:34.250858100+00:00,1,0
2023-10-23T23:10:34.250908110+00:00,0,0
2023-10-23T23:10:34.251910360+00:00,0,1
2023-10-23T23:10:34.251910390+00:00,0,0
2023-10-23T23:10:34.253858090+00:00,1,0
2023-10-23T23:10:34.253908100+00:00,0,0
2023-10-23T23:10:34.254908790+00:00,0,1
2023-10-23T23:10:34.254908820+00:00,0,0
2023-10-23T23:10:34.256858080+00:00,1,0
2023-10-23T23:10:34.256908090+00:00,0,0
2023-10-23T23:10:34.257907470+00:00,0,1
2023-10-23T23:10:34.257907500+00:00,0,0
2023-10-23T23:10:34.259858070+00:00,1,0
2023-10-23T23:10:34.259908080+00:00,0,0
2023-10-23T23:10:34.260906360+00:00,0,1
2023-10-23T23:10:34.260906390+00:00,0,0
2023-10-23T23:10:34.262858060+00:00,1,0
2023-10-23T23:10:34.262908070+00:00,0,0
2023-10-23T23:10:34.263904980+00:00,0,1
2023-10-23T23:10:34.263905010+00:00,0,0
2023-10-23T23:10:34.265858050+00:00,1,0
2023-10-23T23:10:34.265908060+00:00,0,0
2023-10-23T23:10:34.266903680+00:00,0,1
2023-10-23T23:10:34.266903710+00:00,0,0
2023-10-23T23:10:34.268858040+00:00,1,0
2023-10-23T23:10:34.268908050+00:00,0,0
2023-10-23T23:10:34.269911020+00:00,0,1
2023-10-23T23:10:34.269911050+00:00,0,0
2023-10-23T23:10:34.271858030+00:00,1,0
2023-10-23T23:10:34.271908040+00:00,0,0
2023-10-23T23:10:34.272909510+00:00,0,1
2023-10-23T23:10:34.272909540+00:00,0,0
2023-10-23T23:10:34.274858020+00:00,1,0
2023-10-23T23:10:34.274908030+00:00,0,0
2023-10-23T23:10:34.275908320+00:00,0,1
2023-10-23T23:10:34.275908360+00:00,0,0
2023-10-23T23:10:34.277858020+00:00,1,0
2023-10-23T23:10:34.277908020+00:00,0,0
2023-10-23T23:10:34.278906860+00:00,0,1
2023-10-23T23:10:34.278906890+00:00,0,0
2023-10-23T23:10:34.280858010+00:00,1,0
2023-10-23T23:10:34.280908010+00:00,0,0
2023-10-23T23:10:34.281905530+00:00,0,1
2023-10-23T23:10:34.281905560+00:00,0,0
2023-10-23T23:10:34.283858000+00:00,1,0
2023-10-23T23:10:34.283908000+00:00,0,0
2023-10-23T23:10:34.284904420+00:00,0,1
2023-10-23T23:10:34.284904450+00:00,0,0
2023-10-23T23:10:34.286857990+00:00,1,0
2023-10-23T23:10:34.286908000+00:00,0,0
2023-10-23T23:10:34.287902890+00:00,0,1
2023-10-23T23:10:34.287902920+00:00,0,0
2023-10-23T23:10:34.289857980+00:00,1,0
2023-10-23T23:10:34.289907990+00:00,0,0
2023-10-23T23:10:34.290910430+00:00,0,1
2023-10-23T23:10:34.290910470+00:00,0,0
2023-10-23T23:10:34.292857970+00:00,1,0
2023-10-23T23:10:34.292907980+00:00,0,0
2023-10-23T23:10:34.293909040+00:00,0,1
2023-10-23T23:10:34.293909070+00:00,0,0
2023-10-23T23:10:34.295857960+00:00,1,0
2023-10-23T23:10:34.295907970+00:00,0,0
2023-10-23T23:10:34.296907710+00:00,0,1
2023-10-23T23:10:34.296907740+00:00,0,0
2023-10-23T23:10:34.298857950+00:00,1,0
2023-10-23T23:10:34.298907960+00:00,0,0
2023-10-23T23:10:34.299906240+00:00,0,1
2023-10-23T23:10:34.299906270+00:00,0,0
2023-10-23T23:10:34.301857940+00:00,1,0
2023-10-23T23:10:34.301907950+00:00,0,0
2023-10-23T23:10:34.302904920+00:00,0,1
2023-10-23T23:10:34.302904950+00:00,0,0
2023-10-23T23:10:34.304857930+00:00,1,0
2023-10-23T23:10:34.304907940+00:00,0,0
2023-10-23T23:10:34.305903590+00:00,0,1
2023-10-23T23:10:34.305903620+00:00,0,0
2023-10-23T23:10:34.307857920+00:00,1,0
2023-10-23T23:10:34.307907930+00:00,0,0
2023-10-23T23:10:34.308902480+00:00,0,1
2023-10-23T23:10:34.308902510+00:00,0,0
2023-10-23T23:10:34.310857910+00:00,1,0
2023-10-23T23:10:34.310907920+00:00,0,0
2023-10-23T23:10:34.311909610+00:00,0,1
2023-10-23T23:10:34.311909640+00:00,0,0
2023-10-23T23:10:34.313857900+00:00,1,0
2023-10-23T23:10:34.313907910+00:00,0,0
2023-10-23T23:10:34.314908500+00:00,0,1
2023-10-23T23:10:34.314908530+00:00,0,0
2023-10-23T23:10:34.316857900+00:00,1,0
2023-10-23T23:10:34.316907900+00:00,0,0
2023-10-23T23:10:34.317907190+00:00,0,1
2023-10-23T23:10:34.317907220+00:00,0,0
2023-10-23T23:10:34.319857890+00:00,1,0
2023-10-23T23:10:34.319907890+00:00,0,0
2023-10-23T23:10:34.320905630+00:00,0,1
2023-10-23T23:10:34.320905660+00:00,0,0
2023-10-23T23:10:34.322857880+00:00,1,0
2023-10-23T23:10:34.322907880+00:00,0,0
2023-10-23T23:10:34.323904450+00:00,0,1
2023-10-23T23:10:34.323904480+00:00,0,0
2023-10-23T23:10:34.325857870+00:00,1,0
2023-10-23T23:10:34.325907870+00:00,0,0
2023-10-23T23:10:34.326902980+00:00,0,1
2023-10-23T23:10:34.326903010+00:00,0,0
2023-10-23T23:10:34.328857860+00:00,1,0
2023-10-23T23:10:34.328907870+00:00,0,0
2023-10-23T23:10:34.329910320+00:00,0,1
2023-10-23T23:10:34.329910350+00:00,0,0
2023-10-23T23:10:34.331857850+00:00,1,0
2023-10-23T23:10:34.331907860+00:00,0,0
2023-10-23T23:10:34.332909110+00:00,0,1
2023-10-23T23:10:34.332909140+00:00,0,0
2023-10-23T23:10:34.334857840+00:00,1,0
2023-10-23T23:10:34.334907850+00:00,0,0
2023-10-23T23:10:34.335907840+00:00,0,1
2023-10-23T23:10:34.335907870+00:00,0,0
2023-10-23T23:10:34.337857830+00:00,1,0
2023-10-23T23:10:34.337907840+00:00,0,0
2023-10-23T23:10:34.338906530+00:00,0,1
2023-10-23T23:10:34.338906560+00:00,0,0
2023-10-23T23:10:34.340857820+00:00,1,0
2023-10-23T23:10:34.340907830+00:00,0,0
2023-10-23T23:10:34.341905210+00:00,0,1
2023-10-23T23:10:34.341905240+00:00,0,0
2023-10-23T23:10:34.343857810+00:00,1,0
2023-10-23T23:10:34.343907820+00:00,0,0
2023-10-23T23:10:34.344903860+00:00,0,1
2023-10-23T23:10:34.344903890+00:00,0,0
2023-10-23T23:10:34.346857800+00:00,1,0
2023-10-23T23:10:34.346907810+00:00,0,0
2023-10-23T23:10:34.347902480+00:00,0,1
2023-10-23T23:10:34.347902520+00:00,0,0
2023-10-23T23:10:34.349857790+00:00,1,0
2023-10-23T23:10:34.349907800+00:00,0,0
2023-10-23T23:10:34.350909950+00:00,0,1
2023-10-23T23:10:34.350909980+00:00,0,0
2023-10-23T23:10:34.352857780+00:00,1,0
2023-10-23T23:10:34.352907790+00:00,0,0
2023-10-23T23:10:34.353908600+00:00,0,1
2023-10-23T23:10:34.353908630+00:00,0,0
2023-10-23T23:10:34.355857780+00:00,1,0
2023-10-23T23:10:34.355907780+00:00,0,0
2023-10-23T23:10:34.356907200+00:00,0,1
2023-10-23T23:10:34.356907230+00:00,0,0
2023-10-23T23:10:34.358857770+00:00,1,0
2023-10-23T23:10:34.358907770+00:00,0,0
2023-10-23T23:10:34.359905940+00:00,0,1
2023-10-23T23:10:34.359905980+00:00,0,0
2023-10-23T23:10:34.361857760+00:00,1,0
2023-10-23T23:10:34.361907760+00:00,0,0
2023-10-23T23:10:34.362904520+00:00,0,1
2023-10-23T23:10:34.362904550+00:00,0,0
2023-10-23T23:10:34.364857750+00:00,1,0
2023-10-23T23:10:34.364907750+00:00,0,0
2023-10-23T23:10:34.365903200+00:00,0,1
2023-10-23T23:10:34.365903230+00:00,0,0
2023-10-23T23:10:34.367857740+00:00,1,0
2023-10-23T23:10:34.367907740+00:00,0,0
2023-10-23T23:10:34.368910420+00:00,0,1
2023-10-23T23:10:34.368910450+00:00,0,0
2023-10-23T23:10:34.370857730+00:00,1,0
2023-10-23T23:10:34.370907730+00:00,0,0
2023-10-23T23:10:34.371909210+00:00,0,1
2023-10-23T23:10:34.371909240+00:00,0,0
2023-10-23T23:10:34.373857720+00:00,1,0
2023-10-23T23:10:34.373907730+00:00,0,0
2023-10-23T23:10:34.374908010+00:00,0,1
2023-10-23T23:10:34.374908040+00:00,0,0
2023-10-23T23:10:34.376857710+00:00,1,0
2023-10-23T23:10:34.376907720+00:00,0,0
2023-10-23T23:10:34.377906590+00:00,0,1
2023-10-23T23:10:34.377906620+00:00,0,0
2023-10-23T23:10:34.379857700+00:00,1,0
2023-10-23T23:10:34.379907710+00:00,0,0
2023-10-23T23:10:34.380905360+00:00,0,1
2023-10-23T23:10:34.380905390+00:00,0,0
2023-10-23T23:10:34.382857690+00:00,1,0
2023-10-23T23:10:34.382907700+00:00,0,0
2023-10-23T23:10:34.383903920+00:00,0,1
2023-10-23T23:10:34.383903950+00:00,0,0
2023-10-23T23:10:34.385857680+00:00,1,0
2023-10-23T23:10:34.385907690+00:00,0,0
2023-10-23T23:10:34.386902630+00:00,0,1
2023-10-23T23:10:34.386902660+00:00,0,0
2023-10-23T23:10:34.388857670+00:00,1,0
2023-10-23T23:10:34.388907680+00:00,0,0
2023-10-23T23:10:34.389909950+00:00,0,1
2023-10-23T23:10:34.389909980+00:00,0,0
2023-10-23T23:10:34.391857660+00:00,1,0
2023-10-23T23:10:34.391907670+00:00,0,0
2023-10-23T23:10:34.392908670+00:00,0,1
2023-10-23T23:10:34.392908700+00:00,0,0
2023-10-23T23:10:34.394857650+00:00,1,0
2023-10-23T23:10:34.394907660+00:00,0,0
2023-10-23T23:10:34.395907320+00:00,0,1
2023-10-23T23:10:34.395907350+00:00,0,0
2023-10-23T23:10:34.397857640+00:00,1,0
2023-10-23T23:10:34.397907650+00:00,0,0
2023-10-23T23:10:34.398905950+00:00,0,1
2023-10-23T23:10:34.398905980+00:00,0,0
2023-10-23T23:10:34.400857640+00:00,1,0
2023-10-23T23:10:34.400907640+00:00,0,0
2023-10-23T23:10:34.401904510+00:00,0,1
2023-10-23T23:10:34.401904540+00:00,0,0
2023-10-23T23:10:34.403857630+00:00,1,0
2023-10-23T23:10:34.403907630+00:00,0,0
2023-10-23T23:10:34.404903320+00:00,0,1
2023-10-23T23:10:34.404903350+00:00,0,0
2023-10-23T23:10:34.406857620+00:00,1,0
2023-10-23T23:10:34.406907620+00:00,0,0
2023-10-23T23:10:34.407902070+00:00,0,1
2023-10-23T23:10:34.407902100+00:00,0,0
2023-10-23T23:10:34.409857610+00:00,1,0
2023-10-23T23:10:34.409907610+00:00,0,0
