Time [s],Channel 0,Channel 1
2023-10-23T22:50:35.866279000+00:00,0,0
2023-10-23T22:50:35.867753280+00:00,1,0
2023-10-23T22:50:35.867803280+00:00,0,0
2023-10-23T22:50:35.868805440+00:00,0,1
2023-10-23T22:50:35.868805500+00:00,0,0
2023-10-23T22:50:35.870753260+00:00,1,0
2023-10-23T22:50:35.870803280+00:00,0,0
2023-10-23T22:50:35.871804140+00:00,0,1
2023-10-23T22:50:35.871804180+00:00,0,0
2023-10-23T22:50:35.873753260+00:00,1,0
2023-10-23T22:50:35.873803260+00:00,0,0
2023-10-23T22:50:35.874802800+00:00,0,1
2023-10-23T22:50:35.874802840+00:00,0,0
2023-10-23T22:50:35.876753240+00:00,1,0
2023-10-23T22:50:35.876803260+00:00,0,0
2023-10-23T22:50:35.877801480+00:00,0,1
2023-10-23T22:50:35.877801520+00:00,0,0
2023-10-23T22:50:35.879753240+00:00,1,0
2023-10-23T22:50:35.879803240+00:00,0,0
2023-10-23T22:50:35.880800140+00:00,0,1
2023-10-23T22:50:35.880800200+00:00,0,0
2023-10-23T22:50:35.882753220+00:00,1,0
2023-10-23T22:50:35.882803240+00:00,0,0
2023-10-23T22:50:35.883807540+00:00,0,1
2023-10-23T22:50:35.883807600+00:00,0,0
2023-10-23T22:50:35.885753220+00:00,1,0
2023-10-23T22:50:35.885803220+00:00,0,0
2023-10-23T22:50:35.886806220+00:00,0,1
2023-10-23T22:50:35.886806280+00:00,0,0
2023-10-23T22:50:35.888753220+00:00,1,0
2023-10-23T22:50:35.888803220+00:00,0,0
2023-10-23T22:50:35.889804840+00:00,0,1
2023-10-23T22:50:35.889804900+00:00,0,0
2023-10-23T22:50:35.891753200+00:00,1,0
2023-10-23T22:50:35.891803200+00:00,0,0
2023-10-23T22:50:35.892803520+00:00,0,1
2023-10-23T22:50:35.892803560+00:00,0,0
2023-10-23T22:50:35.894753200+00:00,1,0
2023-10-23T22:50:35.894803200+00:00,0,0
2023-10-23T22:50:35.895802180+00:00,0,1
2023-10-23T22:50:35.895802240+00:00,0,0
2023-10-23T22:50:35.897753180+00:00,1,0
2023-10-23T22:50:35.897803200+00:00,0,0
2023-10-23T22:50:35.898800860+00:00,0,1
2023-10-23T22:50:35.898800920+00:00,0,0
2023-10-23T22:50:35.900753180+00:00,1,0
2023-10-23T22:50:35.900803180+00:00,0,0
2023-10-23T22:50:35.901808260+00:00,0,1
2023-10-23T22:50:35.901808320+00:00,0,0
2023-10-23T22:50:35.903753160+00:00,1,0
2023-10-23T22:50:35.903803180+00:00,0,0
2023-10-23T22:50:35.904806940+00:00,0,1
2023-10-23T22:50:35.904806980+00:00,0,0
2023-10-23T22:50:35.906753160+00:00,1,0
2023-10-23T22:50:35.906803160+00:00,0,0
2023-10-23T22:50:35.907805620+00:00,0,1
2023-10-23T22:50:35.907805660+00:00,0,0
2023-10-23T22:50:35.909753140+00:00,1,0
2023-10-23T22:50:35.909803160+00:00,0,0
2023-10-23T22:50:35.910804280+00:00,0,1
2023-10-23T22:50:35.910804340+00:00,0,0
2023-10-23T22:50:35.912753140+00:00,1,0
2023-10-23T22:50:35.912803140+00:00,0,0
2023-10-23T22:50:35.913802920+00:00,0,1
2023-10-23T22:50:35.913802960+00:00,0,0
2023-10-23T22:50:35.915753120+00:00,1,0
2023-10-23T22:50:35.915803140+00:00,0,0
2023-10-23T22:50:35.916801580+00:00,0,1
2023-10-23T22:50:35.916801620+00:00,0,0
2023-10-23T22:50:35.918753120+00:00,1,0
2023-10-23T22:50:35.918803120+00:00,0,0
2023-10-23T22:50:35.919800260+00:00,0,1
2023-10-23T22:50:35.919800300+00:00,0,0
2023-10-23T22:50:35.921753120+00:00,1,0
2023-10-23T22:50:35.921803120+00:00,0,0
2023-10-23T22:50:35.922807660+00:00,0,1
2023-10-23T22:50:35.922807700+00:00,0,0
2023-10-23T22:50:35.924753100+00:00,1,0
2023-10-23T22:50:35.924803100+00:00,0,0
2023-10-23T22:50:35.925806320+00:00,0,1
2023-10-23T22:50:35.925806380+00:00,0,0
2023-10-23T22:50:35.927753100+00:00,1,0
2023-10-23T22:50:35.927803100+00:00,0,0
2023-10-23T22:50:35.928805000+00:00,0,1
2023-10-23T22:50:35.928805060+00:00,0,0
2023-10-23T22:50:35.930753080+00:00,1,0
2023-10-23T22:50:35.930803100+00:00,0,0
2023-10-23T22:50:35.931803680+00:00,0,1
2023-10-23T22:50:35.931803720+00:00,0,0
2023-10-23T22:50:35.933753080+00:00,1,0
2023-10-23T22:50:35.933803080+00:00,0,0
2023-10-23T22:50:35.934802360+00:00,0,1
2023-10-23T22:50:35.934802400+00:00,0,0
2023-10-23T22:50:35.936753060+00:00,1,0
2023-10-23T22:50:35.936803080+00:00,0,0
2023-10-23T22:50:35.937800980+00:00,0,1
2023-10-23T22:50:35.937801020+00:00,0,0
2023-10-23T22:50:35.939753060+00:00,1,0
2023-10-23T22:50:35.939803060+00:00,0,0
2023-10-23T22:50:35.940799640+00:00,0,1
2023-10-23T22:50:35.940799700+00:00,0,0
2023-10-23T22:50:35.942753040+00:00,1,0
2023-10-23T22:50:35.942803060+00:00,0,0
2023-10-23T22:50:35.943807000+00:00,0,1
2023-10-23T22:50:35.943807040+00:00,0,0
2023-10-23T22:50:35.945753040+00:00,1,0
2023-10-23T22:50:35.945803040+00:00,0,0
2023-10-23T22:50:35.946805660+00:00,0,1
2023-10-23T22:50:35.946805700+00:00,0,0
2023-10-23T22:50:35.948753020+00:00,1,0
2023-10-23T22:50:35.948803040+00:00,0,0
2023-10-23T22:50:35.949804340+00:00,0,1
2023-10-23T22:50:35.949804380+00:00,0,0
2023-10-23T22:50:35.951753020+00:00,1,0
2023-10-23T22:50:35.951803020+00:00,0,0
2023-10-23T22:50:35.952803000+00:00,0,1
2023-10-23T22:50:35.952803060+00:00,0,0
2023-10-23T22:50:35.954753020+00:00,1,0
2023-10-23T22:50:35.954803020+00:00,0,0
2023-10-23T22:50:35.955801680+00:00,0,1
2023-10-23T22:50:35.955801740+00:00,0,0
2023-10-23T22:50:35.957753000+00:00,1,0
2023-10-23T22:50:35.957803000+00:00,0,0
2023-10-23T22:50:35.958800360+00:00,0,1
2023-10-23T22:50:35.958800400+00:00,0,0
2023-10-23T22:50:35.960753000+00:00,1,0
2023-10-23T22:50:35.960803000+00:00,0,0
2023-10-23T22:50:35.961807760+00:00,0,1
2023-10-23T22:50:35.961807800+00:00,0,0
2023-10-23T22:50:35.963752980+00:00,1,0
2023-10-23T22:50:35.963803000+00:00,0,0
2023-10-23T22:50:35.964806440+00:00,0,1
2023-10-23T22:50:35.964806480+00:00,0,0
2023-10-23T22:50:35.966752980+00:00,1,0
2023-10-23T22:50:35.966802980+00:00,0,0
2023-10-23T22:50:35.967805060+00:00,0,1
2023-10-23T22:50:35.967805100+00:00,0,0
2023-10-23T22:50:35.969752960+00:00,1,0
2023-10-23T22:50:35.969802980+00:00,0,0
2023-10-23T22:50:35.970803720+00:00,0,1
2023-10-23T22:50:35.970803780+00:00,0,0
2023-10-23T22:50:35.972752960+00:00,1,0
2023-10-23T22:50:35.972802960+00:00,0,0
2023-10-23T22:50:35.973802360+00:00,0,1
2023-10-23T22:50:35.973802420+00:00,0,0
2023-10-23T22:50:35.975752940+00:00,1,0
2023-10-23T22:50:35.975802960+00:00,0,0
2023-10-23T22:50:35.976801040+00:00,0,1
2023-10-23T22:50:35.976801080+00:00,0,0
2023-10-23T22:50:35.978752940+00:00,1,0
2023-10-23T22:50:35.978802940+00:00,0,0
2023-10-23T22:50:35.979799720+00:00,0,1
2023-10-23T22:50:35.979799760+00:00,0,0
2023-10-23T22:50:35.981752920+00:00,1,0
2023-10-23T22:50:35.981802940+00:00,0,0
2023-10-23T22:50:35.982807100+00:00,0,1
2023-10-23T22:50:35.982807160+00:00,0,0
2023-10-23T22:50:35.984752920+00:00,1,0
2023-10-23T22:50:35.984802920+00:00,0,0
2023-10-23T22:50:35.985805760+00:00,0,1
2023-10-23T22:50:35.985805820+00:00,0,0
2023-10-23T22:50:35.987752920+00:00,1,0
2023-10-23T22:50:35.987802920+00:00,0,0
2023-10-23T22:50:35.988804440+00:00,0,1
2023-10-23T22:50:35.988804480+00:00,0,0
2023-10-23T22:50:35.990752900+00:00,1,0
2023-10-23T22:50:35.990802900+00:00,0,0
2023-10-23T22:50:35.991803120+00:00,0,1
2023-10-23T22:50:35.991803160+00:00,0,0
2023-10-23T22:50:35.993752900+00:00,1,0
2023-10-23T22:50:35.993802900+00:00,0,0
2023-10-23T22:50:35.994801800+00:00,0,1
2023-10-23T22:50:35.994801840+00:00,0,0
2023-10-23T22:50:35.996752880+00:00,1,0
2023-10-23T22:50:35.996802900+00:00,0,0
2023-10-23T22:50:35.997800480+00:00,0,1
2023-10-23T22:50:35.997800520+00:00,0,0
2023-10-23T22:50:35.999752880+00:00,1,0
2023-10-23T22:50:35.999802880+00:00,0,0
2023-10-23T22:50:36.000807860+00:00,0,1
2023-10-23T22:50:36.000807920+00:00,0,0
2023-10-23T22:50:36.002752860+00:00,1,0
2023-10-23T22:50:36.002802880+00:00,0,0
2023-10-23T22:50:36.003806540+00:00,0,1
2023-10-23T22:50:36.003806580+00:00,0,0
2023-10-23T22:50:36.005752860+00:00,1,0
2023-10-23T22:50:36.005802860+00:00,0,0
2023-10-23T22:50:36.006805160+00:00,0,1
2023-10-23T22:50:36.006805220+00:00,0,0
2023-10-23T22:50:36.008752840+00:00,1,0
2023-10-23T22:50:36.008802860+00:00,0,0
2023-10-23T22:50:36.009803840+00:00,0,1
2023-10-23T22:50:36.009803880+00:00,0,0
2023-10-23T22:50:36.011752840+00:00,1,0
2023-10-23T22:50:36.011802840+00:00,0,0
2023-10-23T22:50:36.012802500+00:00,0,1
2023-10-23T22:50:36.012802560+00:00,0,0
2023-10-23T22:50:36.014752820+00:00,1,0
2023-10-23T22:50:36.014802840+00:00,0,0
2023-10-23T22:50:36.015801180+00:00,0,1
2023-10-23T22:50:36.015801220+00:00,0,0
2023-10-23T22:50:36.017752820+00:00,1,0
2023-10-23T22:50:36.017802820+00:00,0,0
2023-10-23T22:50:36.018799860+00:00,0,1
2023-10-23T22:50:36.018799900+00:00,0,0
2023-10-23T22:50:36.020752820+00:00,1,0
2023-10-23T22:50:36.020802820+00:00,0,0
2023-10-23T22:50:36.021807200+00:00,0,1
2023-10-23T22:50:36.021807260+00:00,0,0
2023-10-23T22:50:36.023752800+00:00,1,0
2023-10-23T22:50:36.023802820+00:00,0,0
2023-10-23T22:50:36.024805880+00:00,0,1
2023-10-23T22:50:36.024805920+00:00,0,0
2023-10-23T22:50:36.026752800+00:00,1,0
2023-10-23T22:50:36.026802800+00:00,0,0
2023-10-23T22:50:36.027804540+00:00,0,1
2023-10-23T22:50:36.027804600+00:00,0,0
2023-10-23T22:50:36.029752780+00:00,1,0
2023-10-23T22:50:36.029802800+00:00,0,0
2023-10-23T22:50:36.030803240+00:00,0,1
2023-10-23T22:50:36.030803280+00:00,0,0
2023-10-23T22:50:36.032752780+00:00,1,0
2023-10-23T22:50:36.032802780+00:00,0,0
2023-10-23T22:50:36.033801900+00:00,0,1
2023-10-23T22:50:36.033801940+00:00,0,0
2023-10-23T22:50:36.035752760+00:00,1,0
2023-10-23T22:50:36.035802780+00:00,0,0
2023-10-23T22:50:36.036800580+00:00,0,1
2023-10-23T22:50:36.036800620+00:00,0,0
2023-10-23T22:50:36.038752760+00:00,1,0
2023-10-23T22:50:36.038802760+00:00,0,0
2023-10-23T22:50:36.039807980+00:00,0,1
2023-10-23T22:50:36.039808020+00:00,0,0
2023-10-23T22:50:36.041752740+00:00,1,0
2023-10-23T22:50:36.041802760+00:00,0,0
2023-10-23T22:50:36.042806640+00:00,0,1
2023-10-23T22:50:36.042806700+00:00,0,0
2023-10-23T22:50:36.044752740+00:00,1,0
2023-10-23T22:50:36.044802740+00:00,0,0
2023-10-23T22:50:36.045805280+00:00,0,1
2023-10-23T22:50:36.045805320+00:00,0,0
2023-10-23T22:50:36.047752740+00:00,1,0
2023-10-23T22:50:36.047802740+00:00,0,0
2023-10-23T22:50:36.048803940+00:00,0,1
2023-10-23T22:50:36.048803980+00:00,0,0
2023-10-23T22:50:36.050752720+00:00,1,0
2023-10-23T22:50:36.050802720+00:00,0,0
2023-10-23T22:50:36.051802620+00:00,0,1
2023-10-23T22:50:36.051802660+00:00,0,0
2023-10-23T22:50:36.053752720+00:00,1,0
2023-10-23T22:50:36.053802720+00:00,0,0
2023-10-23T22:50:36.054801280+00:00,0,1
2023-10-23T22:50:36.054801340+00:00,0,0
2023-10-23T22:50:36.056752700+00:00,1,0
2023-10-23T22:50:36.056802720+00:00,0,0
2023-10-23T22:50:36.057799960+00:00,0,1
2023-10-23T22:50:36.057800020+00:00,0,0
2023-10-23T22:50:36.059752700+00:00,1,0
2023-10-23T22:50:36.059802700+00:00,0,0
2023-10-23T22:50:36.060807320+00:00,0,1
2023-10-23T22:50:36.060807360+00:00,0,0
2023-10-23T22:50:36.062752680+00:00,1,0
2023-10-23T22:50:36.062802700+00:00,0,0
2023-10-23T22:50:36.063805980+00:00,0,1
2023-10-23T22:50:36.063806040+00:00,0,0
2023-10-23T22:50:36.065752680+00:00,1,0
2023-10-23T22:50:36.065802680+00:00,0,0
2023-10-23T22:50:36.066804660+00:00,0,1
2023-10-23T22:50:36.066804700+00:00,0,0
2023-10-23T22:50:36.068752660+00:00,1,0
2023-10-23T22:50:36.068802680+00:00,0,0
2023-10-23T22:50:36.069803320+00:00,0,1
2023-10-23T22:50:36.069803380+00:00,0,0
2023-10-23T22:50:36.071752660+00:00,1,0
2023-10-23T22:50:36.071802660+00:00,0,0
2023-10-23T22:50:36.072802000+00:00,0,1
2023-10-23T22:50:36.072802060+00:00,0,0
2023-10-23T22:50:36.074752640+00:00,1,0
2023-10-23T22:50:36.074802660+00:00,0,0
2023-10-23T22:50:36.075800680+00:00,0,1
2023-10-23T22:50:36.075800720+00:00,0,0
2023-10-23T22:50:36.077752640+00:00,1,0
2023-10-23T22:50:36.077802640+00:00,0,0
2023-10-23T22:50:36.078799320+00:00,0,1
2023-10-23T22:50:36.078799360+00:00,0,0
2023-10-23T22:50:36.080752640+00:00,1,0
2023-10-23T22:50:36.080802640+00:00,0,0
2023-10-23T22:50:36.081806700+00:00,0,1
2023-10-23T22:50:36.081806740+00:00,0,0
2023-10-23T22:50:36.083752620+00:00,1,0
2023-10-23T22:50:36.083802620+00:00,0,0
2023-10-23T22:50:36.084805360+00:00,0,1
2023-10-23T22:50:36.084805420+00:00,0,0
2023-10-23T22:50:36.086752620+00:00,1,0
2023-10-23T22:50:36.086802620+00:00,0,0
2023-10-23T22:50:36.087804040+00:00,0,1
2023-10-23T22:50:36.087804100+00:00,0,0
2023-10-23T22:50:36.089752600+00:00,1,0
2023-10-23T22:50:36.089802620+00:00,0,0
2023-10-23T22:50:36.090802720+00:00,0,1
2023-10-23T22:50:36.090802760+00:00,0,0
2023-10-23T22:50:36.092752600+00:00,1,0
2023-10-23T22:50:36.092802600+00:00,0,0
2023-10-23T22:50:36.093801400+00:00,0,1
2023-10-23T22:50:36.093801440+00:00,0,0
2023-10-23T22:50:36.095752580+00:00,1,0
2023-10-23T22:50:36.095802600+00:00,0,0
2023-10-23T22:50:36.096800060+00:00,0,1
2023-10-23T22:50:36.096800120+00:00,0,0
2023-10-23T22:50:36.098752580+00:00,1,0
2023-10-23T22:50:36.098802580+00:00,0,0
2023-10-23T22:50:36.099807420+00:00,0,1
2023-10-23T22:50:36.099807460+00:00,0,0
2023-10-23T22:50:36.101752560+00:00,1,0
2023-10-23T22:50:36.101802580+00:00,0,0
2023-10-23T22:50:36.102806080+00:00,0,1
2023-10-23T22:50:36.102806140+00:00,0,0
2023-10-23T22:50:36.104752560+00:00,1,0
2023-10-23T22:50:36.104802560+00:00,0,0
2023-10-23T22:50:36.105804760+00:00,0,1
2023-10-23T22:50:36.105804800+00:00,0,0
2023-10-23T22:50:36.107752540+00:00,1,0
2023-10-23T22:50:36.107802560+00:00,0,0
2023-10-23T22:50:36.108803440+00:00,0,1
2023-10-23T22:50:36.108803480+00:00,0,0
2023-10-23T22:50:36.110752540+00:00,1,0
2023-10-23T22:50:36.110802540+00:00,0,0
2023-10-23T22:50:36.111802100+00:00,0,1
2023-10-23T22:50:36.111802160+00:00,0,0
2023-10-23T22:50:36.113752540+00:00,1,0
2023-10-23T22:50:36.113802540+00:00,0,0
2023-10-23T22:50:36.114800780+00:00,0,1
2023-10-23T22:50:36.114800840+00:00,0,0
2023-10-23T22:50:36.116752520+00:00,1,0
2023-10-23T22:50:36.116802520+00:00,0,0
2023-10-23T22:50:36.117799460+00:00,0,1
2023-10-23T22:50:36.117799500+00:00,0,0
2023-10-23T22:50:36.119752520+00:00,1,0
2023-10-23T22:50:36.119802520+00:00,0,0
2023-10-23T22:50:36.120806860+00:00,0,1
2023-10-23T22:50:36.120806900+00:00,0,0
2023-10-23T22:50:36.122752500+00:00,1,0
2023-10-23T22:50:36.122802520+00:00,0,0
2023-10-23T22:50:36.123805540+00:00,0,1
2023-10-23T22:50:36.123805580+00:00,0,0
2023-10-23T22:50:36.125752500+00:00,1,0
2023-10-23T22:50:36.125802500+00:00,0,0
2023-10-23T22:50:36.126804200+00:00,0,1
2023-10-23T22:50:36.126804260+00:00,0,0
2023-10-23T22:50:36.128752480+00:00,1,0
2023-10-23T22:50:36.128802500+00:00,0,0
2023-10-23T22:50:36.129802880+00:00,0,1
2023-10-23T22:50:36.129802940+00:00,0,0
2023-10-23T22:50:36.131752480+00:00,1,0
2023-10-23T22:50:36.131802480+00:00,0,0
2023-10-23T22:50:36.132801520+00:00,0,1
2023-10-23T22:50:36.132801560+00:00,0,0
2023-10-23T22:50:36.134752460+00:00,1,0
2023-10-23T22:50:36.134802480+00:00,0,0
2023-10-23T22:50:36.135800180+00:00,0,1
2023-10-23T22:50:36.135800220+00:00,0,0
2023-10-23T22:50:36.137752460+00:00,1,0
2023-10-23T22:50:36.137802460+00:00,0,0
2023-10-23T22:50:36.138807520+00:00,0,1
2023-10-23T22:50:36.138807580+00:00,0,0
2023-10-23T22:50:36.140752460+00:00,1,0
2023-10-23T22:50:36.140802460+00:00,0,0
2023-10-23T22:50:36.141806180+00:00,0,1
2023-10-23T22:50:36.141806240+00:00,0,0
2023-10-23T22:50:36.143752440+00:00,1,0
2023-10-23T22:50:36.143802440+00:00,0,0
2023-10-23T22:50:36.144804860+00:00,0,1
2023-10-23T22:50:36.144804920+00:00,0,0
2023-10-23T22:50:36.146752440+00:00,1,0
2023-10-23T22:50:36.146802440+00:00,0,0
2023-10-23T22:50:36.147803540+00:00,0,1
2023-10-23T22:50:36.147803580+00:00,0,0
2023-10-23T22:50:36.149752420+00:00,1,0
2023-10-23T22:50:36.149802420+00:00,0,0
2023-10-23T22:50:36.150802220+00:00,0,1
2023-10-23T22:50:36.150802260+00:00,0,0
2023-10-23T22:50:36.152752420+00:00,1,0
2023-10-23T22:50:36.152802420+00:00,0,0
2023-10-23T22:50:36.153800880+00:00,0,1
2023-10-23T22:50:36.153800940+00:00,0,0
2023-10-23T22:50:36.155752400+00:00,1,0
2023-10-23T22:50:36.155802420+00:00,0,0
2023-10-23T22:50:36.156799560+00:00,0,1
2023-10-23T22:50:36.156799620+00:00,0,0
2023-10-23T22:50:36.158752400+00:00,1,0
2023-10-23T22:50:36.158802400+00:00,0,0
2023-10-23T22:50:36.159806960+00:00,0,1
2023-10-23T22:50:36.159807020+00:00,0,0
2023-10-23T22:50:36.161752380+00:00,1,0
2023-10-23T22:50:36.161802400+00:00,0,0
2023-10-23T22:50:36.162805600+00:00,0,1
2023-10-23T22:50:36.162805640+00:00,0,0
2023-10-23T22:50:36.164752380+00:00,1,0
2023-10-23T22:50:36.164802380+00:00,0,0
2023-10-23T22:50:36.165804260+00:00,0,1
2023-10-23T22:50:36.165804300+00:00,0,0
2023-10-23T22:50:36.167752360+00:00,1,0
2023-10-23T22:50:36.167802380+00:00,0,0
2023-10-23T22:50:36.168802920+00:00,0,1
2023-10-23T22:50:36.168802980+00:00,0,0
2023-10-23T22:50:36.170752360+00:00,1,0
2023-10-23T22:50:36.170802360+00:00,0,0
2023-10-23T22:50:36.171801600+00:00,0,1
2023-10-23T22:50:36.171801660+00:00,0,0
2023-10-23T22:50:36.173752360+00:00,1,0
2023-10-23T22:50:36.173802360+00:00,0,0
2023-10-23T22:50:36.174800280+00:00,0,1
2023-10-23T22:50:36.174800320+00:00,0,0
2023-10-23T22:50:36.176752340+00:00,1,0
2023-10-23T22:50:36.176802340+00:00,0,0
2023-10-23T22:50:36.177798960+00:00,0,1
2023-10-23T22:50:36.177799000+00:00,0,0
2023-10-23T22:50:36.179752340+00:00,1,0
2023-10-23T22:50:36.179802340+00:00,0,0
2023-10-23T22:50:36.180806300+00:00,0,1
2023-10-23T22:50:36.180806340+00:00,0,0
2023-10-23T22:50:36.182752320+00:00,1,0
2023-10-23T22:50:36.182802340+00:00,0,0
2023-10-23T22:50:36.183804960+00:00,0,1
2023-10-23T22:50:36.183805020+00:00,0,0
2023-10-23T22:50:36.185752320+00:00,1,0
2023-10-23T22:50:36.185802320+00:00,0,0
2023-10-23T22:50:36.186803640+00:00,0,1
2023-10-23T22:50:36.186803700+00:00,0,0
2023-10-23T22:50:36.188752300+00:00,1,0
2023-10-23T22:50:36.188802320+00:00,0,0
2023-10-23T22:50:36.189802280+00:00,0,1
2023-10-23T22:50:36.189802340+00:00,0,0
2023-10-23T22:50:36.191752300+00:00,1,0
2023-10-23T22:50:36.191802300+00:00,0,0
2023-10-23T22:50:36.192800960+00:00,0,1
2023-10-23T22:50:36.192801000+00:00,0,0
2023-10-23T22:50:36.194752280+00:00,1,0
2023-10-23T22:50:36.194802300+00:00,0,0
2023-10-23T22:50:36.195799640+00:00,0,1
2023-10-23T22:50:36.195799680+00:00,0,0
2023-10-23T22:50:36.197752280+00:00,1,0
2023-10-23T22:50:36.197802280+00:00,0,0
2023-10-23T22:50:36.198807020+00:00,0,1
2023-10-23T22:50:36.198807060+00:00,0,0
2023-10-23T22:50:36.200752260+00:00,1,0
2023-10-23T22:50:36.200802280+00:00,0,0
2023-10-23T22:50:36.201805680+00:00,0,1
2023-10-23T22:50:36.201805740+00:00,0,0
2023-10-23T22:50:36.203752260+00:00,1,0
2023-10-23T22:50:36.203802260+00:00,0,0
2023-10-23T22:50:36.204804360+00:00,0,1
2023-10-23T22:50:36.204804400+00:00,0,0
2023-10-23T22:50:36.206752260+00:00,1,0
2023-10-23T22:50:36.206802260+00:00,0,0
2023-10-23T22:50:36.207803040+00:00,0,1
2023-10-23T22:50:36.207803080+00:00,0,0
2023-10-23T22:50:36.209752240+00:00,1,0
2023-10-23T22:50:36.209802240+00:00,0,0
2023-10-23T22:50:36.210801720+00:00,0,1
2023-10-23T22:50:36.210801760+00:00,0,0
2023-10-23T22:50:36.212752240+00:00,1,0
2023-10-23T22:50:36.212802240+00:00,0,0
2023-10-23T22:50:36.213800340+00:00,0,1
2023-10-23T22:50:36.213800400+00:00,0,0
2023-10-23T22:50:36.215752220+00:00,1,0
2023-10-23T22:50:36.215802240+00:00,0,0
2023-10-23T22:50:36.216799020+00:00,0,1
2023-10-23T22:50:36.216799080+00:00,0,0
2023-10-23T22:50:36.218752220+00:00,1,0
2023-10-23T22:50:36.218802220+00:00,0,0
2023-10-23T22:50:36.219806400+00:00,0,1
2023-10-23T22:50:36.219806440+00:00,0,0
2023-10-23T22:50:36.221752200+00:00,1,0
2023-10-23T22:50:36.221802220+00:00,0,0
2023-10-23T22:50:36.222805040+00:00,0,1
2023-10-23T22:50:36.222805080+00:00,0,0
2023-10-23T22:50:36.224752200+00:00,1,0
2023-10-23T22:50:36.224802200+00:00,0,0
2023-10-23T22:50:36.225803720+00:00,0,1
2023-10-23T22:50:36.225803760+00:00,0,0
2023-10-23T22:50:36.227752180+00:00,1,0
2023-10-23T22:50:36.227802200+00:00,0,0
2023-10-23T22:50:36.228802400+00:00,0,1
2023-10-23T22:50:36.228802440+00:00,0,0
2023-10-23T22:50:36.230752180+00:00,1,0
2023-10-23T22:50:36.230802180+00:00,0,0
2023-10-23T22:50:36.231801100+00:00,0,1
2023-10-23T22:50:36.231801140+00:00,0,0
2023-10-23T22:50:36.233752160+00:00,1,0
2023-10-23T22:50:36.233802180+00:00,0,0
2023-10-23T22:50:36.234799780+00:00,0,1
2023-10-23T22:50:36.234799820+00:00,0,0
2023-10-23T22:50:36.236752160+00:00,1,0
2023-10-23T22:50:36.236802160+00:00,0,0
2023-10-23T22:50:36.237807180+00:00,0,1
2023-10-23T22:50:36.237807220+00:00,0,0
2023-10-23T22:50:36.239752160+00:00,1,0
2023-10-23T22:50:36.239802160+00:00,0,0
