Time [s],Channel 0,Channel 1
2023-12-20T10:18:46.411287000+00:00,0,0
2023-12-20T10:18:46.543560430+00:00,1,0
2023-12-20T10:18:46.543610450+00:00,0,0
2023-12-20T10:18:46.547862800+00:00,0,1
2023-12-20T10:18:46.547863250+00:00,0,0
2023-12-20T10:18:46.843559540+00:00,1,0
2023-12-20T10:18:46.843609560+00:00,0,0
2023-12-20T10:18:46.851503490+00:00,0,1
2023-12-20T10:18:46.851503950+00:00,0,0
2023-12-20T10:18:47.143558650+00:00,1,0
2023-12-20T10:18:47.143608670+00:00,0,0
2023-12-20T10:18:47.146960280+00:00,0,1
2023-12-20T10:18:47.146960730+00:00,0,0
2023-12-20T10:18:47.443557760+00:00,1,0
2023-12-20T10:18:47.443607770+00:00,0,0
2023-12-20T10:18:47.451278340+00:00,0,1
2023-12-20T10:18:47.451278800+00:00,0,0
2023-12-20T10:18:47.743556860+00:00,1,0
2023-12-20T10:18:47.743606880+00:00,0,0
2023-12-20T10:18:47.754032050+00:00,0,1
2023-12-20T10:18:47.754032500+00:00,0,0
2023-12-20T10:18:48.043555970+00:00,1,0
2023-12-20T10:18:48.043605990+00:00,0,0
2023-12-20T10:18:48.047414390+00:00,0,1
2023-12-20T10:18:48.047414840+00:00,0,0
2023-12-20T10:18:48.343555080+00:00,1,0
2023-12-20T10:18:48.343605090+00:00,0,0
2023-12-20T10:18:48.346991840+00:00,0,1
2023-12-20T10:18:48.346992290+00:00,0,0
2023-12-20T10:18:48.643554190+00:00,1,0
2023-12-20T10:18:48.643604200+00:00,0,0
2023-12-20T10:18:48.651603140+00:00,0,1
2023-12-20T10:18:48.651603600+00:00,0,0
2023-12-20T10:18:48.943553300+00:00,1,0
2023-12-20T10:18:48.943603310+00:00,0,0
2023-12-20T10:18:48.949695670+00:00,0,1
2023-12-20T10:18:48.949696120+00:00,0,0
2023-12-20T10:18:49.243552400+00:00,1,0
2023-12-20T10:18:49.243602420+00:00,0,0
2023-12-20T10:18:49.249112200+00:00,0,1
2023-12-20T10:18:49.249112660+00:00,0,0
2023-12-20T10:18:49.543551510+00:00,1,0
2023-12-20T10:18:49.543601530+00:00,0,0
2023-12-20T10:18:49.547970870+00:00,0,1
2023-12-20T10:18:49.547971320+00:00,0,0
2023-12-20T10:18:49.843550620+00:00,1,0
2023-12-20T10:18:49.843600640+00:00,0,0
2023-12-20T10:18:49.855154160+00:00,0,1
2023-12-20T10:18:49.855154610+00:00,0,0
2023-12-20T10:18:50.143549730+00:00,1,0
2023-12-20T10:18:50.143599740+00:00,0,0
2023-12-20T10:18:50.153268080+00:00,0,1
2023-12-20T10:18:50.153268540+00:00,0,0
2023-12-20T10:18:50.443548840+00:00,1,0
2023-12-20T10:18:50.443598850+00:00,0,0
2023-12-20T10:18:50.451085970+00:00,0,1
2023-12-20T10:18:50.451086440+00:00,0,0
2023-12-20T10:18:50.743547940+00:00,1,0
2023-12-20T10:18:50.743597960+00:00,0,0
2023-12-20T10:18:50.756214820+00:00,0,1
2023-12-20T10:18:50.756215290+00:00,0,0
2023-12-20T10:18:51.043547050+00:00,1,0
2023-12-20T10:18:51.043597070+00:00,0,0
2023-12-20T10:18:51.048761970+00:00,0,1
2023-12-20T10:18:51.048762420+00:00,0,0
2023-12-20T10:18:51.343546160+00:00,1,0
2023-12-20T10:18:51.343596180+00:00,0,0
2023-12-20T10:18:51.349406140+00:00,0,1
2023-12-20T10:18:51.349406590+00:00,0,0
2023-12-20T10:18:51.643545270+00:00,1,0
2023-12-20T10:18:51.643595280+00:00,0,0
2023-12-20T10:18:51.655728080+00:00,0,1
2023-12-20T10:18:51.655728540+00:00,0,0
2023-12-20T10:18:51.943544380+00:00,1,0
2023-12-20T10:18:51.943594390+00:00,0,0
2023-12-20T10:18:51.948677870+00:00,0,1
2023-12-20T10:18:51.948678330+00:00,0,0
2023-12-20T10:18:52.243543480+00:00,1,0
2023-12-20T10:18:52.243593500+00:00,0,0
2023-12-20T10:18:52.248508060+00:00,0,1
2023-12-20T10:18:52.248508510+00:00,0,0
2023-12-20T10:18:52.543542590+00:00,1,0
2023-12-20T10:18:52.543592610+00:00,0,0
2023-12-20T10:18:52.547690640+00:00,0,1
2023-12-20T10:18:52.547691100+00:00,0,0
2023-12-20T10:18:52.843541700+00:00,1,0
2023-12-20T10:18:52.843591720+00:00,0,0
2023-12-20T10:18:52.853279940+00:00,0,1
2023-12-20T10:18:52.853280410+00:00,0,0
2023-12-20T10:18:53.143540810+00:00,1,0
2023-12-20T10:18:53.143590820+00:00,0,0
2023-12-20T10:18:53.146903050+00:00,0,1
2023-12-20T10:18:53.146903520+00:00,0,0
2023-12-20T10:18:53.443539910+00:00,1,0
2023-12-20T10:18:53.443589930+00:00,0,0
2023-12-20T10:18:53.450297660+00:00,0,1
2023-12-20T10:18:53.450298120+00:00,0,0
2023-12-20T10:18:53.743539020+00:00,1,0
2023-12-20T10:18:53.743589040+00:00,0,0
2023-12-20T10:18:53.751530120+00:00,0,1
2023-12-20T10:18:53.751530580+00:00,0,0
2023-12-20T10:18:54.043538130+00:00,1,0
2023-12-20T10:18:54.043588150+00:00,0,0
2023-12-20T10:18:54.048312690+00:00,0,1
2023-12-20T10:18:54.048313140+00:00,0,0
2023-12-20T10:18:54.343537240+00:00,1,0
2023-12-20T10:18:54.343587250+00:00,0,0
2023-12-20T10:18:54.347739010+00:00,0,1
2023-12-20T10:18:54.347739480+00:00,0,0
2023-12-20T10:18:54.643536340+00:00,1,0
2023-12-20T10:18:54.643586360+00:00,0,0
2023-12-20T10:18:54.651718080+00:00,0,1
2023-12-20T10:18:54.651718530+00:00,0,0
2023-12-20T10:18:54.943535450+00:00,1,0
2023-12-20T10:18:54.943585470+00:00,0,0
2023-12-20T10:18:54.950503380+00:00,0,1
2023-12-20T10:18:54.950503840+00:00,0,0
2023-12-20T10:18:55.243534560+00:00,1,0
2023-12-20T10:18:55.243584580+00:00,0,0
2023-12-20T10:18:55.248698310+00:00,0,1
2023-12-20T10:18:55.248698770+00:00,0,0
2023-12-20T10:18:55.543533670+00:00,1,0
2023-12-20T10:18:55.543583680+00:00,0,0
2023-12-20T10:18:55.548432880+00:00,0,1
2023-12-20T10:18:55.548433350+00:00,0,0
2023-12-20T10:18:55.843532770+00:00,1,0
2023-12-20T10:18:55.843582790+00:00,0,0
2023-12-20T10:18:55.846701650+00:00,0,1
2023-12-20T10:18:55.846702100+00:00,0,0
2023-12-20T10:18:56.143531880+00:00,1,0
2023-12-20T10:18:56.143581900+00:00,0,0
2023-12-20T10:18:56.150692800+00:00,0,1
2023-12-20T10:18:56.150693250+00:00,0,0
2023-12-20T10:18:56.443530990+00:00,1,0
2023-12-20T10:18:56.443581000+00:00,0,0
2023-12-20T10:18:56.451448190+00:00,0,1
2023-12-20T10:18:56.451448660+00:00,0,0
2023-12-20T10:18:56.743530090+00:00,1,0
2023-12-20T10:18:56.743580110+00:00,0,0
2023-12-20T10:18:56.757186950+00:00,0,1
2023-12-20T10:18:56.757187420+00:00,0,0
2023-12-20T10:18:57.043529200+00:00,1,0
2023-12-20T10:18:57.043579220+00:00,0,0
2023-12-20T10:18:57.046776270+00:00,0,1
2023-12-20T10:18:57.046776730+00:00,0,0
2023-12-20T10:18:57.343528310+00:00,1,0
2023-12-20T10:18:57.343578330+00:00,0,0
2023-12-20T10:18:57.349844480+00:00,0,1
2023-12-20T10:18:57.349844930+00:00,0,0
2023-12-20T10:18:57.643527420+00:00,1,0
2023-12-20T10:18:57.643577430+00:00,0,0
2023-12-20T10:18:57.651526440+00:00,0,1
2023-12-20T10:18:57.651526910+00:00,0,0
2023-12-20T10:18:57.943526520+00:00,1,0
2023-12-20T10:18:57.943576540+00:00,0,0
2023-12-20T10:18:57.952044840+00:00,0,1
2023-12-20T10:18:57.952045310+00:00,0,0
2023-12-20T10:18:58.243525630+00:00,1,0
2023-12-20T10:18:58.243575650+00:00,0,0
2023-12-20T10:18:58.246830890+00:00,0,1
2023-12-20T10:18:58.246831360+00:00,0,0
2023-12-20T10:18:58.543524740+00:00,1,0
2023-12-20T10:18:58.543574750+00:00,0,0
2023-12-20T10:18:58.548993210+00:00,0,1
2023-12-20T10:18:58.548993670+00:00,0,0
2023-12-20T10:18:58.843523850+00:00,1,0
2023-12-20T10:18:58.843573860+00:00,0,0
2023-12-20T10:18:58.854037530+00:00,0,1
2023-12-20T10:18:58.854037980+00:00,0,0
2023-12-20T10:18:59.143522950+00:00,1,0
2023-12-20T10:18:59.143572970+00:00,0,0
2023-12-20T10:18:59.152170410+00:00,0,1
2023-12-20T10:18:59.152170880+00:00,0,0
2023-12-20T10:18:59.443522060+00:00,1,0
2023-12-20T10:18:59.443572070+00:00,0,0
2023-12-20T10:18:59.450314700+00:00,0,1
2023-12-20T10:18:59.450315150+00:00,0,0
2023-12-20T10:18:59.743521170+00:00,1,0
2023-12-20T10:18:59.743571180+00:00,0,0
2023-12-20T10:18:59.753157760+00:00,0,1
2023-12-20T10:18:59.753170120+00:00,0,0
2023-12-20T10:19:00.043520270+00:00,1,0
2023-12-20T10:19:00.043570290+00:00,0,0
2023-12-20T10:19:00.051840210+00:00,0,1
2023-12-20T10:19:00.051840670+00:00,0,0
2023-12-20T10:19:00.343519380+00:00,1,0
2023-12-20T10:19:00.343569400+00:00,0,0
2023-12-20T10:19:00.347195580+00:00,0,1
2023-12-20T10:19:00.347196040+00:00,0,0
2023-12-20T10:19:00.643518490+00:00,1,0
2023-12-20T10:19:00.643568500+00:00,0,0
2023-12-20T10:19:00.649313780+00:00,0,1
2023-12-20T10:19:00.649314230+00:00,0,0
2023-12-20T10:19:00.943517590+00:00,1,0
2023-12-20T10:19:00.943567610+00:00,0,0
2023-12-20T10:19:00.952081930+00:00,0,1
2023-12-20T10:19:00.952082380+00:00,0,0
2023-12-20T10:19:01.243516700+00:00,1,0
2023-12-20T10:19:01.243566710+00:00,0,0
2023-12-20T10:19:01.247996210+00:00,0,1
2023-12-20T10:19:01.247996670+00:00,0,0
2023-12-20T10:19:01.543515800+00:00,1,0
2023-12-20T10:19:01.543565820+00:00,0,0
2023-12-20T10:19:01.549250730+00:00,0,1
2023-12-20T10:19:01.549251190+00:00,0,0
2023-12-20T10:19:01.843514910+00:00,1,0
2023-12-20T10:19:01.843564930+00:00,0,0
2023-12-20T10:19:01.854027980+00:00,0,1
2023-12-20T10:19:01.854028430+00:00,0,0
2023-12-20T10:19:02.143514020+00:00,1,0
2023-12-20T10:19:02.143564030+00:00,0,0
2023-12-20T10:19:02.148601380+00:00,0,1
2023-12-20T10:19:02.148601830+00:00,0,0
2023-12-20T10:19:02.443513120+00:00,1,0
2023-12-20T10:19:02.443563140+00:00,0,0
2023-12-20T10:19:02.451814620+00:00,0,1
2023-12-20T10:19:02.451815090+00:00,0,0
2023-12-20T10:19:02.743512230+00:00,1,0
2023-12-20T10:19:02.743562250+00:00,0,0
2023-12-20T10:19:02.756495520+00:00,0,1
2023-12-20T10:19:02.756495990+00:00,0,0
2023-12-20T10:19:03.043511340+00:00,1,0
2023-12-20T10:19:03.043561350+00:00,0,0
2023-12-20T10:19:03.057228340+00:00,0,1
2023-12-20T10:19:03.057228790+00:00,0,0
2023-12-20T10:19:03.343510440+00:00,1,0
2023-12-20T10:19:03.343560460+00:00,0,0
2023-12-20T10:19:03.352920760+00:00,0,1
2023-12-20T10:19:03.352921210+00:00,0,0
2023-12-20T10:19:03.643509550+00:00,1,0
2023-12-20T10:19:03.643559570+00:00,0,0
2023-12-20T10:19:03.646786500+00:00,0,1
2023-12-20T10:19:03.646786960+00:00,0,0
2023-12-20T10:19:03.943508660+00:00,1,0
2023-12-20T10:19:03.943558670+00:00,0,0
2023-12-20T10:19:03.953504670+00:00,0,1
2023-12-20T10:19:03.953505120+00:00,0,0
2023-12-20T10:19:04.243507760+00:00,1,0
2023-12-20T10:19:04.243557780+00:00,0,0
2023-12-20T10:19:04.247370720+00:00,0,1
2023-12-20T10:19:04.247371170+00:00,0,0
2023-12-20T10:19:04.543506870+00:00,1,0
2023-12-20T10:19:04.543556880+00:00,0,0
2023-12-20T10:19:04.549331310+00:00,0,1
2023-12-20T10:19:04.549331780+00:00,0,0
2023-12-20T10:19:04.843505970+00:00,1,0
2023-12-20T10:19:04.843555990+00:00,0,0
2023-12-20T10:19:04.856164510+00:00,0,1
2023-12-20T10:19:04.856164970+00:00,0,0
2023-12-20T10:19:05.143505080+00:00,1,0
2023-12-20T10:19:05.143555100+00:00,0,0
2023-12-20T10:19:05.150640190+00:00,0,1
2023-12-20T10:19:05.150640660+00:00,0,0
2023-12-20T10:19:05.443504190+00:00,1,0
2023-12-20T10:19:05.443554200+00:00,0,0
2023-12-20T10:19:05.447900220+00:00,0,1
2023-12-20T10:19:05.447900670+00:00,0,0
2023-12-20T10:19:05.743503290+00:00,1,0
2023-12-20T10:19:05.743553310+00:00,0,0
2023-12-20T10:19:05.755000490+00:00,0,1
2023-12-20T10:19:05.755000940+00:00,0,0
2023-12-20T10:19:06.043502400+00:00,1,0
2023-12-20T10:19:06.043552420+00:00,0,0
2023-12-20T10:19:06.047189310+00:00,0,1
2023-12-20T10:19:06.047189760+00:00,0,0
2023-12-20T10:19:06.343501500+00:00,1,0
2023-12-20T10:19:06.343551520+00:00,0,0
2023-12-20T10:19:06.351262610+00:00,0,1
2023-12-20T10:19:06.351263060+00:00,0,0
2023-12-20T10:19:06.643500610+00:00,1,0
2023-12-20T10:19:06.643550630+00:00,0,0
2023-12-20T10:19:06.648793090+00:00,0,1
2023-12-20T10:19:06.648793540+00:00,0,0
2023-12-20T10:19:06.943499720+00:00,1,0
2023-12-20T10:19:06.943549730+00:00,0,0
2023-12-20T10:19:06.956089600+00:00,0,1
2023-12-20T10:19:06.956090050+00:00,0,0
2023-12-20T10:19:07.243498820+00:00,1,0
2023-12-20T10:19:07.243548840+00:00,0,0
2023-12-20T10:19:07.246993390+00:00,0,1
2023-12-20T10:19:07.246993840+00:00,0,0
2023-12-20T10:19:07.543497930+00:00,1,0
2023-12-20T10:19:07.543547940+00:00,0,0
2023-12-20T10:19:07.548040130+00:00,0,1
2023-12-20T10:19:07.548040600+00:00,0,0
2023-12-20T10:19:07.843497030+00:00,1,0
2023-12-20T10:19:07.843547050+00:00,0,0
2023-12-20T10:19:07.852939870+00:00,0,1
2023-12-20T10:19:07.852940320+00:00,0,0
2023-12-20T10:19:08.143496140+00:00,1,0
2023-12-20T10:19:08.143546150+00:00,0,0
2023-12-20T10:19:08.151532060+00:00,0,1
2023-12-20T10:19:08.151532510+00:00,0,0
2023-12-20T10:19:08.443495240+00:00,1,0
2023-12-20T10:19:08.443545260+00:00,0,0
2023-12-20T10:19:08.448199210+00:00,0,1
2023-12-20T10:19:08.448199680+00:00,0,0
2023-12-20T10:19:08.743494350+00:00,1,0
2023-12-20T10:19:08.743544370+00:00,0,0
2023-12-20T10:19:08.752016070+00:00,0,1
2023-12-20T10:19:08.752016520+00:00,0,0
2023-12-20T10:19:09.043493460+00:00,1,0
2023-12-20T10:19:09.043543470+00:00,0,0
2023-12-20T10:19:09.049702190+00:00,0,1
2023-12-20T10:19:09.049702640+00:00,0,0
2023-12-20T10:19:09.343492560+00:00,1,0
2023-12-20T10:19:09.343542580+00:00,0,0
2023-12-20T10:19:09.348428380+00:00,0,1
2023-12-20T10:19:09.348428830+00:00,0,0
2023-12-20T10:19:09.643491670+00:00,1,0
2023-12-20T10:19:09.643541680+00:00,0,0
2023-12-20T10:19:09.651304270+00:00,0,1
2023-12-20T10:19:09.651304740+00:00,0,0
2023-12-20T10:19:09.943490770+00:00,1,0
2023-12-20T10:19:09.943540790+00:00,0,0
2023-12-20T10:19:09.956175260+00:00,0,1
2023-12-20T10:19:09.956175730+00:00,0,0
2023-12-20T10:19:10.243489880+00:00,1,0
2023-12-20T10:19:10.243539890+00:00,0,0
2023-12-20T10:19:10.255250500+00:00,0,1
2023-12-20T10:19:10.255250960+00:00,0,0
2023-12-20T10:19:10.543488980+00:00,1,0
2023-12-20T10:19:10.543539000+00:00,0,0
2023-12-20T10:19:10.547548550+00:00,0,1
2023-12-20T10:19:10.547549000+00:00,0,0
2023-12-20T10:19:10.843488090+00:00,1,0
2023-12-20T10:19:10.843538100+00:00,0,0
2023-12-20T10:19:10.852079850+00:00,0,1
2023-12-20T10:19:10.852080300+00:00,0,0
2023-12-20T10:19:11.143487190+00:00,1,0
2023-12-20T10:19:11.143537210+00:00,0,0
2023-12-20T10:19:11.148901560+00:00,0,1
2023-12-20T10:19:11.148902020+00:00,0,0
2023-12-20T10:19:11.443486300+00:00,1,0
2023-12-20T10:19:11.443536310+00:00,0,0
2023-12-20T10:19:11.446668110+00:00,0,1
2023-12-20T10:19:11.446668580+00:00,0,0
2023-12-20T10:19:11.743485400+00:00,1,0
2023-12-20T10:19:11.743535420+00:00,0,0
2023-12-20T10:19:11.754459830+00:00,0,1
2023-12-20T10:19:11.754460290+00:00,0,0
2023-12-20T10:19:12.043484510+00:00,1,0
2023-12-20T10:19:12.043534520+00:00,0,0
2023-12-20T10:19:12.047091730+00:00,0,1
2023-12-20T10:19:12.047092190+00:00,0,0
2023-12-20T10:19:12.343483610+00:00,1,0
2023-12-20T10:19:12.343533630+00:00,0,0
2023-12-20T10:19:12.350291480+00:00,0,1
2023-12-20T10:19:12.350291940+00:00,0,0
2023-12-20T10:19:12.643482720+00:00,1,0
2023-12-20T10:19:12.643532740+00:00,0,0
2023-12-20T10:19:12.649171540+00:00,0,1
2023-12-20T10:19:12.649171990+00:00,0,0
2023-12-20T10:19:12.943481820+00:00,1,0
2023-12-20T10:19:12.943531840+00:00,0,0
2023-12-20T10:19:12.951897270+00:00,0,1
2023-12-20T10:19:12.951897720+00:00,0,0
2023-12-20T10:19:13.243480930+00:00,1,0
2023-12-20T10:19:13.243530950+00:00,0,0
2023-12-20T10:19:13.249621320+00:00,0,1
2023-12-20T10:19:13.249621780+00:00,0,0
2023-12-20T10:19:13.543480030+00:00,1,0
2023-12-20T10:19:13.543530050+00:00,0,0
2023-12-20T10:19:13.549410770+00:00,0,1
2023-12-20T10:19:13.549411220+00:00,0,0
2023-12-20T10:19:13.843479140+00:00,1,0
2023-12-20T10:19:13.843529160+00:00,0,0
2023-12-20T10:19:13.853288670+00:00,0,1
2023-12-20T10:19:13.853289120+00:00,0,0
2023-12-20T10:19:14.143478240+00:00,1,0
2023-12-20T10:19:14.143528260+00:00,0,0
2023-12-20T10:19:14.151914730+00:00,0,1
2023-12-20T10:19:14.151915180+00:00,0,0
2023-12-20T10:19:14.443477350+00:00,1,0
2023-12-20T10:19:14.443527370+00:00,0,0
2023-12-20T10:19:14.451090010+00:00,0,1
2023-12-20T10:19:14.451090470+00:00,0,0
2023-12-20T10:19:14.743476450+00:00,1,0
2023-12-20T10:19:14.743526470+00:00,0,0
2023-12-20T10:19:14.746763100+00:00,0,1
2023-12-20T10:19:14.746763570+00:00,0,0
2023-12-20T10:19:15.043475560+00:00,1,0
2023-12-20T10:19:15.043525580+00:00,0,0
2023-12-20T10:19:15.051971860+00:00,0,1
2023-12-20T10:19:15.051972310+00:00,0,0
2023-12-20T10:19:15.343474660+00:00,1,0
2023-12-20T10:19:15.343524680+00:00,0,0
2023-12-20T10:19:15.352879100+00:00,0,1
2023-12-20T10:19:15.352879550+00:00,0,0
2023-12-20T10:19:15.643473770+00:00,1,0
2023-12-20T10:19:15.643523790+00:00,0,0
2023-12-20T10:19:15.651535980+00:00,0,1
2023-12-20T10:19:15.651536440+00:00,0,0
2023-12-20T10:19:15.943472870+00:00,1,0
2023-12-20T10:19:15.943522890+00:00,0,0
2023-12-20T10:19:15.956022510+00:00,0,1
2023-12-20T10:19:15.956022960+00:00,0,0
2023-12-20T10:19:16.243471980+00:00,1,0
2023-12-20T10:19:16.243521990+00:00,0,0
2023-12-20T10:19:16.246879630+00:00,0,1
2023-12-20T10:19:16.246880100+00:00,0,0
2023-12-20T10:19:16.543471080+00:00,1,0
2023-12-20T10:19:16.543521100+00:00,0,0
2023-12-20T10:19:16.548070400+00:00,0,1
2023-12-20T10:19:16.548070850+00:00,0,0
2023-12-20T10:19:16.843470190+00:00,1,0
2023-12-20T10:19:16.843520200+00:00,0,0
2023-12-20T10:19:16.852144380+00:00,0,1
2023-12-20T10:19:16.852144840+00:00,0,0
2023-12-20T10:19:17.143469290+00:00,1,0
2023-12-20T10:19:17.143519310+00:00,0,0
2023-12-20T10:19:17.149577450+00:00,0,1
2023-12-20T10:19:17.149577920+00:00,0,0
2023-12-20T10:19:17.443468400+00:00,1,0
2023-12-20T10:19:17.443518410+00:00,0,0
2023-12-20T10:19:17.446791540+00:00,0,1
2023-12-20T10:19:17.446792010+00:00,0,0
2023-12-20T10:19:17.743467500+00:00,1,0
2023-12-20T10:19:17.743517520+00:00,0,0
2023-12-20T10:19:17.751752360+00:00,0,1
2023-12-20T10:19:17.751752810+00:00,0,0
2023-12-20T10:19:18.043466610+00:00,1,0
2023-12-20T10:19:18.043516620+00:00,0,0
2023-12-20T10:19:18.051866190+00:00,0,1
2023-12-20T10:19:18.051866650+00:00,0,0
2023-12-20T10:19:18.343465710+00:00,1,0
2023-12-20T10:19:18.343515730+00:00,0,0
2023-12-20T10:19:18.347245730+00:00,0,1
2023-12-20T10:19:18.347246200+00:00,0,0
2023-12-20T10:19:18.643464820+00:00,1,0
2023-12-20T10:19:18.643514830+00:00,0,0
2023-12-20T10:19:18.646789230+00:00,0,1
2023-12-20T10:19:18.646789690+00:00,0,0
2023-12-20T10:19:18.943463920+00:00,1,0
2023-12-20T10:19:18.943513940+00:00,0,0
2023-12-20T10:19:18.951782640+00:00,0,1
2023-12-20T10:19:18.951783110+00:00,0,0
2023-12-20T10:19:19.243463030+00:00,1,0
2023-12-20T10:19:19.243513040+00:00,0,0
2023-12-20T10:19:19.248142300+00:00,0,1
2023-12-20T10:19:19.248142770+00:00,0,0
2023-12-20T10:19:19.543462130+00:00,1,0
2023-12-20T10:19:19.543512150+00:00,0,0
2023-12-20T10:19:19.552244140+00:00,0,1
2023-12-20T10:19:19.552244600+00:00,0,0
2023-12-20T10:19:19.843461240+00:00,1,0
2023-12-20T10:19:19.843511250+00:00,0,0
2023-12-20T10:19:19.852298850+00:00,0,1
2023-12-20T10:19:19.852299310+00:00,0,0
2023-12-20T10:19:20.143460340+00:00,1,0
2023-12-20T10:19:20.143510360+00:00,0,0
2023-12-20T10:19:20.153721070+00:00,0,1
2023-12-20T10:19:20.153721520+00:00,0,0
2023-12-20T10:19:20.443459440+00:00,1,0
2023-12-20T10:19:20.443509460+00:00,0,0
2023-12-20T10:19:20.446856860+00:00,0,1
2023-12-20T10:19:20.446857310+00:00,0,0
2023-12-20T10:19:20.743458550+00:00,1,0
2023-12-20T10:19:20.743508570+00:00,0,0
2023-12-20T10:19:20.755127930+00:00,0,1
2023-12-20T10:19:20.755128380+00:00,0,0
2023-12-20T10:19:21.043457650+00:00,1,0
2023-12-20T10:19:21.043507670+00:00,0,0
2023-12-20T10:19:21.050480720+00:00,0,1
2023-12-20T10:19:21.050481180+00:00,0,0
2023-12-20T10:19:21.343456760+00:00,1,0
2023-12-20T10:19:21.343506770+00:00,0,0
2023-12-20T10:19:21.351475340+00:00,0,1
2023-12-20T10:19:21.351475800+00:00,0,0
2023-12-20T10:19:21.643455860+00:00,1,0
2023-12-20T10:19:21.643505880+00:00,0,0
2023-12-20T10:19:21.651136420+00:00,0,1
2023-12-20T10:19:21.651136890+00:00,0,0
2023-12-20T10:19:21.943454970+00:00,1,0
2023-12-20T10:19:21.943504980+00:00,0,0
2023-12-20T10:19:21.950927560+00:00,0,1
2023-12-20T10:19:21.950928030+00:00,0,0
2023-12-20T10:19:22.243454070+00:00,1,0
2023-12-20T10:19:22.243504090+00:00,0,0
2023-12-20T10:19:22.246931380+00:00,0,1
2023-12-20T10:19:22.246931840+00:00,0,0
2023-12-20T10:19:22.543453180+00:00,1,0
2023-12-20T10:19:22.543503190+00:00,0,0
2023-12-20T10:19:22.546998340+00:00,0,1
2023-12-20T10:19:22.546998790+00:00,0,0
2023-12-20T10:19:22.843452280+00:00,1,0
2023-12-20T10:19:22.843502300+00:00,0,0
2023-12-20T10:19:22.854082920+00:00,0,1
2023-12-20T10:19:22.854083370+00:00,0,0
2023-12-20T10:19:23.143451380+00:00,1,0
2023-12-20T10:19:23.143501400+00:00,0,0
2023-12-20T10:19:23.151114440+00:00,0,1
2023-12-20T10:19:23.151114900+00:00,0,0
2023-12-20T10:19:23.443450490+00:00,1,0
2023-12-20T10:19:23.443500500+00:00,0,0
2023-12-20T10:19:23.448688170+00:00,0,1
2023-12-20T10:19:23.448688640+00:00,0,0
2023-12-20T10:19:23.743449590+00:00,1,0
2023-12-20T10:19:23.743499610+00:00,0,0
