Time [s],Channel 0,Channel 1
2023-12-20T12:45:15.761315000+00:00,0,0
2023-12-20T12:45:15.901026030+00:00,1,0
2023-12-20T12:45:15.901076050+00:00,0,0
2023-12-20T12:45:15.974153750+00:00,0,1
2023-12-20T12:45:15.974154210+00:00,0,0
2023-12-20T12:45:16.201025180+00:00,1,0
2023-12-20T12:45:16.201075200+00:00,0,0
2023-12-20T12:45:16.281395290+00:00,0,1
2023-12-20T12:45:16.281395780+00:00,0,0
2023-12-20T12:45:16.501024330+00:00,1,0
2023-12-20T12:45:16.501074340+00:00,0,0
2023-12-20T12:45:16.588411140+00:00,0,1
2023-12-20T12:45:16.588411590+00:00,0,0
2023-12-20T12:45:16.801023480+00:00,1,0
2023-12-20T12:45:16.801073490+00:00,0,0
2023-12-20T12:45:16.896539390+00:00,0,1
2023-12-20T12:45:16.896539840+00:00,0,0
2023-12-20T12:45:17.101022620+00:00,1,0
2023-12-20T12:45:17.101072640+00:00,0,0
2023-12-20T12:45:17.202918220+00:00,0,1
2023-12-20T12:45:17.202918680+00:00,0,0
2023-12-20T12:45:17.401021770+00:00,1,0
2023-12-20T12:45:17.401071790+00:00,0,0
2023-12-20T12:45:17.513991570+00:00,0,1
2023-12-20T12:45:17.514003980+00:00,0,0
2023-12-20T12:45:17.701020920+00:00,1,0
2023-12-20T12:45:17.701070930+00:00,0,0
2023-12-20T12:45:17.817753580+00:00,0,1
2023-12-20T12:45:17.817754040+00:00,0,0
2023-12-20T12:45:18.001020070+00:00,1,0
2023-12-20T12:45:18.001070080+00:00,0,0
2023-12-20T12:45:18.124576160+00:00,0,1
2023-12-20T12:45:18.124576620+00:00,0,0
2023-12-20T12:45:18.301019210+00:00,1,0
2023-12-20T12:45:18.301069230+00:00,0,0
2023-12-20T12:45:18.330768900+00:00,0,1
2023-12-20T12:45:18.330769350+00:00,0,0
2023-12-20T12:45:18.601018360+00:00,1,0
2023-12-20T12:45:18.601068370+00:00,0,0
2023-12-20T12:45:18.637042230+00:00,0,1
2023-12-20T12:45:18.637042680+00:00,0,0
2023-12-20T12:45:18.901017510+00:00,1,0
2023-12-20T12:45:18.901067520+00:00,0,0
2023-12-20T12:45:18.943735320+00:00,0,1
2023-12-20T12:45:18.943735790+00:00,0,0
2023-12-20T12:45:19.201016650+00:00,1,0
2023-12-20T12:45:19.201066670+00:00,0,0
2023-12-20T12:45:19.251726040+00:00,0,1
2023-12-20T12:45:19.251726500+00:00,0,0
2023-12-20T12:45:19.501015800+00:00,1,0
2023-12-20T12:45:19.501065820+00:00,0,0
2023-12-20T12:45:19.559834350+00:00,0,1
2023-12-20T12:45:19.559834810+00:00,0,0
2023-12-20T12:45:19.801014950+00:00,1,0
2023-12-20T12:45:19.801064960+00:00,0,0
2023-12-20T12:45:19.865407880+00:00,0,1
2023-12-20T12:45:19.865408330+00:00,0,0
2023-12-20T12:45:20.101014100+00:00,1,0
2023-12-20T12:45:20.101064110+00:00,0,0
2023-12-20T12:45:20.114204570+00:00,0,1
2023-12-20T12:45:20.114205020+00:00,0,0
2023-12-20T12:45:20.401013240+00:00,1,0
2023-12-20T12:45:20.401063260+00:00,0,0
2023-12-20T12:45:20.479506570+00:00,0,1
2023-12-20T12:45:20.479507020+00:00,0,0
2023-12-20T12:45:20.701012390+00:00,1,0
2023-12-20T12:45:20.701062400+00:00,0,0
2023-12-20T12:45:20.788677700+00:00,0,1
2023-12-20T12:45:20.788678160+00:00,0,0
2023-12-20T12:45:21.001011540+00:00,1,0
2023-12-20T12:45:21.001061550+00:00,0,0
2023-12-20T12:45:21.098828740+00:00,0,1
2023-12-20T12:45:21.098829200+00:00,0,0
2023-12-20T12:45:21.301010680+00:00,1,0
2023-12-20T12:45:21.301060700+00:00,0,0
2023-12-20T12:45:21.402809630+00:00,0,1
2023-12-20T12:45:21.402810100+00:00,0,0
2023-12-20T12:45:21.601009830+00:00,1,0
2023-12-20T12:45:21.601059840+00:00,0,0
2023-12-20T12:45:21.708505960+00:00,0,1
2023-12-20T12:45:21.708506420+00:00,0,0
2023-12-20T12:45:21.901008970+00:00,1,0
2023-12-20T12:45:21.901058990+00:00,0,0
2023-12-20T12:45:22.015740480+00:00,0,1
2023-12-20T12:45:22.015740930+00:00,0,0
2023-12-20T12:45:22.201008120+00:00,1,0
2023-12-20T12:45:22.201058140+00:00,0,0
2023-12-20T12:45:22.322965090+00:00,0,1
2023-12-20T12:45:22.322965550+00:00,0,0
2023-12-20T12:45:22.501007270+00:00,1,0
2023-12-20T12:45:22.501057280+00:00,0,0
2023-12-20T12:45:22.542657510+00:00,0,1
2023-12-20T12:45:22.542657970+00:00,0,0
2023-12-20T12:45:22.801006410+00:00,1,0
2023-12-20T12:45:22.801056430+00:00,0,0
2023-12-20T12:45:22.836264180+00:00,0,1
2023-12-20T12:45:22.836264630+00:00,0,0
2023-12-20T12:45:23.101005560+00:00,1,0
2023-12-20T12:45:23.101055570+00:00,0,0
2023-12-20T12:45:23.142203920+00:00,0,1
2023-12-20T12:45:23.142204370+00:00,0,0
2023-12-20T12:45:23.401004700+00:00,1,0
2023-12-20T12:45:23.401054720+00:00,0,0
2023-12-20T12:45:23.449761380+00:00,0,1
2023-12-20T12:45:23.449761850+00:00,0,0
2023-12-20T12:45:23.701003850+00:00,1,0
2023-12-20T12:45:23.701053870+00:00,0,0
2023-12-20T12:45:23.756994580+00:00,0,1
2023-12-20T12:45:23.756995040+00:00,0,0
2023-12-20T12:45:24.001003000+00:00,1,0
2023-12-20T12:45:24.001053010+00:00,0,0
2023-12-20T12:45:24.068847920+00:00,0,1
2023-12-20T12:45:24.068848390+00:00,0,0
2023-12-20T12:45:24.301002140+00:00,1,0
2023-12-20T12:45:24.301052160+00:00,0,0
2023-12-20T12:45:24.371092900+00:00,0,1
2023-12-20T12:45:24.371093370+00:00,0,0
2023-12-20T12:45:24.601001290+00:00,1,0
2023-12-20T12:45:24.601051310+00:00,0,0
2023-12-20T12:45:24.679926910+00:00,0,1
2023-12-20T12:45:24.679927370+00:00,0,0
2023-12-20T12:45:24.901000430+00:00,1,0
2023-12-20T12:45:24.901050450+00:00,0,0
2023-12-20T12:45:24.985247390+00:00,0,1
2023-12-20T12:45:24.985247840+00:00,0,0
2023-12-20T12:45:25.200999580+00:00,1,0
2023-12-20T12:45:25.201049600+00:00,0,0
2023-12-20T12:45:25.293165540+00:00,0,1
2023-12-20T12:45:25.293165990+00:00,0,0
2023-12-20T12:45:25.500998730+00:00,1,0
2023-12-20T12:45:25.501048740+00:00,0,0
2023-12-20T12:45:25.603801230+00:00,0,1
2023-12-20T12:45:25.603801700+00:00,0,0
2023-12-20T12:45:25.800997870+00:00,1,0
2023-12-20T12:45:25.801047890+00:00,0,0
2023-12-20T12:45:25.907311430+00:00,0,1
2023-12-20T12:45:25.907311900+00:00,0,0
2023-12-20T12:45:26.100997020+00:00,1,0
2023-12-20T12:45:26.101047030+00:00,0,0
2023-12-20T12:45:26.214781920+00:00,0,1
2023-12-20T12:45:26.214782380+00:00,0,0
2023-12-20T12:45:26.400996160+00:00,1,0
2023-12-20T12:45:26.401046180+00:00,0,0
2023-12-20T12:45:26.521265040+00:00,0,1
2023-12-20T12:45:26.521265500+00:00,0,0
2023-12-20T12:45:26.700995310+00:00,1,0
2023-12-20T12:45:26.701045320+00:00,0,0
2023-12-20T12:45:26.726021490+00:00,0,1
2023-12-20T12:45:26.726021950+00:00,0,0
2023-12-20T12:45:27.000994450+00:00,1,0
2023-12-20T12:45:27.001044470+00:00,0,0
2023-12-20T12:45:27.033847310+00:00,0,1
2023-12-20T12:45:27.033847770+00:00,0,0
2023-12-20T12:45:27.300993600+00:00,1,0
2023-12-20T12:45:27.301043610+00:00,0,0
2023-12-20T12:45:27.341218560+00:00,0,1
2023-12-20T12:45:27.341219020+00:00,0,0
2023-12-20T12:45:27.600992740+00:00,1,0
2023-12-20T12:45:27.601042760+00:00,0,0
2023-12-20T12:45:27.647840920+00:00,0,1
2023-12-20T12:45:27.647841380+00:00,0,0
2023-12-20T12:45:27.900991880+00:00,1,0
2023-12-20T12:45:27.901041900+00:00,0,0
2023-12-20T12:45:27.955811400+00:00,0,1
2023-12-20T12:45:27.955811850+00:00,0,0
2023-12-20T12:45:28.200991030+00:00,1,0
2023-12-20T12:45:28.201041040+00:00,0,0
2023-12-20T12:45:28.262829390+00:00,0,1
2023-12-20T12:45:28.262829860+00:00,0,0
2023-12-20T12:45:28.500990170+00:00,1,0
2023-12-20T12:45:28.501040190+00:00,0,0
2023-12-20T12:45:28.569530860+00:00,0,1
2023-12-20T12:45:28.569531320+00:00,0,0
2023-12-20T12:45:28.800989320+00:00,1,0
2023-12-20T12:45:28.801039330+00:00,0,0
2023-12-20T12:45:28.876518120+00:00,0,1
2023-12-20T12:45:28.876518570+00:00,0,0
2023-12-20T12:45:29.100988460+00:00,1,0
2023-12-20T12:45:29.101038480+00:00,0,0
2023-12-20T12:45:29.185110650+00:00,0,1
2023-12-20T12:45:29.185111130+00:00,0,0
2023-12-20T12:45:29.400987600+00:00,1,0
2023-12-20T12:45:29.401037620+00:00,0,0
2023-12-20T12:45:29.494651310+00:00,0,1
2023-12-20T12:45:29.494651760+00:00,0,0
2023-12-20T12:45:29.700986750+00:00,1,0
2023-12-20T12:45:29.701036760+00:00,0,0
2023-12-20T12:45:29.797961650+00:00,0,1
2023-12-20T12:45:29.797962130+00:00,0,0
2023-12-20T12:45:30.000985890+00:00,1,0
2023-12-20T12:45:30.001035910+00:00,0,0
2023-12-20T12:45:30.108799990+00:00,0,1
2023-12-20T12:45:30.108800440+00:00,0,0
2023-12-20T12:45:30.300985040+00:00,1,0
2023-12-20T12:45:30.301035050+00:00,0,0
2023-12-20T12:45:30.414457320+00:00,0,1
2023-12-20T12:45:30.414457780+00:00,0,0
2023-12-20T12:45:30.600984180+00:00,1,0
2023-12-20T12:45:30.601034200+00:00,0,0
2023-12-20T12:45:30.719851750+00:00,0,1
2023-12-20T12:45:30.719852220+00:00,0,0
2023-12-20T12:45:30.900983330+00:00,1,0
2023-12-20T12:45:30.901033340+00:00,0,0
2023-12-20T12:45:31.027024850+00:00,0,1
2023-12-20T12:45:31.027025320+00:00,0,0
2023-12-20T12:45:31.200982470+00:00,1,0
2023-12-20T12:45:31.201032490+00:00,0,0
2023-12-20T12:45:31.233496800+00:00,0,1
2023-12-20T12:45:31.233497270+00:00,0,0
2023-12-20T12:45:31.500981610+00:00,1,0
2023-12-20T12:45:31.501031630+00:00,0,0
2023-12-20T12:45:31.539838640+00:00,0,1
2023-12-20T12:45:31.539839100+00:00,0,0
2023-12-20T12:45:31.800980760+00:00,1,0
2023-12-20T12:45:31.801030770+00:00,0,0
2023-12-20T12:45:31.848505760+00:00,0,1
2023-12-20T12:45:31.848506230+00:00,0,0
2023-12-20T12:45:32.100979900+00:00,1,0
2023-12-20T12:45:32.101029920+00:00,0,0
2023-12-20T12:45:32.158360550+00:00,0,1
2023-12-20T12:45:32.158361020+00:00,0,0
2023-12-20T12:45:32.400979050+00:00,1,0
2023-12-20T12:45:32.401029060+00:00,0,0
2023-12-20T12:45:32.460621870+00:00,0,1
2023-12-20T12:45:32.460622330+00:00,0,0
2023-12-20T12:45:32.700978190+00:00,1,0
2023-12-20T12:45:32.701028200+00:00,0,0
2023-12-20T12:45:32.771010560+00:00,0,1
2023-12-20T12:45:32.771011010+00:00,0,0
2023-12-20T12:45:33.000977330+00:00,1,0
2023-12-20T12:45:33.001027350+00:00,0,0
2023-12-20T12:45:33.078146910+00:00,0,1
2023-12-20T12:45:33.078147370+00:00,0,0
2023-12-20T12:45:33.300976480+00:00,1,0
2023-12-20T12:45:33.301026490+00:00,0,0
2023-12-20T12:45:33.385979320+00:00,0,1
2023-12-20T12:45:33.385979770+00:00,0,0
2023-12-20T12:45:33.600975620+00:00,1,0
2023-12-20T12:45:33.601025640+00:00,0,0
2023-12-20T12:45:33.689359910+00:00,0,1
2023-12-20T12:45:33.689360410+00:00,0,0
2023-12-20T12:45:33.900974760+00:00,1,0
2023-12-20T12:45:33.901024780+00:00,0,0
2023-12-20T12:45:34.003145440+00:00,0,1
2023-12-20T12:45:34.003145900+00:00,0,0
2023-12-20T12:45:34.200973910+00:00,1,0
2023-12-20T12:45:34.201023920+00:00,0,0
2023-12-20T12:45:34.304614750+00:00,0,1
2023-12-20T12:45:34.304615210+00:00,0,0
2023-12-20T12:45:34.500973050+00:00,1,0
2023-12-20T12:45:34.501023060+00:00,0,0
2023-12-20T12:45:34.612509550+00:00,0,1
2023-12-20T12:45:34.612510010+00:00,0,0
2023-12-20T12:45:34.800972190+00:00,1,0
2023-12-20T12:45:34.801022210+00:00,0,0
2023-12-20T12:45:34.918133900+00:00,0,1
2023-12-20T12:45:34.918134360+00:00,0,0
2023-12-20T12:45:35.100971340+00:00,1,0
2023-12-20T12:45:35.101021350+00:00,0,0
2023-12-20T12:45:35.127222360+00:00,0,1
2023-12-20T12:45:35.127222810+00:00,0,0
2023-12-20T12:45:35.400970480+00:00,1,0
2023-12-20T12:45:35.401020490+00:00,0,0
2023-12-20T12:45:35.430164340+00:00,0,1
2023-12-20T12:45:35.430164800+00:00,0,0
2023-12-20T12:45:35.700969620+00:00,1,0
2023-12-20T12:45:35.701019640+00:00,0,0
2023-12-20T12:45:35.737405120+00:00,0,1
2023-12-20T12:45:35.737405580+00:00,0,0
2023-12-20T12:45:36.000968760+00:00,1,0
2023-12-20T12:45:36.001018780+00:00,0,0
2023-12-20T12:45:36.044685950+00:00,0,1
2023-12-20T12:45:36.044686420+00:00,0,0
2023-12-20T12:45:36.300967910+00:00,1,0
2023-12-20T12:45:36.301017920+00:00,0,0
2023-12-20T12:45:36.351752360+00:00,0,1
2023-12-20T12:45:36.351752820+00:00,0,0
2023-12-20T12:45:36.600967050+00:00,1,0
2023-12-20T12:45:36.601017070+00:00,0,0
2023-12-20T12:45:36.658908660+00:00,0,1
2023-12-20T12:45:36.658909120+00:00,0,0
2023-12-20T12:45:36.900966190+00:00,1,0
2023-12-20T12:45:36.901016210+00:00,0,0
2023-12-20T12:45:36.966462010+00:00,0,1
2023-12-20T12:45:36.966462480+00:00,0,0
2023-12-20T12:45:37.200965340+00:00,1,0
2023-12-20T12:45:37.201015350+00:00,0,0
2023-12-20T12:45:37.278917120+00:00,0,1
2023-12-20T12:45:37.278917580+00:00,0,0
2023-12-20T12:45:37.500964480+00:00,1,0
2023-12-20T12:45:37.501014500+00:00,0,0
2023-12-20T12:45:37.584890230+00:00,0,1
2023-12-20T12:45:37.584890700+00:00,0,0
2023-12-20T12:45:37.800963620+00:00,1,0
2023-12-20T12:45:37.801013640+00:00,0,0
2023-12-20T12:45:37.889268740+00:00,0,1
2023-12-20T12:45:37.889269210+00:00,0,0
2023-12-20T12:45:38.100962770+00:00,1,0
2023-12-20T12:45:38.101012780+00:00,0,0
2023-12-20T12:45:38.195852160+00:00,0,1
2023-12-20T12:45:38.195852640+00:00,0,0
2023-12-20T12:45:38.400961910+00:00,1,0
2023-12-20T12:45:38.401011920+00:00,0,0
2023-12-20T12:45:38.511393910+00:00,0,1
2023-12-20T12:45:38.511394390+00:00,0,0
2023-12-20T12:45:38.700961050+00:00,1,0
2023-12-20T12:45:38.701011070+00:00,0,0
2023-12-20T12:45:38.811312470+00:00,0,1
2023-12-20T12:45:38.811312950+00:00,0,0
2023-12-20T12:45:39.000960190+00:00,1,0
2023-12-20T12:45:39.001010210+00:00,0,0
2023-12-20T12:45:39.121697170+00:00,0,1
2023-12-20T12:45:39.121697620+00:00,0,0
2023-12-20T12:45:39.300959330+00:00,1,0
2023-12-20T12:45:39.301009350+00:00,0,0
2023-12-20T12:45:39.424428340+00:00,0,1
2023-12-20T12:45:39.424428810+00:00,0,0
2023-12-20T12:45:39.600958480+00:00,1,0
2023-12-20T12:45:39.601008490+00:00,0,0
2023-12-20T12:45:39.629950300+00:00,0,1
2023-12-20T12:45:39.629950760+00:00,0,0
2023-12-20T12:45:39.900957620+00:00,1,0
2023-12-20T12:45:39.901007630+00:00,0,0
2023-12-20T12:45:39.935746570+00:00,0,1
2023-12-20T12:45:39.935747020+00:00,0,0
2023-12-20T12:45:40.200956760+00:00,1,0
2023-12-20T12:45:40.201006780+00:00,0,0
2023-12-20T12:45:40.243032090+00:00,0,1
2023-12-20T12:45:40.243032570+00:00,0,0
2023-12-20T12:45:40.500955900+00:00,1,0
2023-12-20T12:45:40.501005920+00:00,0,0
2023-12-20T12:45:40.550021130+00:00,0,1
2023-12-20T12:45:40.550021610+00:00,0,0
2023-12-20T12:45:40.800955050+00:00,1,0
2023-12-20T12:45:40.801005060+00:00,0,0
2023-12-20T12:45:40.858173570+00:00,0,1
2023-12-20T12:45:40.858174050+00:00,0,0
2023-12-20T12:45:41.100954190+00:00,1,0
2023-12-20T12:45:41.101004200+00:00,0,0
2023-12-20T12:45:41.165334010+00:00,0,1
2023-12-20T12:45:41.165334460+00:00,0,0
2023-12-20T12:45:41.400953330+00:00,1,0
2023-12-20T12:45:41.401003340+00:00,0,0
2023-12-20T12:45:41.471818070+00:00,0,1
2023-12-20T12:45:41.471818550+00:00,0,0
2023-12-20T12:45:41.700952470+00:00,1,0
2023-12-20T12:45:41.701002490+00:00,0,0
2023-12-20T12:45:41.779967370+00:00,0,1
2023-12-20T12:45:41.779967840+00:00,0,0
2023-12-20T12:45:42.000951610+00:00,1,0
2023-12-20T12:45:42.001001630+00:00,0,0
2023-12-20T12:45:42.090119270+00:00,0,1
2023-12-20T12:45:42.090119730+00:00,0,0
2023-12-20T12:45:42.300950750+00:00,1,0
2023-12-20T12:45:42.301000770+00:00,0,0
2023-12-20T12:45:42.394246180+00:00,0,1
2023-12-20T12:45:42.394246640+00:00,0,0
2023-12-20T12:45:42.600949890+00:00,1,0
2023-12-20T12:45:42.600999910+00:00,0,0
2023-12-20T12:45:42.701950680+00:00,0,1
2023-12-20T12:45:42.701951140+00:00,0,0
2023-12-20T12:45:42.900949040+00:00,1,0
2023-12-20T12:45:42.900999050+00:00,0,0
2023-12-20T12:45:43.008373470+00:00,0,1
2023-12-20T12:45:43.008373940+00:00,0,0
2023-12-20T12:45:43.200948180+00:00,1,0
2023-12-20T12:45:43.200998190+00:00,0,0
2023-12-20T12:45:43.315017260+00:00,0,1
2023-12-20T12:45:43.315017710+00:00,0,0
2023-12-20T12:45:43.500947320+00:00,1,0
2023-12-20T12:45:43.500997340+00:00,0,0
2023-12-20T12:45:43.622202050+00:00,0,1
2023-12-20T12:45:43.622202530+00:00,0,0
2023-12-20T12:45:43.800946460+00:00,1,0
2023-12-20T12:45:43.800996480+00:00,0,0
2023-12-20T12:45:43.933385540+00:00,0,1
2023-12-20T12:45:43.933386010+00:00,0,0
2023-12-20T12:45:44.100945600+00:00,1,0
2023-12-20T12:45:44.100995620+00:00,0,0
2023-12-20T12:45:44.135042490+00:00,0,1
2023-12-20T12:45:44.135042970+00:00,0,0
2023-12-20T12:45:44.400944750+00:00,1,0
2023-12-20T12:45:44.400994760+00:00,0,0
2023-12-20T12:45:44.441341760+00:00,0,1
2023-12-20T12:45:44.441342210+00:00,0,0
2023-12-20T12:45:44.700943890+00:00,1,0
2023-12-20T12:45:44.700993900+00:00,0,0
2023-12-20T12:45:44.749872900+00:00,0,1
2023-12-20T12:45:44.749873370+00:00,0,0
2023-12-20T12:45:45.000943030+00:00,1,0
2023-12-20T12:45:45.000993050+00:00,0,0
2023-12-20T12:45:45.056644300+00:00,0,1
2023-12-20T12:45:45.056644780+00:00,0,0
2023-12-20T12:45:45.300942170+00:00,1,0
2023-12-20T12:45:45.300992190+00:00,0,0
2023-12-20T12:45:45.362941700+00:00,0,1
2023-12-20T12:45:45.362942160+00:00,0,0
2023-12-20T12:45:45.600941310+00:00,1,0
2023-12-20T12:45:45.600991330+00:00,0,0
2023-12-20T12:45:45.670111960+00:00,0,1
2023-12-20T12:45:45.670112420+00:00,0,0
2023-12-20T12:45:45.900940450+00:00,1,0
2023-12-20T12:45:45.900990470+00:00,0,0
2023-12-20T12:45:45.978093740+00:00,0,1
2023-12-20T12:45:45.978094200+00:00,0,0
2023-12-20T12:45:46.200939590+00:00,1,0
2023-12-20T12:45:46.200989610+00:00,0,0
2023-12-20T12:45:46.285981370+00:00,0,1
2023-12-20T12:45:46.285981830+00:00,0,0
2023-12-20T12:45:46.500938730+00:00,1,0
2023-12-20T12:45:46.500988750+00:00,0,0
2023-12-20T12:45:46.591795720+00:00,0,1
2023-12-20T12:45:46.591796170+00:00,0,0
2023-12-20T12:45:46.800937870+00:00,1,0
2023-12-20T12:45:46.800987890+00:00,0,0
2023-12-20T12:45:46.903297500+00:00,0,1
2023-12-20T12:45:46.903297970+00:00,0,0
2023-12-20T12:45:47.100937010+00:00,1,0
2023-12-20T12:45:47.100987030+00:00,0,0
2023-12-20T12:45:47.206305490+00:00,0,1
2023-12-20T12:45:47.206305970+00:00,0,0
2023-12-20T12:45:47.400936150+00:00,1,0
2023-12-20T12:45:47.400986170+00:00,0,0
2023-12-20T12:45:47.515557590+00:00,0,1
2023-12-20T12:45:47.515558040+00:00,0,0
2023-12-20T12:45:47.700935300+00:00,1,0
2023-12-20T12:45:47.700985310+00:00,0,0
2023-12-20T12:45:47.823472040+00:00,0,1
2023-12-20T12:45:47.823472520+00:00,0,0
2023-12-20T12:45:48.000934440+00:00,1,0
2023-12-20T12:45:48.000984450+00:00,0,0
2023-12-20T12:45:48.025653040+00:00,0,1
2023-12-20T12:45:48.025653500+00:00,0,0
2023-12-20T12:45:48.300933580+00:00,1,0
2023-12-20T12:45:48.300983590+00:00,0,0
2023-12-20T12:45:48.332660630+00:00,0,1
2023-12-20T12:45:48.332661100+00:00,0,0
2023-12-20T12:45:48.600932720+00:00,1,0
2023-12-20T12:45:48.600982740+00:00,0,0
2023-12-20T12:45:48.640376840+00:00,0,1
2023-12-20T12:45:48.640377310+00:00,0,0
2023-12-20T12:45:48.900931860+00:00,1,0
2023-12-20T12:45:48.900981870+00:00,0,0
2023-12-20T12:45:48.946955630+00:00,0,1
2023-12-20T12:45:48.946956080+00:00,0,0
2023-12-20T12:45:49.200931000+00:00,1,0
2023-12-20T12:45:49.200981020+00:00,0,0
2023-12-20T12:45:49.254254440+00:00,0,1
2023-12-20T12:45:49.254254900+00:00,0,0
2023-12-20T12:45:49.500930140+00:00,1,0
2023-12-20T12:45:49.500980160+00:00,0,0
2023-12-20T12:45:49.563328560+00:00,0,1
2023-12-20T12:45:49.563329030+00:00,0,0
2023-12-20T12:45:49.800929280+00:00,1,0
2023-12-20T12:45:49.800979300+00:00,0,0
2023-12-20T12:45:49.869486900+00:00,0,1
2023-12-20T12:45:49.869487370+00:00,0,0
2023-12-20T12:45:50.100928420+00:00,1,0
2023-12-20T12:45:50.100978440+00:00,0,0
2023-12-20T12:45:50.176576910+00:00,0,1
2023-12-20T12:45:50.176577390+00:00,0,0
2023-12-20T12:45:50.400927560+00:00,1,0
2023-12-20T12:45:50.400977580+00:00,0,0
2023-12-20T12:45:50.484478490+00:00,0,1
2023-12-20T12:45:50.484478960+00:00,0,0
2023-12-20T12:45:50.700926700+00:00,1,0
2023-12-20T12:45:50.700976720+00:00,0,0
2023-12-20T12:45:50.791136920+00:00,0,1
2023-12-20T12:45:50.791137390+00:00,0,0
2023-12-20T12:45:51.000925840+00:00,1,0
2023-12-20T12:45:51.000975860+00:00,0,0
2023-12-20T12:45:51.097281020+00:00,0,1
2023-12-20T12:45:51.097281480+00:00,0,0
2023-12-20T12:45:51.300924980+00:00,1,0
2023-12-20T12:45:51.300975000+00:00,0,0
2023-12-20T12:45:51.404576730+00:00,0,1
2023-12-20T12:45:51.404577180+00:00,0,0
2023-12-20T12:45:51.600924120+00:00,1,0
2023-12-20T12:45:51.600974140+00:00,0,0
2023-12-20T12:45:51.711760570+00:00,0,1
2023-12-20T12:45:51.711761030+00:00,0,0
2023-12-20T12:45:51.900923260+00:00,1,0
2023-12-20T12:45:51.900973280+00:00,0,0
2023-12-20T12:45:52.019686700+00:00,0,1
2023-12-20T12:45:52.019687170+00:00,0,0
2023-12-20T12:45:52.200922400+00:00,1,0
2023-12-20T12:45:52.200972420+00:00,0,0
2023-12-20T12:45:52.327760880+00:00,0,1
2023-12-20T12:45:52.327761350+00:00,0,0
2023-12-20T12:45:52.500921540+00:00,1,0
2023-12-20T12:45:52.500971560+00:00,0,0
2023-12-20T12:45:52.535466870+00:00,0,1
2023-12-20T12:45:52.535467330+00:00,0,0
2023-12-20T12:45:52.800920680+00:00,1,0
2023-12-20T12:45:52.800970700+00:00,0,0
2023-12-20T12:45:52.838155000+00:00,0,1
2023-12-20T12:45:52.838155470+00:00,0,0
2023-12-20T12:45:53.100919830+00:00,1,0
2023-12-20T12:45:53.100969840+00:00,0,0
