Time [s],Channel 0,Channel 1
2023-10-25T23:25:56.647623000+00:00,0,0
2023-10-25T23:25:56.647668920+00:00,1,0
2023-10-25T23:25:56.647718930+00:00,0,0
2023-10-25T23:25:56.647748910+00:00,0,1
2023-10-25T23:25:56.647748940+00:00,0,0
2023-10-25T23:25:56.652668920+00:00,1,0
2023-10-25T23:25:56.652718920+00:00,0,0
2023-10-25T23:25:56.652747640+00:00,0,1
2023-10-25T23:25:56.652747670+00:00,0,0
2023-10-25T23:25:56.657668910+00:00,1,0
2023-10-25T23:25:56.657718920+00:00,0,0
2023-10-25T23:25:56.657746110+00:00,0,1
2023-10-25T23:25:56.657746140+00:00,0,0
2023-10-25T23:25:56.662668900+00:00,1,0
2023-10-25T23:25:56.662718910+00:00,0,0
2023-10-25T23:25:56.662745100+00:00,0,1
2023-10-25T23:25:56.662745130+00:00,0,0
2023-10-25T23:25:56.667668890+00:00,1,0
2023-10-25T23:25:56.667718900+00:00,0,0
2023-10-25T23:25:56.667748510+00:00,0,1
2023-10-25T23:25:56.667748540+00:00,0,0
2023-10-25T23:25:56.672668880+00:00,1,0
2023-10-25T23:25:56.672718890+00:00,0,0
2023-10-25T23:25:56.672747850+00:00,0,1
2023-10-25T23:25:56.672747880+00:00,0,0
2023-10-25T23:25:56.677668880+00:00,1,0
2023-10-25T23:25:56.677718880+00:00,0,0
2023-10-25T23:25:56.677746300+00:00,0,1
2023-10-25T23:25:56.677746330+00:00,0,0
2023-10-25T23:25:56.682668870+00:00,1,0
2023-10-25T23:25:56.682718880+00:00,0,0
2023-10-25T23:25:56.682744780+00:00,0,1
2023-10-25T23:25:56.682744810+00:00,0,0
2023-10-25T23:25:56.687668860+00:00,1,0
2023-10-25T23:25:56.687718870+00:00,0,0
2023-10-25T23:25:56.687748700+00:00,0,1
2023-10-25T23:25:56.687748740+00:00,0,0
2023-10-25T23:25:56.692668850+00:00,1,0
2023-10-25T23:25:56.692718860+00:00,0,0
2023-10-25T23:25:56.692747530+00:00,0,1
2023-10-25T23:25:56.692747560+00:00,0,0
2023-10-25T23:25:56.697668850+00:00,1,0
2023-10-25T23:25:56.697718850+00:00,0,0
2023-10-25T23:25:56.697746000+00:00,0,1
2023-10-25T23:25:56.697746030+00:00,0,0
2023-10-25T23:25:56.702668840+00:00,1,0
2023-10-25T23:25:56.702718840+00:00,0,0
2023-10-25T23:25:56.702744970+00:00,0,1
2023-10-25T23:25:56.702745000+00:00,0,0
2023-10-25T23:25:56.707668830+00:00,1,0
2023-10-25T23:25:56.707718840+00:00,0,0
2023-10-25T23:25:56.707748400+00:00,0,1
2023-10-25T23:25:56.707748430+00:00,0,0
2023-10-25T23:25:56.712668820+00:00,1,0
2023-10-25T23:25:56.712718830+00:00,0,0
2023-10-25T23:25:56.712747740+00:00,0,1
2023-10-25T23:25:56.712747770+00:00,0,0
2023-10-25T23:25:56.717668810+00:00,1,0
2023-10-25T23:25:56.717718820+00:00,0,0
2023-10-25T23:25:56.717746220+00:00,0,1
2023-10-25T23:25:56.717746250+00:00,0,0
2023-10-25T23:25:56.722668810+00:00,1,0
2023-10-25T23:25:56.722718810+00:00,0,0
2023-10-25T23:25:56.722744680+00:00,0,1
2023-10-25T23:25:56.722744710+00:00,0,0
2023-10-25T23:25:56.727668800+00:00,1,0
2023-10-25T23:25:56.727718810+00:00,0,0
2023-10-25T23:25:56.727748590+00:00,0,1
2023-10-25T23:25:56.727748620+00:00,0,0
2023-10-25T23:25:56.732668790+00:00,1,0
2023-10-25T23:25:56.732718800+00:00,0,0
2023-10-25T23:25:56.732747320+00:00,0,1
2023-10-25T23:25:56.732747350+00:00,0,0
2023-10-25T23:25:56.737668780+00:00,1,0
2023-10-25T23:25:56.737718790+00:00,0,0
2023-10-25T23:25:56.737746430+00:00,0,1
2023-10-25T23:25:56.737746460+00:00,0,0
2023-10-25T23:25:56.742668770+00:00,1,0
2023-10-25T23:25:56.742718780+00:00,0,0
2023-10-25T23:25:56.742744870+00:00,0,1
2023-10-25T23:25:56.742744900+00:00,0,0
2023-10-25T23:25:56.747668770+00:00,1,0
2023-10-25T23:25:56.747718770+00:00,0,0
2023-10-25T23:25:56.747748280+00:00,0,1
2023-10-25T23:25:56.747748310+00:00,0,0
2023-10-25T23:25:56.752668760+00:00,1,0
2023-10-25T23:25:56.752718770+00:00,0,0
2023-10-25T23:25:56.752747510+00:00,0,1
2023-10-25T23:25:56.752747540+00:00,0,0
2023-10-25T23:25:56.757668750+00:00,1,0
2023-10-25T23:25:56.757718760+00:00,0,0
2023-10-25T23:25:56.757745980+00:00,0,1
2023-10-25T23:25:56.757746010+00:00,0,0
2023-10-25T23:25:56.762668740+00:00,1,0
2023-10-25T23:25:56.762718750+00:00,0,0
2023-10-25T23:25:56.762745080+00:00,0,1
2023-10-25T23:25:56.762745110+00:00,0,0
2023-10-25T23:25:56.767668740+00:00,1,0
2023-10-25T23:25:56.767718740+00:00,0,0
2023-10-25T23:25:56.767748380+00:00,0,1
2023-10-25T23:25:56.767748410+00:00,0,0
2023-10-25T23:25:56.772668730+00:00,1,0
2023-10-25T23:25:56.772718730+00:00,0,0
2023-10-25T23:25:56.772747210+00:00,0,1
2023-10-25T23:25:56.772747240+00:00,0,0
2023-10-25T23:25:56.777668720+00:00,1,0
2023-10-25T23:25:56.777718730+00:00,0,0
2023-10-25T23:25:56.777746210+00:00,0,1
2023-10-25T23:25:56.777746240+00:00,0,0
2023-10-25T23:25:56.782668710+00:00,1,0
2023-10-25T23:25:56.782718720+00:00,0,0
2023-10-25T23:25:56.782744660+00:00,0,1
2023-10-25T23:25:56.782744690+00:00,0,0
2023-10-25T23:25:56.787668700+00:00,1,0
2023-10-25T23:25:56.787718710+00:00,0,0
2023-10-25T23:25:56.787748080+00:00,0,1
2023-10-25T23:25:56.787748110+00:00,0,0
2023-10-25T23:25:56.792668700+00:00,1,0
2023-10-25T23:25:56.792718700+00:00,0,0
2023-10-25T23:25:56.792747450+00:00,0,1
2023-10-25T23:25:56.792747480+00:00,0,0
2023-10-25T23:25:56.797668690+00:00,1,0
2023-10-25T23:25:56.797718690+00:00,0,0
2023-10-25T23:25:56.797745940+00:00,0,1
2023-10-25T23:25:56.797745970+00:00,0,0
2023-10-25T23:25:56.802668680+00:00,1,0
2023-10-25T23:25:56.802718690+00:00,0,0
2023-10-25T23:25:56.802744910+00:00,0,1
2023-10-25T23:25:56.802744940+00:00,0,0
2023-10-25T23:25:56.807668670+00:00,1,0
2023-10-25T23:25:56.807718680+00:00,0,0
2023-10-25T23:25:56.807748320+00:00,0,1
2023-10-25T23:25:56.807748350+00:00,0,0
2023-10-25T23:25:56.812668660+00:00,1,0
2023-10-25T23:25:56.812718670+00:00,0,0
2023-10-25T23:25:56.812747640+00:00,0,1
2023-10-25T23:25:56.812747670+00:00,0,0
2023-10-25T23:25:56.817668660+00:00,1,0
2023-10-25T23:25:56.817718660+00:00,0,0
2023-10-25T23:25:56.817746110+00:00,0,1
2023-10-25T23:25:56.817746140+00:00,0,0
2023-10-25T23:25:56.822668650+00:00,1,0
2023-10-25T23:25:56.822718660+00:00,0,0
2023-10-25T23:25:56.822744490+00:00,0,1
2023-10-25T23:25:56.822744520+00:00,0,0
2023-10-25T23:25:56.827668640+00:00,1,0
2023-10-25T23:25:56.827718650+00:00,0,0
2023-10-25T23:25:56.827748420+00:00,0,1
2023-10-25T23:25:56.827748440+00:00,0,0
2023-10-25T23:25:56.832668630+00:00,1,0
2023-10-25T23:25:56.832718640+00:00,0,0
2023-10-25T23:25:56.832747250+00:00,0,1
2023-10-25T23:25:56.832747280+00:00,0,0
2023-10-25T23:25:56.837668620+00:00,1,0
2023-10-25T23:25:56.837718630+00:00,0,0
2023-10-25T23:25:56.837745730+00:00,0,1
2023-10-25T23:25:56.837745760+00:00,0,0
2023-10-25T23:25:56.842668620+00:00,1,0
2023-10-25T23:25:56.842718620+00:00,0,0
2023-10-25T23:25:56.842744740+00:00,0,1
2023-10-25T23:25:56.842744760+00:00,0,0
2023-10-25T23:25:56.847668610+00:00,1,0
2023-10-25T23:25:56.847718620+00:00,0,0
2023-10-25T23:25:56.847748150+00:00,0,1
2023-10-25T23:25:56.847748170+00:00,0,0
2023-10-25T23:25:56.852668600+00:00,1,0
2023-10-25T23:25:56.852718610+00:00,0,0
2023-10-25T23:25:56.852747490+00:00,0,1
2023-10-25T23:25:56.852747520+00:00,0,0
2023-10-25T23:25:56.857668590+00:00,1,0
2023-10-25T23:25:56.857718600+00:00,0,0
2023-10-25T23:25:56.857745960+00:00,0,1
2023-10-25T23:25:56.857745990+00:00,0,0
2023-10-25T23:25:56.862668590+00:00,1,0
2023-10-25T23:25:56.862718590+00:00,0,0
2023-10-25T23:25:56.862744410+00:00,0,1
2023-10-25T23:25:56.862744440+00:00,0,0
2023-10-25T23:25:56.867668580+00:00,1,0
2023-10-25T23:25:56.867718580+00:00,0,0
2023-10-25T23:25:56.867748330+00:00,0,1
2023-10-25T23:25:56.867748360+00:00,0,0
2023-10-25T23:25:56.872668570+00:00,1,0
2023-10-25T23:25:56.872718580+00:00,0,0
2023-10-25T23:25:56.872747080+00:00,0,1
2023-10-25T23:25:56.872747110+00:00,0,0
2023-10-25T23:25:56.877668560+00:00,1,0
2023-10-25T23:25:56.877718570+00:00,0,0
2023-10-25T23:25:56.877746150+00:00,0,1
2023-10-25T23:25:56.877746180+00:00,0,0
2023-10-25T23:25:56.882668550+00:00,1,0
2023-10-25T23:25:56.882718560+00:00,0,0
2023-10-25T23:25:56.882744530+00:00,0,1
2023-10-25T23:25:56.882744560+00:00,0,0
2023-10-25T23:25:56.887668550+00:00,1,0
2023-10-25T23:25:56.887718550+00:00,0,0
2023-10-25T23:25:56.887747940+00:00,0,1
2023-10-25T23:25:56.887747970+00:00,0,0
2023-10-25T23:25:56.892668540+00:00,1,0
2023-10-25T23:25:56.892718550+00:00,0,0
2023-10-25T23:25:56.892747260+00:00,0,1
2023-10-25T23:25:56.892747300+00:00,0,0
2023-10-25T23:25:56.897668530+00:00,1,0
2023-10-25T23:25:56.897718540+00:00,0,0
2023-10-25T23:25:56.897745750+00:00,0,1
2023-10-25T23:25:56.897745780+00:00,0,0
2023-10-25T23:25:56.902668520+00:00,1,0
2023-10-25T23:25:56.902718530+00:00,0,0
2023-10-25T23:25:56.902744810+00:00,0,1
2023-10-25T23:25:56.902744840+00:00,0,0
2023-10-25T23:25:56.907668510+00:00,1,0
2023-10-25T23:25:56.907718520+00:00,0,0
2023-10-25T23:25:56.907748120+00:00,0,1
2023-10-25T23:25:56.907748150+00:00,0,0
2023-10-25T23:25:56.912668510+00:00,1,0
2023-10-25T23:25:56.912718510+00:00,0,0
2023-10-25T23:25:56.912746980+00:00,0,1
2023-10-25T23:25:56.912747010+00:00,0,0
2023-10-25T23:25:56.917668500+00:00,1,0
2023-10-25T23:25:56.917718510+00:00,0,0
2023-10-25T23:25:56.917745920+00:00,0,1
2023-10-25T23:25:56.917745950+00:00,0,0
2023-10-25T23:25:56.922668490+00:00,1,0
2023-10-25T23:25:56.922718500+00:00,0,0
2023-10-25T23:25:56.922744400+00:00,0,1
2023-10-25T23:25:56.922744430+00:00,0,0
2023-10-25T23:25:56.927668480+00:00,1,0
2023-10-25T23:25:56.927718490+00:00,0,0
2023-10-25T23:25:56.927748330+00:00,0,1
2023-10-25T23:25:56.927748360+00:00,0,0
2023-10-25T23:25:56.932668480+00:00,1,0
2023-10-25T23:25:56.932718480+00:00,0,0
2023-10-25T23:25:56.932747170+00:00,0,1
2023-10-25T23:25:56.932747200+00:00,0,0
2023-10-25T23:25:56.937668470+00:00,1,0
2023-10-25T23:25:56.937718470+00:00,0,0
2023-10-25T23:25:56.937745640+00:00,0,1
2023-10-25T23:25:56.937745670+00:00,0,0
2023-10-25T23:25:56.942668460+00:00,1,0
2023-10-25T23:25:56.942718470+00:00,0,0
2023-10-25T23:25:56.942744590+00:00,0,1
2023-10-25T23:25:56.942744620+00:00,0,0
2023-10-25T23:25:56.947668450+00:00,1,0
2023-10-25T23:25:56.947718460+00:00,0,0
2023-10-25T23:25:56.947748040+00:00,0,1
2023-10-25T23:25:56.947748070+00:00,0,0
2023-10-25T23:25:56.952668440+00:00,1,0
2023-10-25T23:25:56.952718450+00:00,0,0
2023-10-25T23:25:56.952747380+00:00,0,1
2023-10-25T23:25:56.952747410+00:00,0,0
2023-10-25T23:25:56.957668440+00:00,1,0
2023-10-25T23:25:56.957718440+00:00,0,0
2023-10-25T23:25:56.957745830+00:00,0,1
2023-10-25T23:25:56.957745860+00:00,0,0
2023-10-25T23:25:56.962668430+00:00,1,0
2023-10-25T23:25:56.962718440+00:00,0,0
2023-10-25T23:25:56.962744300+00:00,0,1
2023-10-25T23:25:56.962744330+00:00,0,0
2023-10-25T23:25:56.967668420+00:00,1,0
2023-10-25T23:25:56.967718430+00:00,0,0
2023-10-25T23:25:56.967748220+00:00,0,1
2023-10-25T23:25:56.967748260+00:00,0,0
2023-10-25T23:25:56.972668410+00:00,1,0
2023-10-25T23:25:56.972718420+00:00,0,0
2023-10-25T23:25:56.972746960+00:00,0,1
2023-10-25T23:25:56.972746990+00:00,0,0
2023-10-25T23:25:56.977668400+00:00,1,0
2023-10-25T23:25:56.977718410+00:00,0,0
2023-10-25T23:25:56.977745950+00:00,0,1
2023-10-25T23:25:56.977745980+00:00,0,0
2023-10-25T23:25:56.982668400+00:00,1,0
2023-10-25T23:25:56.982718400+00:00,0,0
2023-10-25T23:25:56.982744420+00:00,0,1
2023-10-25T23:25:56.982744450+00:00,0,0
2023-10-25T23:25:56.987668390+00:00,1,0
2023-10-25T23:25:56.987718400+00:00,0,0
2023-10-25T23:25:56.987747820+00:00,0,1
2023-10-25T23:25:56.987747850+00:00,0,0
2023-10-25T23:25:56.992668380+00:00,1,0
2023-10-25T23:25:56.992718390+00:00,0,0
2023-10-25T23:25:56.992747170+00:00,0,1
2023-10-25T23:25:56.992747200+00:00,0,0
2023-10-25T23:25:56.997668370+00:00,1,0
2023-10-25T23:25:56.997718380+00:00,0,0
2023-10-25T23:25:56.997745610+00:00,0,1
2023-10-25T23:25:56.997745640+00:00,0,0
2023-10-25T23:25:57.002668370+00:00,1,0
2023-10-25T23:25:57.002718370+00:00,0,0
2023-10-25T23:25:57.002744720+00:00,0,1
2023-10-25T23:25:57.002744750+00:00,0,0
2023-10-25T23:25:57.007668360+00:00,1,0
2023-10-25T23:25:57.007718360+00:00,0,0
2023-10-25T23:25:57.007748010+00:00,0,1
2023-10-25T23:25:57.007748040+00:00,0,0
2023-10-25T23:25:57.012668350+00:00,1,0
2023-10-25T23:25:57.012718360+00:00,0,0
2023-10-25T23:25:57.012746860+00:00,0,1
2023-10-25T23:25:57.012746890+00:00,0,0
2023-10-25T23:25:57.017668340+00:00,1,0
2023-10-25T23:25:57.017718350+00:00,0,0
2023-10-25T23:25:57.017745830+00:00,0,1
2023-10-25T23:25:57.017745860+00:00,0,0
2023-10-25T23:25:57.022668330+00:00,1,0
2023-10-25T23:25:57.022718340+00:00,0,0
2023-10-25T23:25:57.022744280+00:00,0,1
2023-10-25T23:25:57.022744310+00:00,0,0
2023-10-25T23:25:57.027668330+00:00,1,0
2023-10-25T23:25:57.027718330+00:00,0,0
2023-10-25T23:25:57.027748200+00:00,0,1
2023-10-25T23:25:57.027748230+00:00,0,0
2023-10-25T23:25:57.032668320+00:00,1,0
2023-10-25T23:25:57.032718330+00:00,0,0
2023-10-25T23:25:57.032747020+00:00,0,1
2023-10-25T23:25:57.032747050+00:00,0,0
2023-10-25T23:25:57.037668310+00:00,1,0
2023-10-25T23:25:57.037718320+00:00,0,0
2023-10-25T23:25:57.037745470+00:00,0,1
2023-10-25T23:25:57.037745500+00:00,0,0
2023-10-25T23:25:57.042668300+00:00,1,0
2023-10-25T23:25:57.042718310+00:00,0,0
2023-10-25T23:25:57.042744550+00:00,0,1
2023-10-25T23:25:57.042744580+00:00,0,0
2023-10-25T23:25:57.047668290+00:00,1,0
2023-10-25T23:25:57.047718300+00:00,0,0
2023-10-25T23:25:57.047747840+00:00,0,1
2023-10-25T23:25:57.047747870+00:00,0,0
2023-10-25T23:25:57.052668290+00:00,1,0
2023-10-25T23:25:57.052718290+00:00,0,0
2023-10-25T23:25:57.052747190+00:00,0,1
2023-10-25T23:25:57.052747210+00:00,0,0
2023-10-25T23:25:57.057668280+00:00,1,0
2023-10-25T23:25:57.057718290+00:00,0,0
2023-10-25T23:25:57.057745680+00:00,0,1
2023-10-25T23:25:57.057745710+00:00,0,0
2023-10-25T23:25:57.062668270+00:00,1,0
2023-10-25T23:25:57.062718280+00:00,0,0
2023-10-25T23:25:57.062744140+00:00,0,1
2023-10-25T23:25:57.062744170+00:00,0,0
2023-10-25T23:25:57.067668260+00:00,1,0
2023-10-25T23:25:57.067718270+00:00,0,0
2023-10-25T23:25:57.067748080+00:00,0,1
2023-10-25T23:25:57.067748110+00:00,0,0
2023-10-25T23:25:57.072668250+00:00,1,0
2023-10-25T23:25:57.072718260+00:00,0,0
2023-10-25T23:25:57.072746920+00:00,0,1
2023-10-25T23:25:57.072746940+00:00,0,0
2023-10-25T23:25:57.077668250+00:00,1,0
2023-10-25T23:25:57.077718250+00:00,0,0
2023-10-25T23:25:57.077745890+00:00,0,1
2023-10-25T23:25:57.077745920+00:00,0,0
2023-10-25T23:25:57.082668240+00:00,1,0
2023-10-25T23:25:57.082718250+00:00,0,0
2023-10-25T23:25:57.082744380+00:00,0,1
2023-10-25T23:25:57.082744410+00:00,0,0
2023-10-25T23:25:57.087668230+00:00,1,0
2023-10-25T23:25:57.087718240+00:00,0,0
2023-10-25T23:25:57.087747780+00:00,0,1
2023-10-25T23:25:57.087747810+00:00,0,0
2023-10-25T23:25:57.092668220+00:00,1,0
2023-10-25T23:25:57.092718230+00:00,0,0
2023-10-25T23:25:57.092747100+00:00,0,1
2023-10-25T23:25:57.092747130+00:00,0,0
2023-10-25T23:25:57.097668220+00:00,1,0
2023-10-25T23:25:57.097718220+00:00,0,0
2023-10-25T23:25:57.097745570+00:00,0,1
2023-10-25T23:25:57.097745600+00:00,0,0
2023-10-25T23:25:57.102668210+00:00,1,0
2023-10-25T23:25:57.102718210+00:00,0,0
2023-10-25T23:25:57.102744550+00:00,0,1
2023-10-25T23:25:57.102744580+00:00,0,0
2023-10-25T23:25:57.107668200+00:00,1,0
2023-10-25T23:25:57.107718210+00:00,0,0
2023-10-25T23:25:57.107747950+00:00,0,1
2023-10-25T23:25:57.107747980+00:00,0,0
2023-10-25T23:25:57.112668190+00:00,1,0
2023-10-25T23:25:57.112718200+00:00,0,0
2023-10-25T23:25:57.112746680+00:00,0,1
2023-10-25T23:25:57.112746710+00:00,0,0
2023-10-25T23:25:57.117668180+00:00,1,0
2023-10-25T23:25:57.117718190+00:00,0,0
2023-10-25T23:25:57.117745770+00:00,0,1
2023-10-25T23:25:57.117745800+00:00,0,0
2023-10-25T23:25:57.122668180+00:00,1,0
2023-10-25T23:25:57.122718180+00:00,0,0
2023-10-25T23:25:57.122744260+00:00,0,1
2023-10-25T23:25:57.122744280+00:00,0,0
2023-10-25T23:25:57.127668170+00:00,1,0
2023-10-25T23:25:57.127718180+00:00,0,0
2023-10-25T23:25:57.127747550+00:00,0,1
2023-10-25T23:25:57.127747580+00:00,0,0
2023-10-25T23:25:57.132668160+00:00,1,0
2023-10-25T23:25:57.132718170+00:00,0,0
2023-10-25T23:25:57.132746890+00:00,0,1
2023-10-25T23:25:57.132746920+00:00,0,0
2023-10-25T23:25:57.137668150+00:00,1,0
2023-10-25T23:25:57.137718160+00:00,0,0
2023-10-25T23:25:57.137745360+00:00,0,1
2023-10-25T23:25:57.137745390+00:00,0,0
2023-10-25T23:25:57.142668140+00:00,1,0
2023-10-25T23:25:57.142718150+00:00,0,0
2023-10-25T23:25:57.142744420+00:00,0,1
2023-10-25T23:25:57.142744450+00:00,0,0
2023-10-25T23:25:57.147668140+00:00,1,0
2023-10-25T23:25:57.147718140+00:00,0,0
2023-10-25T23:25:57.147747730+00:00,0,1
2023-10-25T23:25:57.147747760+00:00,0,0
2023-10-25T23:25:57.152668130+00:00,1,0
2023-10-25T23:25:57.152718140+00:00,0,0
2023-10-25T23:25:57.152746570+00:00,0,1
2023-10-25T23:25:57.152746600+00:00,0,0
2023-10-25T23:25:57.157668120+00:00,1,0
2023-10-25T23:25:57.157718130+00:00,0,0
2023-10-25T23:25:57.157745550+00:00,0,1
2023-10-25T23:25:57.157745580+00:00,0,0
2023-10-25T23:25:57.162668110+00:00,1,0
2023-10-25T23:25:57.162718120+00:00,0,0
2023-10-25T23:25:57.162744030+00:00,0,1
2023-10-25T23:25:57.162744060+00:00,0,0
2023-10-25T23:25:57.167668110+00:00,1,0
2023-10-25T23:25:57.167718110+00:00,0,0
2023-10-25T23:25:57.167747950+00:00,0,1
2023-10-25T23:25:57.167747970+00:00,0,0
2023-10-25T23:25:57.172668100+00:00,1,0
2023-10-25T23:25:57.172718100+00:00,0,0
2023-10-25T23:25:57.172746780+00:00,0,1
2023-10-25T23:25:57.172746810+00:00,0,0
2023-10-25T23:25:57.177668090+00:00,1,0
2023-10-25T23:25:57.177718100+00:00,0,0
2023-10-25T23:25:57.177745250+00:00,0,1
2023-10-25T23:25:57.177745280+00:00,0,0
2023-10-25T23:25:57.182668080+00:00,1,0
2023-10-25T23:25:57.182718090+00:00,0,0
2023-10-25T23:25:57.182744210+00:00,0,1
2023-10-25T23:25:57.182744240+00:00,0,0
2023-10-25T23:25:57.187668070+00:00,1,0
2023-10-25T23:25:57.187718080+00:00,0,0
2023-10-25T23:25:57.187747650+00:00,0,1
2023-10-25T23:25:57.187747680+00:00,0,0
2023-10-25T23:25:57.192668070+00:00,1,0
2023-10-25T23:25:57.192718070+00:00,0,0
2023-10-25T23:25:57.192747020+00:00,0,1
2023-10-25T23:25:57.192747050+00:00,0,0
2023-10-25T23:25:57.197668060+00:00,1,0
2023-10-25T23:25:57.197718060+00:00,0,0
2023-10-25T23:25:57.197745470+00:00,0,1
2023-10-25T23:25:57.197745500+00:00,0,0
2023-10-25T23:25:57.202668050+00:00,1,0
2023-10-25T23:25:57.202718060+00:00,0,0
2023-10-25T23:25:57.202743850+00:00,0,1
2023-10-25T23:25:57.202743880+00:00,0,0
2023-10-25T23:25:57.207668040+00:00,1,0
2023-10-25T23:25:57.207718050+00:00,0,0
2023-10-25T23:25:57.207747770+00:00,0,1
2023-10-25T23:25:57.207747800+00:00,0,0
2023-10-25T23:25:57.212668030+00:00,1,0
2023-10-25T23:25:57.212718040+00:00,0,0
2023-10-25T23:25:57.212746610+00:00,0,1
2023-10-25T23:25:57.212746640+00:00,0,0
2023-10-25T23:25:57.217668030+00:00,1,0
2023-10-25T23:25:57.217718030+00:00,0,0
2023-10-25T23:25:57.217745590+00:00,0,1
2023-10-25T23:25:57.217745620+00:00,0,0
2023-10-25T23:25:57.222668020+00:00,1,0
2023-10-25T23:25:57.222718030+00:00,0,0
2023-10-25T23:25:57.222744060+00:00,0,1
2023-10-25T23:25:57.222744090+00:00,0,0
2023-10-25T23:25:57.227668010+00:00,1,0
2023-10-25T23:25:57.227718020+00:00,0,0
2023-10-25T23:25:57.227747500+00:00,0,1
2023-10-25T23:25:57.227747530+00:00,0,0
2023-10-25T23:25:57.232668000+00:00,1,0
2023-10-25T23:25:57.232718010+00:00,0,0
2023-10-25T23:25:57.232746850+00:00,0,1
2023-10-25T23:25:57.232746880+00:00,0,0
2023-10-25T23:25:57.237668000+00:00,1,0
2023-10-25T23:25:57.237718000+00:00,0,0
2023-10-25T23:25:57.237745300+00:00,0,1
2023-10-25T23:25:57.237745330+00:00,0,0
2023-10-25T23:25:57.242667990+00:00,1,0
2023-10-25T23:25:57.242717990+00:00,0,0
2023-10-25T23:25:57.242743760+00:00,0,1
2023-10-25T23:25:57.242743790+00:00,0,0
2023-10-25T23:25:57.247667980+00:00,1,0
2023-10-25T23:25:57.247717990+00:00,0,0
2023-10-25T23:25:57.247747690+00:00,0,1
2023-10-25T23:25:57.247747720+00:00,0,0
2023-10-25T23:25:57.252667970+00:00,1,0
2023-10-25T23:25:57.252717980+00:00,0,0
2023-10-25T23:25:57.252746420+00:00,0,1
2023-10-25T23:25:57.252746450+00:00,0,0
2023-10-25T23:25:57.257667960+00:00,1,0
2023-10-25T23:25:57.257717970+00:00,0,0
2023-10-25T23:25:57.257745530+00:00,0,1
2023-10-25T23:25:57.257745560+00:00,0,0
2023-10-25T23:25:57.262667960+00:00,1,0
2023-10-25T23:25:57.262717960+00:00,0,0
2023-10-25T23:25:57.262743980+00:00,0,1
2023-10-25T23:25:57.262744000+00:00,0,0
2023-10-25T23:25:57.267667950+00:00,1,0
2023-10-25T23:25:57.267717960+00:00,0,0
