Time [s],Channel 0,Channel 1
2023-10-25T23:56:25.531544000+00:00,0,0
2023-10-25T23:56:25.535398270+00:00,1,0
2023-10-25T23:56:25.535448280+00:00,0,0
2023-10-25T23:56:25.535531640+00:00,0,1
2023-10-25T23:56:25.535531670+00:00,0,0
2023-10-25T23:56:25.540398260+00:00,1,0
2023-10-25T23:56:25.540448270+00:00,0,0
2023-10-25T23:56:25.540531910+00:00,0,1
2023-10-25T23:56:25.540531940+00:00,0,0
2023-10-25T23:56:25.545398250+00:00,1,0
2023-10-25T23:56:25.545448260+00:00,0,0
2023-10-25T23:56:25.545531140+00:00,0,1
2023-10-25T23:56:25.545531170+00:00,0,0
2023-10-25T23:56:25.550398240+00:00,1,0
2023-10-25T23:56:25.550448250+00:00,0,0
2023-10-25T23:56:25.550531680+00:00,0,1
2023-10-25T23:56:25.550531710+00:00,0,0
2023-10-25T23:56:25.555398230+00:00,1,0
2023-10-25T23:56:25.555448240+00:00,0,0
2023-10-25T23:56:25.555530910+00:00,0,1
2023-10-25T23:56:25.555530940+00:00,0,0
2023-10-25T23:56:25.560398220+00:00,1,0
2023-10-25T23:56:25.560448230+00:00,0,0
2023-10-25T23:56:25.560531190+00:00,0,1
2023-10-25T23:56:25.560531220+00:00,0,0
2023-10-25T23:56:25.565398210+00:00,1,0
2023-10-25T23:56:25.565448220+00:00,0,0
2023-10-25T23:56:25.565531490+00:00,0,1
2023-10-25T23:56:25.565531520+00:00,0,0
2023-10-25T23:56:25.570398200+00:00,1,0
2023-10-25T23:56:25.570448210+00:00,0,0
2023-10-25T23:56:25.570530750+00:00,0,1
2023-10-25T23:56:25.570530770+00:00,0,0
2023-10-25T23:56:25.575398190+00:00,1,0
2023-10-25T23:56:25.575448200+00:00,0,0
2023-10-25T23:56:25.575531260+00:00,0,1
2023-10-25T23:56:25.575531290+00:00,0,0
2023-10-25T23:56:25.580398190+00:00,1,0
2023-10-25T23:56:25.580448190+00:00,0,0
2023-10-25T23:56:25.580531560+00:00,0,1
2023-10-25T23:56:25.580531590+00:00,0,0
2023-10-25T23:56:25.585398180+00:00,1,0
2023-10-25T23:56:25.585448180+00:00,0,0
2023-10-25T23:56:25.585531030+00:00,0,1
2023-10-25T23:56:25.585531060+00:00,0,0
2023-10-25T23:56:25.590398170+00:00,1,0
2023-10-25T23:56:25.590448170+00:00,0,0
2023-10-25T23:56:25.590531330+00:00,0,1
2023-10-25T23:56:25.590531360+00:00,0,0
2023-10-25T23:56:25.595398160+00:00,1,0
2023-10-25T23:56:25.595448160+00:00,0,0
2023-10-25T23:56:25.595531590+00:00,0,1
2023-10-25T23:56:25.595531620+00:00,0,0
2023-10-25T23:56:25.600398150+00:00,1,0
2023-10-25T23:56:25.600448150+00:00,0,0
2023-10-25T23:56:25.600530840+00:00,0,1
2023-10-25T23:56:25.600530870+00:00,0,0
2023-10-25T23:56:25.605398140+00:00,1,0
2023-10-25T23:56:25.605448150+00:00,0,0
2023-10-25T23:56:25.605531350+00:00,0,1
2023-10-25T23:56:25.605531380+00:00,0,0
2023-10-25T23:56:25.610398130+00:00,1,0
2023-10-25T23:56:25.610448140+00:00,0,0
2023-10-25T23:56:25.610531660+00:00,0,1
2023-10-25T23:56:25.610531680+00:00,0,0
2023-10-25T23:56:25.615398120+00:00,1,0
2023-10-25T23:56:25.615448130+00:00,0,0
2023-10-25T23:56:25.615531120+00:00,0,1
2023-10-25T23:56:25.615531150+00:00,0,0
2023-10-25T23:56:25.620398110+00:00,1,0
2023-10-25T23:56:25.620448120+00:00,0,0
2023-10-25T23:56:25.620531450+00:00,0,1
2023-10-25T23:56:25.620531480+00:00,0,0
2023-10-25T23:56:25.625398100+00:00,1,0
2023-10-25T23:56:25.625448110+00:00,0,0
2023-10-25T23:56:25.625530680+00:00,0,1
2023-10-25T23:56:25.625530710+00:00,0,0
2023-10-25T23:56:25.630398090+00:00,1,0
2023-10-25T23:56:25.630448100+00:00,0,0
2023-10-25T23:56:25.630530960+00:00,0,1
2023-10-25T23:56:25.630530990+00:00,0,0
2023-10-25T23:56:25.635398080+00:00,1,0
2023-10-25T23:56:25.635448090+00:00,0,0
2023-10-25T23:56:25.635531490+00:00,0,1
2023-10-25T23:56:25.635531520+00:00,0,0
2023-10-25T23:56:25.640398070+00:00,1,0
2023-10-25T23:56:25.640448080+00:00,0,0
2023-10-25T23:56:25.640531770+00:00,0,1
2023-10-25T23:56:25.640531800+00:00,0,0
2023-10-25T23:56:25.645398060+00:00,1,0
2023-10-25T23:56:25.645448070+00:00,0,0
2023-10-25T23:56:25.645531000+00:00,0,1
2023-10-25T23:56:25.645531030+00:00,0,0
2023-10-25T23:56:25.650398050+00:00,1,0
2023-10-25T23:56:25.650448060+00:00,0,0
2023-10-25T23:56:25.650531540+00:00,0,1
2023-10-25T23:56:25.650531570+00:00,0,0
2023-10-25T23:56:25.655398050+00:00,1,0
2023-10-25T23:56:25.655448050+00:00,0,0
2023-10-25T23:56:25.655530770+00:00,0,1
2023-10-25T23:56:25.655530800+00:00,0,0
2023-10-25T23:56:25.660398040+00:00,1,0
2023-10-25T23:56:25.660448040+00:00,0,0
2023-10-25T23:56:25.660531050+00:00,0,1
2023-10-25T23:56:25.660531080+00:00,0,0
2023-10-25T23:56:25.665398030+00:00,1,0
2023-10-25T23:56:25.665448030+00:00,0,0
2023-10-25T23:56:25.665531590+00:00,0,1
2023-10-25T23:56:25.665531620+00:00,0,0
2023-10-25T23:56:25.670398020+00:00,1,0
2023-10-25T23:56:25.670448020+00:00,0,0
2023-10-25T23:56:25.670530820+00:00,0,1
2023-10-25T23:56:25.670530850+00:00,0,0
2023-10-25T23:56:25.675398010+00:00,1,0
2023-10-25T23:56:25.675448010+00:00,0,0
2023-10-25T23:56:25.675531090+00:00,0,1
2023-10-25T23:56:25.675531130+00:00,0,0
2023-10-25T23:56:25.680398000+00:00,1,0
2023-10-25T23:56:25.680448000+00:00,0,0
2023-10-25T23:56:25.680531630+00:00,0,1
2023-10-25T23:56:25.680531660+00:00,0,0
2023-10-25T23:56:25.685397990+00:00,1,0
2023-10-25T23:56:25.685448000+00:00,0,0
2023-10-25T23:56:25.685530860+00:00,0,1
2023-10-25T23:56:25.685530890+00:00,0,0
2023-10-25T23:56:25.690397980+00:00,1,0
2023-10-25T23:56:25.690447990+00:00,0,0
2023-10-25T23:56:25.690531140+00:00,0,1
2023-10-25T23:56:25.690531170+00:00,0,0
2023-10-25T23:56:25.695397970+00:00,1,0
2023-10-25T23:56:25.695447980+00:00,0,0
2023-10-25T23:56:25.695531420+00:00,0,1
2023-10-25T23:56:25.695531450+00:00,0,0
2023-10-25T23:56:25.700397960+00:00,1,0
2023-10-25T23:56:25.700447970+00:00,0,0
2023-10-25T23:56:25.700530910+00:00,0,1
2023-10-25T23:56:25.700530940+00:00,0,0
2023-10-25T23:56:25.705397950+00:00,1,0
2023-10-25T23:56:25.705447960+00:00,0,0
2023-10-25T23:56:25.705531190+00:00,0,1
2023-10-25T23:56:25.705531220+00:00,0,0
2023-10-25T23:56:25.710397940+00:00,1,0
2023-10-25T23:56:25.710447950+00:00,0,0
2023-10-25T23:56:25.710531470+00:00,0,1
2023-10-25T23:56:25.710531500+00:00,0,0
2023-10-25T23:56:25.715397930+00:00,1,0
2023-10-25T23:56:25.715447940+00:00,0,0
2023-10-25T23:56:25.715530960+00:00,0,1
2023-10-25T23:56:25.715530990+00:00,0,0
2023-10-25T23:56:25.720397920+00:00,1,0
2023-10-25T23:56:25.720447930+00:00,0,0
2023-10-25T23:56:25.720531230+00:00,0,1
2023-10-25T23:56:25.720531260+00:00,0,0
2023-10-25T23:56:25.725397910+00:00,1,0
2023-10-25T23:56:25.725447920+00:00,0,0
2023-10-25T23:56:25.725530490+00:00,0,1
2023-10-25T23:56:25.725530520+00:00,0,0
2023-10-25T23:56:25.730397900+00:00,1,0
2023-10-25T23:56:25.730447910+00:00,0,0
2023-10-25T23:56:25.730530790+00:00,0,1
2023-10-25T23:56:25.730530820+00:00,0,0
2023-10-25T23:56:25.735397900+00:00,1,0
2023-10-25T23:56:25.735447900+00:00,0,0
2023-10-25T23:56:25.735531350+00:00,0,1
2023-10-25T23:56:25.735531380+00:00,0,0
2023-10-25T23:56:25.740397890+00:00,1,0
2023-10-25T23:56:25.740447890+00:00,0,0
2023-10-25T23:56:25.740530530+00:00,0,1
2023-10-25T23:56:25.740530560+00:00,0,0
2023-10-25T23:56:25.745397880+00:00,1,0
2023-10-25T23:56:25.745447880+00:00,0,0
2023-10-25T23:56:25.745530840+00:00,0,1
2023-10-25T23:56:25.745530860+00:00,0,0
2023-10-25T23:56:25.750397870+00:00,1,0
2023-10-25T23:56:25.750447870+00:00,0,0
2023-10-25T23:56:25.750531400+00:00,0,1
2023-10-25T23:56:25.750531430+00:00,0,0
2023-10-25T23:56:25.755397860+00:00,1,0
2023-10-25T23:56:25.755447860+00:00,0,0
2023-10-25T23:56:25.755530580+00:00,0,1
2023-10-25T23:56:25.755530610+00:00,0,0
2023-10-25T23:56:25.760397850+00:00,1,0
2023-10-25T23:56:25.760447850+00:00,0,0
2023-10-25T23:56:25.760530880+00:00,0,1
2023-10-25T23:56:25.760530910+00:00,0,0
2023-10-25T23:56:25.765397840+00:00,1,0
2023-10-25T23:56:25.765447850+00:00,0,0
2023-10-25T23:56:25.765531450+00:00,0,1
2023-10-25T23:56:25.765531470+00:00,0,0
2023-10-25T23:56:25.770397830+00:00,1,0
2023-10-25T23:56:25.770447840+00:00,0,0
2023-10-25T23:56:25.770530630+00:00,0,1
2023-10-25T23:56:25.770530660+00:00,0,0
2023-10-25T23:56:25.775397820+00:00,1,0
2023-10-25T23:56:25.775447830+00:00,0,0
2023-10-25T23:56:25.775530930+00:00,0,1
2023-10-25T23:56:25.775530960+00:00,0,0
2023-10-25T23:56:25.780397810+00:00,1,0
2023-10-25T23:56:25.780447820+00:00,0,0
2023-10-25T23:56:25.780531510+00:00,0,1
2023-10-25T23:56:25.780531540+00:00,0,0
2023-10-25T23:56:25.785397800+00:00,1,0
2023-10-25T23:56:25.785447810+00:00,0,0
2023-10-25T23:56:25.785530740+00:00,0,1
2023-10-25T23:56:25.785530770+00:00,0,0
2023-10-25T23:56:25.790397790+00:00,1,0
2023-10-25T23:56:25.790447800+00:00,0,0
2023-10-25T23:56:25.790531020+00:00,0,1
2023-10-25T23:56:25.790531050+00:00,0,0
2023-10-25T23:56:25.795397780+00:00,1,0
2023-10-25T23:56:25.795447790+00:00,0,0
2023-10-25T23:56:25.795530250+00:00,0,1
2023-10-25T23:56:25.795530280+00:00,0,0
2023-10-25T23:56:25.800397770+00:00,1,0
2023-10-25T23:56:25.800447780+00:00,0,0
2023-10-25T23:56:25.800530790+00:00,0,1
2023-10-25T23:56:25.800530820+00:00,0,0
2023-10-25T23:56:25.805397760+00:00,1,0
2023-10-25T23:56:25.805447770+00:00,0,0
2023-10-25T23:56:25.805531070+00:00,0,1
2023-10-25T23:56:25.805531100+00:00,0,0
2023-10-25T23:56:25.810397750+00:00,1,0
2023-10-25T23:56:25.810447760+00:00,0,0
2023-10-25T23:56:25.810531350+00:00,0,1
2023-10-25T23:56:25.810531380+00:00,0,0
2023-10-25T23:56:25.815397750+00:00,1,0
2023-10-25T23:56:25.815447750+00:00,0,0
2023-10-25T23:56:25.815530840+00:00,0,1
2023-10-25T23:56:25.815530870+00:00,0,0
2023-10-25T23:56:25.820397740+00:00,1,0
2023-10-25T23:56:25.820447740+00:00,0,0
2023-10-25T23:56:25.820531120+00:00,0,1
2023-10-25T23:56:25.820531140+00:00,0,0
2023-10-25T23:56:25.825397730+00:00,1,0
2023-10-25T23:56:25.825447730+00:00,0,0
2023-10-25T23:56:25.825530340+00:00,0,1
2023-10-25T23:56:25.825530380+00:00,0,0
2023-10-25T23:56:25.830397720+00:00,1,0
2023-10-25T23:56:25.830447720+00:00,0,0
2023-10-25T23:56:25.830530890+00:00,0,1
2023-10-25T23:56:25.830530920+00:00,0,0
2023-10-25T23:56:25.835397710+00:00,1,0
2023-10-25T23:56:25.835447710+00:00,0,0
2023-10-25T23:56:25.835531160+00:00,0,1
2023-10-25T23:56:25.835531190+00:00,0,0
2023-10-25T23:56:25.840397700+00:00,1,0
2023-10-25T23:56:25.840447710+00:00,0,0
2023-10-25T23:56:25.840530390+00:00,0,1
2023-10-25T23:56:25.840530420+00:00,0,0
2023-10-25T23:56:25.845397690+00:00,1,0
2023-10-25T23:56:25.845447700+00:00,0,0
2023-10-25T23:56:25.845530930+00:00,0,1
2023-10-25T23:56:25.845530960+00:00,0,0
2023-10-25T23:56:25.850397680+00:00,1,0
2023-10-25T23:56:25.850447690+00:00,0,0
2023-10-25T23:56:25.850531210+00:00,0,1
2023-10-25T23:56:25.850531240+00:00,0,0
2023-10-25T23:56:25.855397670+00:00,1,0
2023-10-25T23:56:25.855447680+00:00,0,0
2023-10-25T23:56:25.855530440+00:00,0,1
2023-10-25T23:56:25.855530470+00:00,0,0
2023-10-25T23:56:25.860397660+00:00,1,0
2023-10-25T23:56:25.860447670+00:00,0,0
2023-10-25T23:56:25.860530980+00:00,0,1
2023-10-25T23:56:25.860531010+00:00,0,0
2023-10-25T23:56:25.865397650+00:00,1,0
2023-10-25T23:56:25.865447660+00:00,0,0
2023-10-25T23:56:25.865531250+00:00,0,1
2023-10-25T23:56:25.865531290+00:00,0,0
2023-10-25T23:56:25.870397640+00:00,1,0
2023-10-25T23:56:25.870447650+00:00,0,0
2023-10-25T23:56:25.870530480+00:00,0,1
2023-10-25T23:56:25.870530510+00:00,0,0
2023-10-25T23:56:25.875397630+00:00,1,0
2023-10-25T23:56:25.875447640+00:00,0,0
2023-10-25T23:56:25.875531020+00:00,0,1
2023-10-25T23:56:25.875531050+00:00,0,0
2023-10-25T23:56:25.880397620+00:00,1,0
2023-10-25T23:56:25.880447630+00:00,0,0
2023-10-25T23:56:25.880531300+00:00,0,1
2023-10-25T23:56:25.880531330+00:00,0,0
2023-10-25T23:56:25.885397610+00:00,1,0
2023-10-25T23:56:25.885447620+00:00,0,0
2023-10-25T23:56:25.885530560+00:00,0,1
2023-10-25T23:56:25.885530590+00:00,0,0
2023-10-25T23:56:25.890397600+00:00,1,0
2023-10-25T23:56:25.890447610+00:00,0,0
2023-10-25T23:56:25.890530860+00:00,0,1
2023-10-25T23:56:25.890530890+00:00,0,0
2023-10-25T23:56:25.895397600+00:00,1,0
2023-10-25T23:56:25.895447600+00:00,0,0
2023-10-25T23:56:25.895530110+00:00,0,1
2023-10-25T23:56:25.895530140+00:00,0,0
2023-10-25T23:56:25.900397590+00:00,1,0
2023-10-25T23:56:25.900447590+00:00,0,0
2023-10-25T23:56:25.900530600+00:00,0,1
2023-10-25T23:56:25.900530630+00:00,0,0
2023-10-25T23:56:25.905397580+00:00,1,0
2023-10-25T23:56:25.905447580+00:00,0,0
2023-10-25T23:56:25.905530900+00:00,0,1
2023-10-25T23:56:25.905530930+00:00,0,0
2023-10-25T23:56:25.910397570+00:00,1,0
2023-10-25T23:56:25.910447570+00:00,0,0
2023-10-25T23:56:25.910530160+00:00,0,1
2023-10-25T23:56:25.910530190+00:00,0,0
2023-10-25T23:56:25.915397560+00:00,1,0
2023-10-25T23:56:25.915447570+00:00,0,0
2023-10-25T23:56:25.915530650+00:00,0,1
2023-10-25T23:56:25.915530680+00:00,0,0
2023-10-25T23:56:25.920397550+00:00,1,0
2023-10-25T23:56:25.920447560+00:00,0,0
2023-10-25T23:56:25.920530950+00:00,0,1
2023-10-25T23:56:25.920530980+00:00,0,0
2023-10-25T23:56:25.925397540+00:00,1,0
2023-10-25T23:56:25.925447550+00:00,0,0
2023-10-25T23:56:25.925530200+00:00,0,1
2023-10-25T23:56:25.925530230+00:00,0,0
2023-10-25T23:56:25.930397530+00:00,1,0
2023-10-25T23:56:25.930447540+00:00,0,0
2023-10-25T23:56:25.930530700+00:00,0,1
2023-10-25T23:56:25.930530720+00:00,0,0
2023-10-25T23:56:25.935397520+00:00,1,0
2023-10-25T23:56:25.935447530+00:00,0,0
2023-10-25T23:56:25.935531000+00:00,0,1
2023-10-25T23:56:25.935531030+00:00,0,0
2023-10-25T23:56:25.940397510+00:00,1,0
2023-10-25T23:56:25.940447520+00:00,0,0
2023-10-25T23:56:25.940530270+00:00,0,1
2023-10-25T23:56:25.940530300+00:00,0,0
2023-10-25T23:56:25.945397500+00:00,1,0
2023-10-25T23:56:25.945447510+00:00,0,0
2023-10-25T23:56:25.945530810+00:00,0,1
2023-10-25T23:56:25.945530840+00:00,0,0
2023-10-25T23:56:25.950397490+00:00,1,0
2023-10-25T23:56:25.950447500+00:00,0,0
2023-10-25T23:56:25.950531090+00:00,0,1
2023-10-25T23:56:25.950531120+00:00,0,0
2023-10-25T23:56:25.955397480+00:00,1,0
2023-10-25T23:56:25.955447490+00:00,0,0
2023-10-25T23:56:25.955530320+00:00,0,1
2023-10-25T23:56:25.955530350+00:00,0,0
2023-10-25T23:56:25.960397470+00:00,1,0
2023-10-25T23:56:25.960447480+00:00,0,0
2023-10-25T23:56:25.960530860+00:00,0,1
2023-10-25T23:56:25.960530890+00:00,0,0
2023-10-25T23:56:25.965397460+00:00,1,0
2023-10-25T23:56:25.965447470+00:00,0,0
2023-10-25T23:56:25.965530090+00:00,0,1
2023-10-25T23:56:25.965530120+00:00,0,0
2023-10-25T23:56:25.970397460+00:00,1,0
2023-10-25T23:56:25.970447460+00:00,0,0
2023-10-25T23:56:25.970530370+00:00,0,1
2023-10-25T23:56:25.970530400+00:00,0,0
2023-10-25T23:56:25.975397450+00:00,1,0
2023-10-25T23:56:25.975447450+00:00,0,0
2023-10-25T23:56:25.975530910+00:00,0,1
2023-10-25T23:56:25.975530930+00:00,0,0
2023-10-25T23:56:25.980397440+00:00,1,0
2023-10-25T23:56:25.980447440+00:00,0,0
2023-10-25T23:56:25.980530140+00:00,0,1
2023-10-25T23:56:25.980530170+00:00,0,0
2023-10-25T23:56:25.985397430+00:00,1,0
2023-10-25T23:56:25.985447430+00:00,0,0
2023-10-25T23:56:25.985530410+00:00,0,1
2023-10-25T23:56:25.985530440+00:00,0,0
2023-10-25T23:56:25.990397420+00:00,1,0
2023-10-25T23:56:25.990447420+00:00,0,0
2023-10-25T23:56:25.990530960+00:00,0,1
2023-10-25T23:56:25.990530990+00:00,0,0
2023-10-25T23:56:25.995397410+00:00,1,0
2023-10-25T23:56:25.995447420+00:00,0,0
2023-10-25T23:56:25.995530180+00:00,0,1
2023-10-25T23:56:25.995530210+00:00,0,0
2023-10-25T23:56:26.000397400+00:00,1,0
2023-10-25T23:56:26.000447410+00:00,0,0
2023-10-25T23:56:26.000530460+00:00,0,1
2023-10-25T23:56:26.000530490+00:00,0,0
2023-10-25T23:56:26.005397390+00:00,1,0
2023-10-25T23:56:26.005447400+00:00,0,0
2023-10-25T23:56:26.005531000+00:00,0,1
2023-10-25T23:56:26.005531030+00:00,0,0
2023-10-25T23:56:26.010397380+00:00,1,0
2023-10-25T23:56:26.010447390+00:00,0,0
2023-10-25T23:56:26.010530230+00:00,0,1
2023-10-25T23:56:26.010530260+00:00,0,0
2023-10-25T23:56:26.015397370+00:00,1,0
2023-10-25T23:56:26.015447380+00:00,0,0
2023-10-25T23:56:26.015530510+00:00,0,1
2023-10-25T23:56:26.015530540+00:00,0,0
2023-10-25T23:56:26.020397360+00:00,1,0
2023-10-25T23:56:26.020447370+00:00,0,0
2023-10-25T23:56:26.020530780+00:00,0,1
2023-10-25T23:56:26.020530810+00:00,0,0
2023-10-25T23:56:26.025397350+00:00,1,0
2023-10-25T23:56:26.025447360+00:00,0,0
2023-10-25T23:56:26.025530280+00:00,0,1
2023-10-25T23:56:26.025530300+00:00,0,0
2023-10-25T23:56:26.030397340+00:00,1,0
2023-10-25T23:56:26.030447350+00:00,0,0
2023-10-25T23:56:26.030530550+00:00,0,1
2023-10-25T23:56:26.030530580+00:00,0,0
2023-10-25T23:56:26.035397330+00:00,1,0
2023-10-25T23:56:26.035447340+00:00,0,0
2023-10-25T23:56:26.035530830+00:00,0,1
2023-10-25T23:56:26.035530860+00:00,0,0
2023-10-25T23:56:26.040397320+00:00,1,0
2023-10-25T23:56:26.040447330+00:00,0,0
2023-10-25T23:56:26.040530320+00:00,0,1
2023-10-25T23:56:26.040530350+00:00,0,0
2023-10-25T23:56:26.045397310+00:00,1,0
2023-10-25T23:56:26.045447320+00:00,0,0
2023-10-25T23:56:26.045530620+00:00,0,1
2023-10-25T23:56:26.045530650+00:00,0,0
2023-10-25T23:56:26.050397310+00:00,1,0
2023-10-25T23:56:26.050447310+00:00,0,0
2023-10-25T23:56:26.050529880+00:00,0,1
2023-10-25T23:56:26.050529910+00:00,0,0
2023-10-25T23:56:26.055397300+00:00,1,0
2023-10-25T23:56:26.055447300+00:00,0,0
2023-10-25T23:56:26.055530130+00:00,0,1
2023-10-25T23:56:26.055530160+00:00,0,0
2023-10-25T23:56:26.060397290+00:00,1,0
2023-10-25T23:56:26.060447290+00:00,0,0
2023-10-25T23:56:26.060530690+00:00,0,1
2023-10-25T23:56:26.060530720+00:00,0,0
2023-10-25T23:56:26.065397280+00:00,1,0
2023-10-25T23:56:26.065447280+00:00,0,0
2023-10-25T23:56:26.065529900+00:00,0,1
2023-10-25T23:56:26.065529930+00:00,0,0
2023-10-25T23:56:26.070397270+00:00,1,0
2023-10-25T23:56:26.070447280+00:00,0,0
2023-10-25T23:56:26.070530200+00:00,0,1
2023-10-25T23:56:26.070530230+00:00,0,0
2023-10-25T23:56:26.075397260+00:00,1,0
2023-10-25T23:56:26.075447270+00:00,0,0
2023-10-25T23:56:26.075530720+00:00,0,1
2023-10-25T23:56:26.075530750+00:00,0,0
2023-10-25T23:56:26.080397250+00:00,1,0
2023-10-25T23:56:26.080447260+00:00,0,0
2023-10-25T23:56:26.080529970+00:00,0,1
2023-10-25T23:56:26.080530000+00:00,0,0
2023-10-25T23:56:26.085397240+00:00,1,0
2023-10-25T23:56:26.085447250+00:00,0,0
2023-10-25T23:56:26.085530220+00:00,0,1
2023-10-25T23:56:26.085530250+00:00,0,0
2023-10-25T23:56:26.090397230+00:00,1,0
2023-10-25T23:56:26.090447240+00:00,0,0
2023-10-25T23:56:26.090530790+00:00,0,1
2023-10-25T23:56:26.090530820+00:00,0,0
2023-10-25T23:56:26.095397220+00:00,1,0
2023-10-25T23:56:26.095447230+00:00,0,0
2023-10-25T23:56:26.095529990+00:00,0,1
2023-10-25T23:56:26.095530020+00:00,0,0
2023-10-25T23:56:26.100397210+00:00,1,0
2023-10-25T23:56:26.100447220+00:00,0,0
2023-10-25T23:56:26.100530320+00:00,0,1
2023-10-25T23:56:26.100530350+00:00,0,0
2023-10-25T23:56:26.105397200+00:00,1,0
2023-10-25T23:56:26.105447210+00:00,0,0
2023-10-25T23:56:26.105530860+00:00,0,1
2023-10-25T23:56:26.105530890+00:00,0,0
2023-10-25T23:56:26.110397190+00:00,1,0
2023-10-25T23:56:26.110447200+00:00,0,0
2023-10-25T23:56:26.110530090+00:00,0,1
2023-10-25T23:56:26.110530120+00:00,0,0
2023-10-25T23:56:26.115397180+00:00,1,0
2023-10-25T23:56:26.115447190+00:00,0,0
2023-10-25T23:56:26.115530360+00:00,0,1
2023-10-25T23:56:26.115530390+00:00,0,0
2023-10-25T23:56:26.120397170+00:00,1,0
2023-10-25T23:56:26.120447180+00:00,0,0
2023-10-25T23:56:26.120529590+00:00,0,1
2023-10-25T23:56:26.120529620+00:00,0,0
2023-10-25T23:56:26.125397170+00:00,1,0
2023-10-25T23:56:26.125447170+00:00,0,0
2023-10-25T23:56:26.125530130+00:00,0,1
2023-10-25T23:56:26.125530160+00:00,0,0
2023-10-25T23:56:26.130397160+00:00,1,0
2023-10-25T23:56:26.130447160+00:00,0,0
2023-10-25T23:56:26.130530410+00:00,0,1
2023-10-25T23:56:26.130530440+00:00,0,0
2023-10-25T23:56:26.135397150+00:00,1,0
2023-10-25T23:56:26.135447150+00:00,0,0
2023-10-25T23:56:26.135529640+00:00,0,1
2023-10-25T23:56:26.135529670+00:00,0,0
2023-10-25T23:56:26.140397140+00:00,1,0
2023-10-25T23:56:26.140447140+00:00,0,0
2023-10-25T23:56:26.140530180+00:00,0,1
2023-10-25T23:56:26.140530210+00:00,0,0
2023-10-25T23:56:26.145397130+00:00,1,0
2023-10-25T23:56:26.145447130+00:00,0,0
2023-10-25T23:56:26.145530460+00:00,0,1
2023-10-25T23:56:26.145530490+00:00,0,0
2023-10-25T23:56:26.150397120+00:00,1,0
2023-10-25T23:56:26.150447130+00:00,0,0
2023-10-25T23:56:26.150529690+00:00,0,1
2023-10-25T23:56:26.150529720+00:00,0,0
2023-10-25T23:56:26.155397110+00:00,1,0
2023-10-25T23:56:26.155447120+00:00,0,0
