Time [s],Channel 0,Channel 1
2024-02-01T06:06:21.580276000+00:00,0,0
2024-02-01T06:06:21.682461320+00:00,1,0
2024-02-01T06:06:21.682511340+00:00,0,0
2024-02-01T06:06:21.688876860+00:00,0,1
2024-02-01T06:06:21.689571570+00:00,0,0
2024-02-01T06:06:21.882460530+00:00,1,0
2024-02-01T06:06:21.882510550+00:00,0,0
2024-02-01T06:06:21.888800840+00:00,0,1
2024-02-01T06:06:21.889353850+00:00,0,0
2024-02-01T06:06:22.082459750+00:00,1,0
2024-02-01T06:06:22.082509760+00:00,0,0
2024-02-01T06:06:22.088868070+00:00,0,1
2024-02-01T06:06:22.089615530+00:00,0,0
2024-02-01T06:06:22.282458960+00:00,1,0
2024-02-01T06:06:22.282508980+00:00,0,0
2024-02-01T06:06:22.288587190+00:00,0,1
2024-02-01T06:06:22.289137300+00:00,0,0
2024-02-01T06:06:22.482458180+00:00,1,0
2024-02-01T06:06:22.482508200+00:00,0,0
2024-02-01T06:06:22.489178610+00:00,0,1
2024-02-01T06:06:22.489892680+00:00,0,0
2024-02-01T06:06:22.682457390+00:00,1,0
2024-02-01T06:06:22.682507410+00:00,0,0
2024-02-01T06:06:22.691127620+00:00,0,1
2024-02-01T06:06:22.691836250+00:00,0,0
2024-02-01T06:06:22.882456610+00:00,1,0
2024-02-01T06:06:22.882506630+00:00,0,0
2024-02-01T06:06:22.893136530+00:00,0,1
2024-02-01T06:06:22.893951430+00:00,0,0
2024-02-01T06:06:23.082455830+00:00,1,0
2024-02-01T06:06:23.082505840+00:00,0,0
2024-02-01T06:06:23.089699790+00:00,0,1
2024-02-01T06:06:23.090342120+00:00,0,0
2024-02-01T06:06:23.282455040+00:00,1,0
2024-02-01T06:06:23.282505060+00:00,0,0
2024-02-01T06:06:23.288805780+00:00,0,1
2024-02-01T06:06:23.289377720+00:00,0,0
2024-02-01T06:06:23.482454260+00:00,1,0
2024-02-01T06:06:23.482504270+00:00,0,0
2024-02-01T06:06:23.488659570+00:00,0,1
2024-02-01T06:06:23.489199910+00:00,0,0
2024-02-01T06:06:23.682453470+00:00,1,0
2024-02-01T06:06:23.682503490+00:00,0,0
2024-02-01T06:06:23.688474230+00:00,0,1
2024-02-01T06:06:23.689092080+00:00,0,0
2024-02-01T06:06:23.882452690+00:00,1,0
2024-02-01T06:06:23.882502700+00:00,0,0
2024-02-01T06:06:23.888856160+00:00,0,1
2024-02-01T06:06:23.889505570+00:00,0,0
2024-02-01T06:06:24.082451900+00:00,1,0
2024-02-01T06:06:24.082501920+00:00,0,0
2024-02-01T06:06:24.088605500+00:00,0,1
2024-02-01T06:06:24.089130100+00:00,0,0
2024-02-01T06:06:24.282451120+00:00,1,0
2024-02-01T06:06:24.282501130+00:00,0,0
2024-02-01T06:06:24.288465110+00:00,0,1
2024-02-01T06:06:24.288997870+00:00,0,0
2024-02-01T06:06:24.482450330+00:00,1,0
2024-02-01T06:06:24.482500350+00:00,0,0
2024-02-01T06:06:24.488622800+00:00,0,1
2024-02-01T06:06:24.489180630+00:00,0,0
2024-02-01T06:06:24.682449550+00:00,1,0
2024-02-01T06:06:24.682499560+00:00,0,0
2024-02-01T06:06:24.688705100+00:00,0,1
2024-02-01T06:06:24.689314320+00:00,0,0
2024-02-01T06:06:24.882448760+00:00,1,0
2024-02-01T06:06:24.882498780+00:00,0,0
2024-02-01T06:06:24.889513820+00:00,0,1
2024-02-01T06:06:24.890048570+00:00,0,0
2024-02-01T06:06:25.082447980+00:00,1,0
2024-02-01T06:06:25.082497990+00:00,0,0
2024-02-01T06:06:25.088145520+00:00,0,1
2024-02-01T06:06:25.088743540+00:00,0,0
2024-02-01T06:06:25.282447190+00:00,1,0
2024-02-01T06:06:25.282497210+00:00,0,0
2024-02-01T06:06:25.288503670+00:00,0,1
2024-02-01T06:06:25.289035090+00:00,0,0
2024-02-01T06:06:25.482446410+00:00,1,0
2024-02-01T06:06:25.482496420+00:00,0,0
2024-02-01T06:06:25.486430960+00:00,0,1
2024-02-01T06:06:25.486968570+00:00,0,0
2024-02-01T06:06:25.682445620+00:00,1,0
2024-02-01T06:06:25.682495640+00:00,0,0
2024-02-01T06:06:25.688519550+00:00,0,1
2024-02-01T06:06:25.689048980+00:00,0,0
2024-02-01T06:06:25.882444840+00:00,1,0
2024-02-01T06:06:25.882494850+00:00,0,0
2024-02-01T06:06:25.888840830+00:00,0,1
2024-02-01T06:06:25.889398540+00:00,0,0
2024-02-01T06:06:26.082444050+00:00,1,0
2024-02-01T06:06:26.082494070+00:00,0,0
2024-02-01T06:06:26.088653150+00:00,0,1
2024-02-01T06:06:26.089270610+00:00,0,0
2024-02-01T06:06:26.282443270+00:00,1,0
2024-02-01T06:06:26.282493280+00:00,0,0
2024-02-01T06:06:26.288859690+00:00,0,1
2024-02-01T06:06:26.289393320+00:00,0,0
2024-02-01T06:06:26.482442480+00:00,1,0
2024-02-01T06:06:26.482492500+00:00,0,0
2024-02-01T06:06:26.492191590+00:00,0,1
2024-02-01T06:06:26.492800000+00:00,0,0
2024-02-01T06:06:26.682441700+00:00,1,0
2024-02-01T06:06:26.682491710+00:00,0,0
2024-02-01T06:06:26.688860610+00:00,0,1
2024-02-01T06:06:26.689571750+00:00,0,0
2024-02-01T06:06:26.882440910+00:00,1,0
2024-02-01T06:06:26.882490930+00:00,0,0
2024-02-01T06:06:26.888896660+00:00,0,1
2024-02-01T06:06:26.889430860+00:00,0,0
2024-02-01T06:06:27.082440120+00:00,1,0
2024-02-01T06:06:27.082490140+00:00,0,0
2024-02-01T06:06:27.090117180+00:00,0,1
2024-02-01T06:06:27.090649050+00:00,0,0
2024-02-01T06:06:27.282439340+00:00,1,0
2024-02-01T06:06:27.282489350+00:00,0,0
2024-02-01T06:06:27.288465840+00:00,0,1
2024-02-01T06:06:27.289023750+00:00,0,0
2024-02-01T06:06:27.482438550+00:00,1,0
2024-02-01T06:06:27.482488570+00:00,0,0
2024-02-01T06:06:27.488660830+00:00,0,1
2024-02-01T06:06:27.489272040+00:00,0,0
2024-02-01T06:06:27.682437770+00:00,1,0
2024-02-01T06:06:27.682487780+00:00,0,0
2024-02-01T06:06:27.688831680+00:00,0,1
2024-02-01T06:06:27.689373700+00:00,0,0
2024-02-01T06:06:27.882436980+00:00,1,0
2024-02-01T06:06:27.882487000+00:00,0,0
2024-02-01T06:06:27.888965290+00:00,0,1
2024-02-01T06:06:27.889586430+00:00,0,0
2024-02-01T06:06:28.082436200+00:00,1,0
2024-02-01T06:06:28.082486210+00:00,0,0
2024-02-01T06:06:28.088181020+00:00,0,1
2024-02-01T06:06:28.088876970+00:00,0,0
2024-02-01T06:06:28.282435410+00:00,1,0
2024-02-01T06:06:28.282485430+00:00,0,0
2024-02-01T06:06:28.288642440+00:00,0,1
2024-02-01T06:06:28.289175210+00:00,0,0
2024-02-01T06:06:28.482434630+00:00,1,0
2024-02-01T06:06:28.482484640+00:00,0,0
2024-02-01T06:06:28.489189790+00:00,0,1
2024-02-01T06:06:28.489720430+00:00,0,0
2024-02-01T06:06:28.682433840+00:00,1,0
2024-02-01T06:06:28.682483850+00:00,0,0
2024-02-01T06:06:28.688970100+00:00,0,1
2024-02-01T06:06:28.689609770+00:00,0,0
2024-02-01T06:06:28.882433050+00:00,1,0
2024-02-01T06:06:28.882483070+00:00,0,0
2024-02-01T06:06:28.888636050+00:00,0,1
2024-02-01T06:06:28.889225490+00:00,0,0
2024-02-01T06:06:29.082432270+00:00,1,0
2024-02-01T06:06:29.082482280+00:00,0,0
2024-02-01T06:06:29.089088210+00:00,0,1
2024-02-01T06:06:29.089626480+00:00,0,0
2024-02-01T06:06:29.282431480+00:00,1,0
2024-02-01T06:06:29.282481500+00:00,0,0
2024-02-01T06:06:29.292724630+00:00,0,1
2024-02-01T06:06:29.293430860+00:00,0,0
2024-02-01T06:06:29.482430700+00:00,1,0
2024-02-01T06:06:29.482480710+00:00,0,0
2024-02-01T06:06:29.488610970+00:00,0,1
2024-02-01T06:06:29.489145890+00:00,0,0
2024-02-01T06:06:29.682429910+00:00,1,0
2024-02-01T06:06:29.682479930+00:00,0,0
2024-02-01T06:06:29.688576380+00:00,0,1
2024-02-01T06:06:29.689108280+00:00,0,0
2024-02-01T06:06:29.882429120+00:00,1,0
2024-02-01T06:06:29.882479140+00:00,0,0
2024-02-01T06:06:29.890400780+00:00,0,1
2024-02-01T06:06:29.890987950+00:00,0,0
2024-02-01T06:06:30.082428340+00:00,1,0
2024-02-01T06:06:30.082478350+00:00,0,0
2024-02-01T06:06:30.089249070+00:00,0,1
2024-02-01T06:06:30.089799170+00:00,0,0
2024-02-01T06:06:30.282427550+00:00,1,0
2024-02-01T06:06:30.282477570+00:00,0,0
2024-02-01T06:06:30.288540110+00:00,0,1
2024-02-01T06:06:30.289071560+00:00,0,0
2024-02-01T06:06:30.482426760+00:00,1,0
2024-02-01T06:06:30.482476780+00:00,0,0
2024-02-01T06:06:30.485453100+00:00,0,1
2024-02-01T06:06:30.486110360+00:00,0,0
2024-02-01T06:06:30.682425980+00:00,1,0
2024-02-01T06:06:30.682475990+00:00,0,0
2024-02-01T06:06:30.688511880+00:00,0,1
2024-02-01T06:06:30.689111560+00:00,0,0
2024-02-01T06:06:30.882425190+00:00,1,0
2024-02-01T06:06:30.882475210+00:00,0,0
2024-02-01T06:06:30.888907590+00:00,0,1
2024-02-01T06:06:30.889446060+00:00,0,0
2024-02-01T06:06:31.082424400+00:00,1,0
2024-02-01T06:06:31.082474420+00:00,0,0
2024-02-01T06:06:31.088825400+00:00,0,1
2024-02-01T06:06:31.089437280+00:00,0,0
2024-02-01T06:06:31.282423620+00:00,1,0
2024-02-01T06:06:31.282473630+00:00,0,0
2024-02-01T06:06:31.290042430+00:00,0,1
2024-02-01T06:06:31.290565370+00:00,0,0
2024-02-01T06:06:31.482422830+00:00,1,0
2024-02-01T06:06:31.482472850+00:00,0,0
2024-02-01T06:06:31.493099870+00:00,0,1
2024-02-01T06:06:31.493737650+00:00,0,0
2024-02-01T06:06:31.682422040+00:00,1,0
2024-02-01T06:06:31.682472060+00:00,0,0
2024-02-01T06:06:31.688627940+00:00,0,1
2024-02-01T06:06:31.689330280+00:00,0,0
2024-02-01T06:06:31.882421260+00:00,1,0
2024-02-01T06:06:31.882471270+00:00,0,0
2024-02-01T06:06:31.888837190+00:00,0,1
2024-02-01T06:06:31.889394910+00:00,0,0
2024-02-01T06:06:32.082420470+00:00,1,0
2024-02-01T06:06:32.082470490+00:00,0,0
2024-02-01T06:06:32.089058730+00:00,0,1
2024-02-01T06:06:32.089676800+00:00,0,0
2024-02-01T06:06:32.282419680+00:00,1,0
2024-02-01T06:06:32.282469700+00:00,0,0
2024-02-01T06:06:32.288523080+00:00,0,1
2024-02-01T06:06:32.289056660+00:00,0,0
2024-02-01T06:06:32.482418900+00:00,1,0
2024-02-01T06:06:32.482468910+00:00,0,0
2024-02-01T06:06:32.485741390+00:00,0,1
2024-02-01T06:06:32.486354410+00:00,0,0
2024-02-01T06:06:32.682418110+00:00,1,0
2024-02-01T06:06:32.682468130+00:00,0,0
2024-02-01T06:06:32.688546450+00:00,0,1
2024-02-01T06:06:32.689238070+00:00,0,0
2024-02-01T06:06:32.882417320+00:00,1,0
2024-02-01T06:06:32.882467340+00:00,0,0
2024-02-01T06:06:32.888528280+00:00,0,1
2024-02-01T06:06:32.889055040+00:00,0,0
2024-02-01T06:06:33.082416530+00:00,1,0
2024-02-01T06:06:33.082466550+00:00,0,0
2024-02-01T06:06:33.088524700+00:00,0,1
2024-02-01T06:06:33.089097380+00:00,0,0
2024-02-01T06:06:33.282415750+00:00,1,0
2024-02-01T06:06:33.282465760+00:00,0,0
2024-02-01T06:06:33.288089590+00:00,0,1
2024-02-01T06:06:33.288655450+00:00,0,0
2024-02-01T06:06:33.482414960+00:00,1,0
2024-02-01T06:06:33.482464970+00:00,0,0
2024-02-01T06:06:33.485493830+00:00,0,1
2024-02-01T06:06:33.486102790+00:00,0,0
2024-02-01T06:06:33.682414170+00:00,1,0
2024-02-01T06:06:33.682464190+00:00,0,0
2024-02-01T06:06:33.688543620+00:00,0,1
2024-02-01T06:06:33.689076570+00:00,0,0
2024-02-01T06:06:33.882413380+00:00,1,0
2024-02-01T06:06:33.882463400+00:00,0,0
2024-02-01T06:06:33.888740430+00:00,0,1
2024-02-01T06:06:33.889357510+00:00,0,0
2024-02-01T06:06:34.082412600+00:00,1,0
2024-02-01T06:06:34.082462610+00:00,0,0
2024-02-01T06:06:34.091069140+00:00,0,1
2024-02-01T06:06:34.091644200+00:00,0,0
2024-02-01T06:06:34.282411810+00:00,1,0
2024-02-01T06:06:34.282461820+00:00,0,0
2024-02-01T06:06:34.288280460+00:00,0,1
2024-02-01T06:06:34.288816520+00:00,0,0
2024-02-01T06:06:34.482411020+00:00,1,0
2024-02-01T06:06:34.482461040+00:00,0,0
2024-02-01T06:06:34.485753150+00:00,0,1
2024-02-01T06:06:34.486292690+00:00,0,0
2024-02-01T06:06:34.682410230+00:00,1,0
2024-02-01T06:06:34.682460250+00:00,0,0
2024-02-01T06:06:34.689276910+00:00,0,1
2024-02-01T06:06:34.689887270+00:00,0,0
2024-02-01T06:06:34.882409450+00:00,1,0
2024-02-01T06:06:34.882459460+00:00,0,0
2024-02-01T06:06:34.888638980+00:00,0,1
2024-02-01T06:06:34.889246790+00:00,0,0
2024-02-01T06:06:35.082408660+00:00,1,0
2024-02-01T06:06:35.082458670+00:00,0,0
2024-02-01T06:06:35.089670070+00:00,0,1
2024-02-01T06:06:35.090207950+00:00,0,0
2024-02-01T06:06:35.282407870+00:00,1,0
2024-02-01T06:06:35.282457880+00:00,0,0
2024-02-01T06:06:35.288680630+00:00,0,1
2024-02-01T06:06:35.289404440+00:00,0,0
2024-02-01T06:06:35.482407080+00:00,1,0
2024-02-01T06:06:35.482457100+00:00,0,0
2024-02-01T06:06:35.487019330+00:00,0,1
2024-02-01T06:06:35.487551760+00:00,0,0
2024-02-01T06:06:35.682406290+00:00,1,0
2024-02-01T06:06:35.682456310+00:00,0,0
2024-02-01T06:06:35.691393460+00:00,0,1
2024-02-01T06:06:35.691928720+00:00,0,0
2024-02-01T06:06:35.882405510+00:00,1,0
2024-02-01T06:06:35.882455520+00:00,0,0
2024-02-01T06:06:35.888599770+00:00,0,1
2024-02-01T06:06:35.889126080+00:00,0,0
2024-02-01T06:06:36.082404720+00:00,1,0
2024-02-01T06:06:36.082454730+00:00,0,0
2024-02-01T06:06:36.090164130+00:00,0,1
2024-02-01T06:06:36.090686030+00:00,0,0
2024-02-01T06:06:36.282403930+00:00,1,0
2024-02-01T06:06:36.282453950+00:00,0,0
2024-02-01T06:06:36.288826420+00:00,0,1
2024-02-01T06:06:36.289357160+00:00,0,0
2024-02-01T06:06:36.482403140+00:00,1,0
2024-02-01T06:06:36.482453160+00:00,0,0
2024-02-01T06:06:36.488886330+00:00,0,1
2024-02-01T06:06:36.489495160+00:00,0,0
2024-02-01T06:06:36.682402350+00:00,1,0
2024-02-01T06:06:36.682452370+00:00,0,0
2024-02-01T06:06:36.688118390+00:00,0,1
2024-02-01T06:06:36.688758590+00:00,0,0
2024-02-01T06:06:36.882401560+00:00,1,0
2024-02-01T06:06:36.882451580+00:00,0,0
2024-02-01T06:06:36.888783440+00:00,0,1
2024-02-01T06:06:36.889440050+00:00,0,0
2024-02-01T06:06:37.082400780+00:00,1,0
2024-02-01T06:06:37.082450790+00:00,0,0
2024-02-01T06:06:37.088917650+00:00,0,1
2024-02-01T06:06:37.089560280+00:00,0,0
2024-02-01T06:06:37.282399990+00:00,1,0
2024-02-01T06:06:37.282450000+00:00,0,0
2024-02-01T06:06:37.288508120+00:00,0,1
2024-02-01T06:06:37.289037490+00:00,0,0
2024-02-01T06:06:37.482399200+00:00,1,0
2024-02-01T06:06:37.482449220+00:00,0,0
2024-02-01T06:06:37.487572570+00:00,0,1
2024-02-01T06:06:37.488207720+00:00,0,0
2024-02-01T06:06:37.682398410+00:00,1,0
2024-02-01T06:06:37.682448430+00:00,0,0
2024-02-01T06:06:37.688832970+00:00,0,1
2024-02-01T06:06:37.689462110+00:00,0,0
2024-02-01T06:06:37.882397620+00:00,1,0
2024-02-01T06:06:37.882447640+00:00,0,0
2024-02-01T06:06:37.888762940+00:00,0,1
2024-02-01T06:06:37.889415380+00:00,0,0
2024-02-01T06:06:38.082396840+00:00,1,0
2024-02-01T06:06:38.082446850+00:00,0,0
2024-02-01T06:06:38.088523700+00:00,0,1
2024-02-01T06:06:38.089093300+00:00,0,0
2024-02-01T06:06:38.282396050+00:00,1,0
2024-02-01T06:06:38.282446060+00:00,0,0
2024-02-01T06:06:38.288536480+00:00,0,1
2024-02-01T06:06:38.289254750+00:00,0,0
2024-02-01T06:06:38.482395260+00:00,1,0
2024-02-01T06:06:38.482445270+00:00,0,0
2024-02-01T06:06:38.485627540+00:00,0,1
2024-02-01T06:06:38.486164160+00:00,0,0
2024-02-01T06:06:38.682394470+00:00,1,0
2024-02-01T06:06:38.682444480+00:00,0,0
2024-02-01T06:06:38.688021600+00:00,0,1
2024-02-01T06:06:38.688563040+00:00,0,0
2024-02-01T06:06:38.882393680+00:00,1,0
2024-02-01T06:06:38.882443700+00:00,0,0
2024-02-01T06:06:38.888570520+00:00,0,1
2024-02-01T06:06:38.889170150+00:00,0,0
2024-02-01T06:06:39.082392890+00:00,1,0
2024-02-01T06:06:39.082442910+00:00,0,0
2024-02-01T06:06:39.088157210+00:00,0,1
2024-02-01T06:06:39.088693760+00:00,0,0
2024-02-01T06:06:39.282392100+00:00,1,0
2024-02-01T06:06:39.282442120+00:00,0,0
2024-02-01T06:06:39.290317900+00:00,0,1
2024-02-01T06:06:39.290855830+00:00,0,0
2024-02-01T06:06:39.482391310+00:00,1,0
2024-02-01T06:06:39.482441330+00:00,0,0
2024-02-01T06:06:39.485515130+00:00,0,1
2024-02-01T06:06:39.486162750+00:00,0,0
2024-02-01T06:06:39.682390520+00:00,1,0
2024-02-01T06:06:39.682440540+00:00,0,0
2024-02-01T06:06:39.688991460+00:00,0,1
2024-02-01T06:06:39.689605530+00:00,0,0
2024-02-01T06:06:39.882389740+00:00,1,0
2024-02-01T06:06:39.882439750+00:00,0,0
2024-02-01T06:06:39.890348500+00:00,0,1
2024-02-01T06:06:39.890889780+00:00,0,0
2024-02-01T06:06:40.082388950+00:00,1,0
2024-02-01T06:06:40.082438960+00:00,0,0
2024-02-01T06:06:40.087994750+00:00,0,1
2024-02-01T06:06:40.088530790+00:00,0,0
2024-02-01T06:06:40.282388160+00:00,1,0
2024-02-01T06:06:40.282438170+00:00,0,0
2024-02-01T06:06:40.288563440+00:00,0,1
2024-02-01T06:06:40.289188000+00:00,0,0
2024-02-01T06:06:40.482387370+00:00,1,0
2024-02-01T06:06:40.482437380+00:00,0,0
2024-02-01T06:06:40.485648190+00:00,0,1
2024-02-01T06:06:40.486268050+00:00,0,0
2024-02-01T06:06:40.682386580+00:00,1,0
2024-02-01T06:06:40.682436600+00:00,0,0
2024-02-01T06:06:40.689217170+00:00,0,1
2024-02-01T06:06:40.689832380+00:00,0,0
2024-02-01T06:06:40.882385790+00:00,1,0
2024-02-01T06:06:40.882435810+00:00,0,0
2024-02-01T06:06:40.888661990+00:00,0,1
2024-02-01T06:06:40.889229360+00:00,0,0
2024-02-01T06:06:41.082385000+00:00,1,0
2024-02-01T06:06:41.082435020+00:00,0,0
2024-02-01T06:06:41.088201590+00:00,0,1
2024-02-01T06:06:41.088745170+00:00,0,0
2024-02-01T06:06:41.282384210+00:00,1,0
2024-02-01T06:06:41.282434230+00:00,0,0
2024-02-01T06:06:41.289395770+00:00,0,1
2024-02-01T06:06:41.289937400+00:00,0,0
2024-02-01T06:06:41.482383420+00:00,1,0
2024-02-01T06:06:41.482433440+00:00,0,0
2024-02-01T06:06:41.485551330+00:00,0,1
2024-02-01T06:06:41.486171460+00:00,0,0
2024-02-01T06:06:41.682382630+00:00,1,0
2024-02-01T06:06:41.682432650+00:00,0,0
2024-02-01T06:06:41.688583030+00:00,0,1
2024-02-01T06:06:41.689198820+00:00,0,0
2024-02-01T06:06:41.882381840+00:00,1,0
2024-02-01T06:06:41.882431860+00:00,0,0
2024-02-01T06:06:41.889057700+00:00,0,1
2024-02-01T06:06:41.889655600+00:00,0,0
2024-02-01T06:06:42.082381050+00:00,1,0
2024-02-01T06:06:42.082431070+00:00,0,0
2024-02-01T06:06:42.088749980+00:00,0,1
2024-02-01T06:06:42.089288150+00:00,0,0
2024-02-01T06:06:42.282380260+00:00,1,0
2024-02-01T06:06:42.282430280+00:00,0,0
2024-02-01T06:06:42.288744310+00:00,0,1
2024-02-01T06:06:42.289399950+00:00,0,0
2024-02-01T06:06:42.482379470+00:00,1,0
2024-02-01T06:06:42.482429490+00:00,0,0
2024-02-01T06:06:42.485531790+00:00,0,1
2024-02-01T06:06:42.486066920+00:00,0,0
2024-02-01T06:06:42.682378690+00:00,1,0
2024-02-01T06:06:42.682428700+00:00,0,0
2024-02-01T06:06:42.689929190+00:00,0,1
2024-02-01T06:06:42.690492360+00:00,0,0
2024-02-01T06:06:42.882377900+00:00,1,0
2024-02-01T06:06:42.882427910+00:00,0,0
2024-02-01T06:06:42.888630730+00:00,0,1
2024-02-01T06:06:42.889251930+00:00,0,0
2024-02-01T06:06:43.082377110+00:00,1,0
2024-02-01T06:06:43.082427120+00:00,0,0
2024-02-01T06:06:43.088594910+00:00,0,1
2024-02-01T06:06:43.089284420+00:00,0,0
2024-02-01T06:06:43.282376320+00:00,1,0
2024-02-01T06:06:43.282426330+00:00,0,0
2024-02-01T06:06:43.288410130+00:00,0,1
2024-02-01T06:06:43.288948120+00:00,0,0
2024-02-01T06:06:43.482375530+00:00,1,0
2024-02-01T06:06:43.482425540+00:00,0,0
2024-02-01T06:06:43.485511520+00:00,0,1
2024-02-01T06:06:43.486133810+00:00,0,0
2024-02-01T06:06:43.682374740+00:00,1,0
2024-02-01T06:06:43.682424750+00:00,0,0
2024-02-01T06:06:43.688115140+00:00,0,1
2024-02-01T06:06:43.688754030+00:00,0,0
2024-02-01T06:06:43.882373950+00:00,1,0
2024-02-01T06:06:43.882423960+00:00,0,0
2024-02-01T06:06:43.888384140+00:00,0,1
2024-02-01T06:06:43.888914500+00:00,0,0
2024-02-01T06:06:44.082373160+00:00,1,0
2024-02-01T06:06:44.082423170+00:00,0,0
2024-02-01T06:06:44.090364050+00:00,0,1
2024-02-01T06:06:44.091017470+00:00,0,0
2024-02-01T06:06:44.282372370+00:00,1,0
2024-02-01T06:06:44.282422380+00:00,0,0
2024-02-01T06:06:44.294226230+00:00,0,1
2024-02-01T06:06:44.294846880+00:00,0,0
2024-02-01T06:06:44.482371580+00:00,1,0
2024-02-01T06:06:44.482421590+00:00,0,0
2024-02-01T06:06:44.485722960+00:00,0,1
2024-02-01T06:06:44.486344920+00:00,0,0
2024-02-01T06:06:44.682370790+00:00,1,0
2024-02-01T06:06:44.682420800+00:00,0,0
2024-02-01T06:06:44.688359170+00:00,0,1
2024-02-01T06:06:44.688972760+00:00,0,0
2024-02-01T06:06:44.882370000+00:00,1,0
2024-02-01T06:06:44.882420010+00:00,0,0
2024-02-01T06:06:44.890008490+00:00,0,1
2024-02-01T06:06:44.890537230+00:00,0,0
2024-02-01T06:06:45.082369210+00:00,1,0
2024-02-01T06:06:45.082419220+00:00,0,0
2024-02-01T06:06:45.088753840+00:00,0,1
2024-02-01T06:06:45.089363380+00:00,0,0
2024-02-01T06:06:45.282368420+00:00,1,0
2024-02-01T06:06:45.282418430+00:00,0,0
2024-02-01T06:06:45.288569920+00:00,0,1
2024-02-01T06:06:45.289099670+00:00,0,0
2024-02-01T06:06:45.482367630+00:00,1,0
2024-02-01T06:06:45.482417640+00:00,0,0
2024-02-01T06:06:45.485437390+00:00,0,1
2024-02-01T06:06:45.486079260+00:00,0,0
2024-02-01T06:06:45.682366840+00:00,1,0
2024-02-01T06:06:45.682416850+00:00,0,0
2024-02-01T06:06:45.688610160+00:00,0,1
2024-02-01T06:06:45.689218150+00:00,0,0
2024-02-01T06:06:45.882366050+00:00,1,0
2024-02-01T06:06:45.882416060+00:00,0,0
2024-02-01T06:06:45.888554230+00:00,0,1
2024-02-01T06:06:45.889091390+00:00,0,0
2024-02-01T06:06:46.082365260+00:00,1,0
2024-02-01T06:06:46.082415270+00:00,0,0
2024-02-01T06:06:46.088076980+00:00,0,1
2024-02-01T06:06:46.088779300+00:00,0,0
2024-02-01T06:06:46.282364470+00:00,1,0
2024-02-01T06:06:46.282414480+00:00,0,0
2024-02-01T06:06:46.288535370+00:00,0,1
2024-02-01T06:06:46.289064950+00:00,0,0
2024-02-01T06:06:46.482363680+00:00,1,0
2024-02-01T06:06:46.482413690+00:00,0,0
