Time [s],Channel 0,Channel 1
2024-02-01T05:41:02.015779000+00:00,0,0
2024-02-01T05:41:02.083139370+00:00,1,0
2024-02-01T05:41:02.083189380+00:00,0,0
2024-02-01T05:41:02.085765790+00:00,0,1
2024-02-01T05:41:02.086378560+00:00,0,0
2024-02-01T05:41:02.183138980+00:00,1,0
2024-02-01T05:41:02.183189000+00:00,0,0
2024-02-01T05:41:02.185645650+00:00,0,1
2024-02-01T05:41:02.186272710+00:00,0,0
2024-02-01T05:41:02.283138600+00:00,1,0
2024-02-01T05:41:02.283188610+00:00,0,0
2024-02-01T05:41:02.285506500+00:00,0,1
2024-02-01T05:41:02.286129780+00:00,0,0
2024-02-01T05:41:02.383138210+00:00,1,0
2024-02-01T05:41:02.383188230+00:00,0,0
2024-02-01T05:41:02.385477720+00:00,0,1
2024-02-01T05:41:02.386032700+00:00,0,0
2024-02-01T05:41:02.483137830+00:00,1,0
2024-02-01T05:41:02.483187840+00:00,0,0
2024-02-01T05:41:02.485424980+00:00,0,1
2024-02-01T05:41:02.485977800+00:00,0,0
2024-02-01T05:41:02.583137440+00:00,1,0
2024-02-01T05:41:02.583187460+00:00,0,0
2024-02-01T05:41:02.585408170+00:00,0,1
2024-02-01T05:41:02.585954220+00:00,0,0
2024-02-01T05:41:02.683137060+00:00,1,0
2024-02-01T05:41:02.683187070+00:00,0,0
2024-02-01T05:41:02.685429480+00:00,0,1
2024-02-01T05:41:02.685985460+00:00,0,0
2024-02-01T05:41:02.783136670+00:00,1,0
2024-02-01T05:41:02.783186690+00:00,0,0
2024-02-01T05:41:02.785497810+00:00,0,1
2024-02-01T05:41:02.786054690+00:00,0,0
2024-02-01T05:41:02.883136290+00:00,1,0
2024-02-01T05:41:02.883186300+00:00,0,0
2024-02-01T05:41:02.885600980+00:00,0,1
2024-02-01T05:41:02.886228300+00:00,0,0
2024-02-01T05:41:02.983135900+00:00,1,0
2024-02-01T05:41:02.983185920+00:00,0,0
2024-02-01T05:41:02.985459280+00:00,0,1
2024-02-01T05:41:02.986018330+00:00,0,0
2024-02-01T05:41:03.083135510+00:00,1,0
2024-02-01T05:41:03.083185530+00:00,0,0
2024-02-01T05:41:03.085656130+00:00,0,1
2024-02-01T05:41:03.086282730+00:00,0,0
2024-02-01T05:41:03.183135130+00:00,1,0
2024-02-01T05:41:03.183185150+00:00,0,0
2024-02-01T05:41:03.185522690+00:00,0,1
2024-02-01T05:41:03.186082840+00:00,0,0
2024-02-01T05:41:03.283134740+00:00,1,0
2024-02-01T05:41:03.283184760+00:00,0,0
2024-02-01T05:41:03.285387990+00:00,0,1
2024-02-01T05:41:03.285942640+00:00,0,0
2024-02-01T05:41:03.383134360+00:00,1,0
2024-02-01T05:41:03.383184370+00:00,0,0
2024-02-01T05:41:03.385622770+00:00,0,1
2024-02-01T05:41:03.386258380+00:00,0,0
2024-02-01T05:41:03.483133970+00:00,1,0
2024-02-01T05:41:03.483183990+00:00,0,0
2024-02-01T05:41:03.485586470+00:00,0,1
2024-02-01T05:41:03.486209700+00:00,0,0
2024-02-01T05:41:03.583133590+00:00,1,0
2024-02-01T05:41:03.583183600+00:00,0,0
2024-02-01T05:41:03.585537660+00:00,0,1
2024-02-01T05:41:03.586169750+00:00,0,0
2024-02-01T05:41:03.683133200+00:00,1,0
2024-02-01T05:41:03.683183220+00:00,0,0
2024-02-01T05:41:03.685441860+00:00,0,1
2024-02-01T05:41:03.686003040+00:00,0,0
2024-02-01T05:41:03.783132820+00:00,1,0
2024-02-01T05:41:03.783182830+00:00,0,0
2024-02-01T05:41:03.785418940+00:00,0,1
2024-02-01T05:41:03.785975630+00:00,0,0
2024-02-01T05:41:03.883132430+00:00,1,0
2024-02-01T05:41:03.883182450+00:00,0,0
2024-02-01T05:41:03.885422720+00:00,0,1
2024-02-01T05:41:03.885982700+00:00,0,0
2024-02-01T05:41:03.983132050+00:00,1,0
2024-02-01T05:41:03.983182060+00:00,0,0
2024-02-01T05:41:03.985438810+00:00,0,1
2024-02-01T05:41:03.986003340+00:00,0,0
2024-02-01T05:41:04.083131660+00:00,1,0
2024-02-01T05:41:04.083181680+00:00,0,0
2024-02-01T05:41:04.085510170+00:00,0,1
2024-02-01T05:41:04.086065720+00:00,0,0
2024-02-01T05:41:04.183131280+00:00,1,0
2024-02-01T05:41:04.183181290+00:00,0,0
2024-02-01T05:41:04.185571170+00:00,0,1
2024-02-01T05:41:04.186141360+00:00,0,0
2024-02-01T05:41:04.283130890+00:00,1,0
2024-02-01T05:41:04.283180910+00:00,0,0
2024-02-01T05:41:04.285431260+00:00,0,1
2024-02-01T05:41:04.286036640+00:00,0,0
2024-02-01T05:41:04.383130510+00:00,1,0
2024-02-01T05:41:04.383180520+00:00,0,0
2024-02-01T05:41:04.385456180+00:00,0,1
2024-02-01T05:41:04.386018790+00:00,0,0
2024-02-01T05:41:04.483130120+00:00,1,0
2024-02-01T05:41:04.483180140+00:00,0,0
2024-02-01T05:41:04.485415900+00:00,0,1
2024-02-01T05:41:04.485979750+00:00,0,0
2024-02-01T05:41:04.583129730+00:00,1,0
2024-02-01T05:41:04.583179750+00:00,0,0
2024-02-01T05:41:04.585485690+00:00,0,1
2024-02-01T05:41:04.586045060+00:00,0,0
2024-02-01T05:41:04.683129350+00:00,1,0
2024-02-01T05:41:04.683179370+00:00,0,0
2024-02-01T05:41:04.685408550+00:00,0,1
2024-02-01T05:41:04.685966080+00:00,0,0
2024-02-01T05:41:04.783128960+00:00,1,0
2024-02-01T05:41:04.783178980+00:00,0,0
2024-02-01T05:41:04.785415510+00:00,0,1
2024-02-01T05:41:04.785975360+00:00,0,0
2024-02-01T05:41:04.883128580+00:00,1,0
2024-02-01T05:41:04.883178590+00:00,0,0
2024-02-01T05:41:04.885435930+00:00,0,1
2024-02-01T05:41:04.885999550+00:00,0,0
2024-02-01T05:41:04.983128190+00:00,1,0
2024-02-01T05:41:04.983178210+00:00,0,0
2024-02-01T05:41:04.985408960+00:00,0,1
2024-02-01T05:41:04.985968360+00:00,0,0
2024-02-01T05:41:05.083127810+00:00,1,0
2024-02-01T05:41:05.083177820+00:00,0,0
2024-02-01T05:41:05.085501890+00:00,0,1
2024-02-01T05:41:05.086054200+00:00,0,0
2024-02-01T05:41:05.183127420+00:00,1,0
2024-02-01T05:41:05.183177440+00:00,0,0
2024-02-01T05:41:05.185518010+00:00,0,1
2024-02-01T05:41:05.186077240+00:00,0,0
2024-02-01T05:41:05.283127040+00:00,1,0
2024-02-01T05:41:05.283177050+00:00,0,0
2024-02-01T05:41:05.285435650+00:00,0,1
2024-02-01T05:41:05.285994640+00:00,0,0
2024-02-01T05:41:05.383126650+00:00,1,0
2024-02-01T05:41:05.383176670+00:00,0,0
2024-02-01T05:41:05.385505780+00:00,0,1
2024-02-01T05:41:05.386061240+00:00,0,0
2024-02-01T05:41:05.483126260+00:00,1,0
2024-02-01T05:41:05.483176280+00:00,0,0
2024-02-01T05:41:05.485455680+00:00,0,1
2024-02-01T05:41:05.486008070+00:00,0,0
2024-02-01T05:41:05.583125880+00:00,1,0
2024-02-01T05:41:05.583175900+00:00,0,0
2024-02-01T05:41:05.585419950+00:00,0,1
2024-02-01T05:41:05.585975810+00:00,0,0
2024-02-01T05:41:05.683125490+00:00,1,0
2024-02-01T05:41:05.683175510+00:00,0,0
2024-02-01T05:41:05.685388960+00:00,0,1
2024-02-01T05:41:05.685942590+00:00,0,0
2024-02-01T05:41:05.783125110+00:00,1,0
2024-02-01T05:41:05.783175120+00:00,0,0
2024-02-01T05:41:05.785466620+00:00,0,1
2024-02-01T05:41:05.786022490+00:00,0,0
2024-02-01T05:41:05.883124720+00:00,1,0
2024-02-01T05:41:05.883174740+00:00,0,0
2024-02-01T05:41:05.885441580+00:00,0,1
2024-02-01T05:41:05.886001260+00:00,0,0
2024-02-01T05:41:05.983124340+00:00,1,0
2024-02-01T05:41:05.983174350+00:00,0,0
2024-02-01T05:41:05.985620070+00:00,0,1
2024-02-01T05:41:05.986167740+00:00,0,0
2024-02-01T05:41:06.083123950+00:00,1,0
2024-02-01T05:41:06.083173970+00:00,0,0
2024-02-01T05:41:06.085673690+00:00,0,1
2024-02-01T05:41:06.086302790+00:00,0,0
2024-02-01T05:41:06.183123570+00:00,1,0
2024-02-01T05:41:06.183173580+00:00,0,0
2024-02-01T05:41:06.185455710+00:00,0,1
2024-02-01T05:41:06.186011390+00:00,0,0
2024-02-01T05:41:06.283123180+00:00,1,0
2024-02-01T05:41:06.283173200+00:00,0,0
2024-02-01T05:41:06.285615770+00:00,0,1
2024-02-01T05:41:06.286164010+00:00,0,0
2024-02-01T05:41:06.383122790+00:00,1,0
2024-02-01T05:41:06.383172810+00:00,0,0
2024-02-01T05:41:06.385688410+00:00,0,1
2024-02-01T05:41:06.386323880+00:00,0,0
2024-02-01T05:41:06.483122410+00:00,1,0
2024-02-01T05:41:06.483172420+00:00,0,0
2024-02-01T05:41:06.485483750+00:00,0,1
2024-02-01T05:41:06.486042380+00:00,0,0
2024-02-01T05:41:06.583122020+00:00,1,0
2024-02-01T05:41:06.583172040+00:00,0,0
2024-02-01T05:41:06.585417090+00:00,0,1
2024-02-01T05:41:06.585975630+00:00,0,0
2024-02-01T05:41:06.683121640+00:00,1,0
2024-02-01T05:41:06.683171650+00:00,0,0
2024-02-01T05:41:06.685547550+00:00,0,1
2024-02-01T05:41:06.686172390+00:00,0,0
2024-02-01T05:41:06.783121250+00:00,1,0
2024-02-01T05:41:06.783171270+00:00,0,0
2024-02-01T05:41:06.785433820+00:00,0,1
2024-02-01T05:41:06.785989310+00:00,0,0
2024-02-01T05:41:06.883120870+00:00,1,0
2024-02-01T05:41:06.883170880+00:00,0,0
2024-02-01T05:41:06.885591600+00:00,0,1
2024-02-01T05:41:06.886216450+00:00,0,0
2024-02-01T05:41:06.983120480+00:00,1,0
2024-02-01T05:41:06.983170500+00:00,0,0
2024-02-01T05:41:06.985507650+00:00,0,1
2024-02-01T05:41:06.986076260+00:00,0,0
2024-02-01T05:41:07.083120090+00:00,1,0
2024-02-01T05:41:07.083170110+00:00,0,0
2024-02-01T05:41:07.085594170+00:00,0,1
2024-02-01T05:41:07.086150810+00:00,0,0
2024-02-01T05:41:07.183119710+00:00,1,0
2024-02-01T05:41:07.183169720+00:00,0,0
2024-02-01T05:41:07.185462570+00:00,0,1
2024-02-01T05:41:07.186014280+00:00,0,0
2024-02-01T05:41:07.283119320+00:00,1,0
2024-02-01T05:41:07.283169340+00:00,0,0
2024-02-01T05:41:07.285537600+00:00,0,1
2024-02-01T05:41:07.286501870+00:00,0,0
2024-02-01T05:41:07.383118940+00:00,1,0
2024-02-01T05:41:07.383168950+00:00,0,0
2024-02-01T05:41:07.386057520+00:00,0,1
2024-02-01T05:41:07.386744320+00:00,0,0
2024-02-01T05:41:07.483118550+00:00,1,0
2024-02-01T05:41:07.483168570+00:00,0,0
2024-02-01T05:41:07.485538530+00:00,0,1
2024-02-01T05:41:07.486159320+00:00,0,0
2024-02-01T05:41:07.583118160+00:00,1,0
2024-02-01T05:41:07.583168180+00:00,0,0
2024-02-01T05:41:07.585574110+00:00,0,1
2024-02-01T05:41:07.586204840+00:00,0,0
2024-02-01T05:41:07.683117780+00:00,1,0
2024-02-01T05:41:07.683167790+00:00,0,0
2024-02-01T05:41:07.685525160+00:00,0,1
2024-02-01T05:41:07.686173910+00:00,0,0
2024-02-01T05:41:07.783117390+00:00,1,0
2024-02-01T05:41:07.783167410+00:00,0,0
2024-02-01T05:41:07.785469550+00:00,0,1
2024-02-01T05:41:07.786063900+00:00,0,0
2024-02-01T05:41:07.883117010+00:00,1,0
2024-02-01T05:41:07.883167020+00:00,0,0
2024-02-01T05:41:07.885575050+00:00,0,1
2024-02-01T05:41:07.886221410+00:00,0,0
2024-02-01T05:41:07.983116620+00:00,1,0
2024-02-01T05:41:07.983166640+00:00,0,0
2024-02-01T05:41:07.985460180+00:00,0,1
2024-02-01T05:41:07.986023740+00:00,0,0
2024-02-01T05:41:08.083116230+00:00,1,0
2024-02-01T05:41:08.083166250+00:00,0,0
2024-02-01T05:41:08.085513050+00:00,0,1
2024-02-01T05:41:08.086107640+00:00,0,0
2024-02-01T05:41:08.183115850+00:00,1,0
2024-02-01T05:41:08.183165860+00:00,0,0
2024-02-01T05:41:08.185458160+00:00,0,1
2024-02-01T05:41:08.186022860+00:00,0,0
2024-02-01T05:41:08.283115460+00:00,1,0
2024-02-01T05:41:08.283165480+00:00,0,0
2024-02-01T05:41:08.285399160+00:00,0,1
2024-02-01T05:41:08.285957790+00:00,0,0
2024-02-01T05:41:08.383115080+00:00,1,0
2024-02-01T05:41:08.383165090+00:00,0,0
2024-02-01T05:41:08.385388470+00:00,0,1
2024-02-01T05:41:08.385943510+00:00,0,0
2024-02-01T05:41:08.483114690+00:00,1,0
2024-02-01T05:41:08.483164710+00:00,0,0
2024-02-01T05:41:08.485458180+00:00,0,1
2024-02-01T05:41:08.486014260+00:00,0,0
2024-02-01T05:41:08.583114300+00:00,1,0
2024-02-01T05:41:08.583164320+00:00,0,0
2024-02-01T05:41:08.585386140+00:00,0,1
2024-02-01T05:41:08.585937580+00:00,0,0
2024-02-01T05:41:08.683113920+00:00,1,0
2024-02-01T05:41:08.683163930+00:00,0,0
2024-02-01T05:41:08.685425940+00:00,0,1
2024-02-01T05:41:08.685979370+00:00,0,0
2024-02-01T05:41:08.783113530+00:00,1,0
2024-02-01T05:41:08.783163550+00:00,0,0
2024-02-01T05:41:08.803994220+00:00,0,1
2024-02-01T05:41:08.836962330+00:00,0,0
2024-02-01T05:41:08.883113140+00:00,1,0
2024-02-01T05:41:08.883163160+00:00,0,0
2024-02-01T05:41:08.900348430+00:00,0,1
2024-02-01T05:41:08.923873810+00:00,0,0
2024-02-01T05:41:08.983112760+00:00,1,0
2024-02-01T05:41:08.983162770+00:00,0,0
2024-02-01T05:41:08.997525470+00:00,0,1
2024-02-01T05:41:08.997975130+00:00,0,0
2024-02-01T05:41:09.083112370+00:00,1,0
2024-02-01T05:41:09.083162390+00:00,0,0
2024-02-01T05:41:09.085292390+00:00,0,1
2024-02-01T05:41:09.085645930+00:00,0,0
2024-02-01T05:41:09.183111980+00:00,1,0
2024-02-01T05:41:09.183162000+00:00,0,0
2024-02-01T05:41:09.185242160+00:00,0,1
2024-02-01T05:41:09.185596540+00:00,0,0
2024-02-01T05:41:09.283111600+00:00,1,0
2024-02-01T05:41:09.283161610+00:00,0,0
2024-02-01T05:41:09.285053110+00:00,0,1
2024-02-01T05:41:09.285398410+00:00,0,0
2024-02-01T05:41:09.383111210+00:00,1,0
2024-02-01T05:41:09.383161230+00:00,0,0
2024-02-01T05:41:09.385098080+00:00,0,1
2024-02-01T05:41:09.385454870+00:00,0,0
2024-02-01T05:41:09.483110830+00:00,1,0
2024-02-01T05:41:09.483160840+00:00,0,0
2024-02-01T05:41:09.485118560+00:00,0,1
2024-02-01T05:41:09.485470720+00:00,0,0
2024-02-01T05:41:09.583110440+00:00,1,0
2024-02-01T05:41:09.583160450+00:00,0,0
2024-02-01T05:41:09.586866940+00:00,0,1
2024-02-01T05:41:09.588561590+00:00,0,0
2024-02-01T05:41:09.683110050+00:00,1,0
2024-02-01T05:41:09.683160070+00:00,0,0
2024-02-01T05:41:09.713865130+00:00,0,1
2024-02-01T05:41:09.744498710+00:00,0,0
2024-02-01T05:41:09.783109670+00:00,1,0
2024-02-01T05:41:09.783159680+00:00,0,0
2024-02-01T05:41:09.785404610+00:00,0,1
2024-02-01T05:41:09.785816470+00:00,0,0
2024-02-01T05:41:09.883109280+00:00,1,0
2024-02-01T05:41:09.883159300+00:00,0,0
2024-02-01T05:41:09.885190770+00:00,0,1
2024-02-01T05:41:09.885568710+00:00,0,0
2024-02-01T05:41:09.983108890+00:00,1,0
2024-02-01T05:41:09.983158910+00:00,0,0
2024-02-01T05:41:09.986736580+00:00,0,1
2024-02-01T05:41:09.987111610+00:00,0,0
2024-02-01T05:41:10.083108510+00:00,1,0
2024-02-01T05:41:10.083158520+00:00,0,0
2024-02-01T05:41:10.085900320+00:00,0,1
2024-02-01T05:41:10.086294340+00:00,0,0
2024-02-01T05:41:10.183108120+00:00,1,0
2024-02-01T05:41:10.183158140+00:00,0,0
2024-02-01T05:41:10.185317950+00:00,0,1
2024-02-01T05:41:10.185693270+00:00,0,0
2024-02-01T05:41:10.283107730+00:00,1,0
2024-02-01T05:41:10.283157750+00:00,0,0
2024-02-01T05:41:10.285223050+00:00,0,1
2024-02-01T05:41:10.285598620+00:00,0,0
2024-02-01T05:41:10.383107350+00:00,1,0
2024-02-01T05:41:10.383157360+00:00,0,0
2024-02-01T05:41:10.385230390+00:00,0,1
2024-02-01T05:41:10.385632800+00:00,0,0
2024-02-01T05:41:10.483106960+00:00,1,0
2024-02-01T05:41:10.483156980+00:00,0,0
2024-02-01T05:41:10.485699820+00:00,0,1
2024-02-01T05:41:10.486309870+00:00,0,0
2024-02-01T05:41:10.583106570+00:00,1,0
2024-02-01T05:41:10.583156590+00:00,0,0
2024-02-01T05:41:10.585927370+00:00,0,1
2024-02-01T05:41:10.586613100+00:00,0,0
2024-02-01T05:41:10.683106190+00:00,1,0
2024-02-01T05:41:10.683156200+00:00,0,0
2024-02-01T05:41:10.685833890+00:00,0,1
2024-02-01T05:41:10.686522100+00:00,0,0
2024-02-01T05:41:10.783105800+00:00,1,0
2024-02-01T05:41:10.783155820+00:00,0,0
2024-02-01T05:41:10.785742740+00:00,0,1
2024-02-01T05:41:10.786417980+00:00,0,0
2024-02-01T05:41:10.883105410+00:00,1,0
2024-02-01T05:41:10.883155430+00:00,0,0
2024-02-01T05:41:10.885812740+00:00,0,1
2024-02-01T05:41:10.886483970+00:00,0,0
2024-02-01T05:41:10.983105030+00:00,1,0
2024-02-01T05:41:10.983155040+00:00,0,0
2024-02-01T05:41:10.985844410+00:00,0,1
2024-02-01T05:41:10.986522620+00:00,0,0
2024-02-01T05:41:11.083104640+00:00,1,0
2024-02-01T05:41:11.083154660+00:00,0,0
2024-02-01T05:41:11.085897360+00:00,0,1
2024-02-01T05:41:11.086591400+00:00,0,0
2024-02-01T05:41:11.183104250+00:00,1,0
2024-02-01T05:41:11.183154270+00:00,0,0
2024-02-01T05:41:11.185864710+00:00,0,1
2024-02-01T05:41:11.186536660+00:00,0,0
2024-02-01T05:41:11.283103870+00:00,1,0
2024-02-01T05:41:11.283153880+00:00,0,0
2024-02-01T05:41:11.285993500+00:00,0,1
2024-02-01T05:41:11.286822700+00:00,0,0
2024-02-01T05:41:11.383103480+00:00,1,0
2024-02-01T05:41:11.383153500+00:00,0,0
2024-02-01T05:41:11.386450990+00:00,0,1
2024-02-01T05:41:11.387168640+00:00,0,0
2024-02-01T05:41:11.483103090+00:00,1,0
2024-02-01T05:41:11.483153110+00:00,0,0
2024-02-01T05:41:11.485839630+00:00,0,1
2024-02-01T05:41:11.486524450+00:00,0,0
2024-02-01T05:41:11.583102710+00:00,1,0
2024-02-01T05:41:11.583152720+00:00,0,0
2024-02-01T05:41:11.585889330+00:00,0,1
2024-02-01T05:41:11.586565620+00:00,0,0
2024-02-01T05:41:11.683102320+00:00,1,0
2024-02-01T05:41:11.683152340+00:00,0,0
2024-02-01T05:41:11.685824210+00:00,0,1
2024-02-01T05:41:11.686552480+00:00,0,0
2024-02-01T05:41:11.783101930+00:00,1,0
2024-02-01T05:41:11.783151950+00:00,0,0
2024-02-01T05:41:11.785850550+00:00,0,1
2024-02-01T05:41:11.786525440+00:00,0,0
2024-02-01T05:41:11.883101540+00:00,1,0
2024-02-01T05:41:11.883151560+00:00,0,0
2024-02-01T05:41:11.885964880+00:00,0,1
2024-02-01T05:41:11.886637570+00:00,0,0
2024-02-01T05:41:11.983101160+00:00,1,0
2024-02-01T05:41:11.983151170+00:00,0,0
2024-02-01T05:41:11.985845310+00:00,0,1
2024-02-01T05:41:11.986527860+00:00,0,0
2024-02-01T05:41:12.083100770+00:00,1,0
2024-02-01T05:41:12.083150790+00:00,0,0
2024-02-01T05:41:12.085967200+00:00,0,1
2024-02-01T05:41:12.086645100+00:00,0,0
2024-02-01T05:41:12.183100380+00:00,1,0
2024-02-01T05:41:12.183150400+00:00,0,0
2024-02-01T05:41:12.185991890+00:00,0,1
2024-02-01T05:41:12.186661400+00:00,0,0
2024-02-01T05:41:12.283100000+00:00,1,0
2024-02-01T05:41:12.283150010+00:00,0,0
2024-02-01T05:41:12.285814280+00:00,0,1
2024-02-01T05:41:12.286514550+00:00,0,0
2024-02-01T05:41:12.383099610+00:00,1,0
2024-02-01T05:41:12.383149630+00:00,0,0
2024-02-01T05:41:12.385777310+00:00,0,1
2024-02-01T05:41:12.386423450+00:00,0,0
2024-02-01T05:41:12.483099220+00:00,1,0
2024-02-01T05:41:12.483149240+00:00,0,0
2024-02-01T05:41:12.485685780+00:00,0,1
2024-02-01T05:41:12.486280400+00:00,0,0
2024-02-01T05:41:12.583098840+00:00,1,0
2024-02-01T05:41:12.583148850+00:00,0,0
2024-02-01T05:41:12.585729080+00:00,0,1
2024-02-01T05:41:12.586338960+00:00,0,0
2024-02-01T05:41:12.683098450+00:00,1,0
2024-02-01T05:41:12.683148460+00:00,0,0
2024-02-01T05:41:12.685816680+00:00,0,1
2024-02-01T05:41:12.686519890+00:00,0,0
2024-02-01T05:41:12.783098060+00:00,1,0
2024-02-01T05:41:12.783148080+00:00,0,0
2024-02-01T05:41:12.785801240+00:00,0,1
2024-02-01T05:41:12.786475760+00:00,0,0
2024-02-01T05:41:12.883097670+00:00,1,0
2024-02-01T05:41:12.883147690+00:00,0,0
2024-02-01T05:41:12.885867820+00:00,0,1
2024-02-01T05:41:12.886543570+00:00,0,0
2024-02-01T05:41:12.983097290+00:00,1,0
2024-02-01T05:41:12.983147300+00:00,0,0
2024-02-01T05:41:12.985876500+00:00,0,1
2024-02-01T05:41:12.986576640+00:00,0,0
2024-02-01T05:41:13.083096900+00:00,1,0
2024-02-01T05:41:13.083146920+00:00,0,0
2024-02-01T05:41:13.085901180+00:00,0,1
2024-02-01T05:41:13.086573710+00:00,0,0
2024-02-01T05:41:13.183096510+00:00,1,0
2024-02-01T05:41:13.183146530+00:00,0,0
2024-02-01T05:41:13.185795870+00:00,0,1
2024-02-01T05:41:13.186467200+00:00,0,0
2024-02-01T05:41:13.283096130+00:00,1,0
2024-02-01T05:41:13.283146140+00:00,0,0
2024-02-01T05:41:13.285760050+00:00,0,1
2024-02-01T05:41:13.286459930+00:00,0,0
2024-02-01T05:41:13.383095740+00:00,1,0
2024-02-01T05:41:13.383145750+00:00,0,0
2024-02-01T05:41:13.385732170+00:00,0,1
2024-02-01T05:41:13.386328010+00:00,0,0
2024-02-01T05:41:13.483095350+00:00,1,0
2024-02-01T05:41:13.483145370+00:00,0,0
2024-02-01T05:41:13.485883060+00:00,0,1
2024-02-01T05:41:13.486557770+00:00,0,0
2024-02-01T05:41:13.583094960+00:00,1,0
2024-02-01T05:41:13.583144980+00:00,0,0
2024-02-01T05:41:13.585892800+00:00,0,1
2024-02-01T05:41:13.586577800+00:00,0,0
2024-02-01T05:41:13.683094580+00:00,1,0
2024-02-01T05:41:13.683144590+00:00,0,0
2024-02-01T05:41:13.685824220+00:00,0,1
2024-02-01T05:41:13.686504810+00:00,0,0
2024-02-01T05:41:13.783094190+00:00,1,0
2024-02-01T05:41:13.783144210+00:00,0,0
2024-02-01T05:41:13.785773590+00:00,0,1
2024-02-01T05:41:13.786482380+00:00,0,0
2024-02-01T05:41:13.883093800+00:00,1,0
2024-02-01T05:41:13.883143820+00:00,0,0
2024-02-01T05:41:13.885841130+00:00,0,1
2024-02-01T05:41:13.886520720+00:00,0,0
2024-02-01T05:41:13.983093410+00:00,1,0
2024-02-01T05:41:13.983143430+00:00,0,0
2024-02-01T05:41:13.985808300+00:00,0,1
2024-02-01T05:41:13.986503810+00:00,0,0
2024-02-01T05:41:14.083093030+00:00,1,0
2024-02-01T05:41:14.083143040+00:00,0,0
2024-02-01T05:41:14.085908410+00:00,0,1
2024-02-01T05:41:14.086584420+00:00,0,0
2024-02-01T05:41:14.183092640+00:00,1,0
2024-02-01T05:41:14.183142660+00:00,0,0
2024-02-01T05:41:14.185881210+00:00,0,1
2024-02-01T05:41:14.186561320+00:00,0,0
2024-02-01T05:41:14.283092250+00:00,1,0
2024-02-01T05:41:14.283142270+00:00,0,0
2024-02-01T05:41:14.285734870+00:00,0,1
2024-02-01T05:41:14.286433640+00:00,0,0
2024-02-01T05:41:14.383091860+00:00,1,0
2024-02-01T05:41:14.383141880+00:00,0,0
2024-02-01T05:41:14.385973870+00:00,0,1
2024-02-01T05:41:14.386657410+00:00,0,0
2024-02-01T05:41:14.483091480+00:00,1,0
2024-02-01T05:41:14.483141490+00:00,0,0
