Time [s],Channel 0,Channel 1
2023-11-01T03:37:49.721030000+00:00,0,0
2023-11-01T03:37:49.781228300+00:00,1,0
2023-11-01T03:37:49.781278300+00:00,0,0
2023-11-01T03:37:49.792958640+00:00,0,1
2023-11-01T03:37:49.792958660+00:00,0,0
2023-11-01T03:37:49.896788520+00:00,1,0
2023-11-01T03:37:49.896838500+00:00,0,0
2023-11-01T03:37:49.905766220+00:00,0,1
2023-11-01T03:37:49.905766240+00:00,0,0
2023-11-01T03:37:50.012549200+00:00,1,0
2023-11-01T03:37:50.012599180+00:00,0,0
2023-11-01T03:37:50.027486820+00:00,0,1
2023-11-01T03:37:50.027486860+00:00,0,0
2023-11-01T03:37:50.128159520+00:00,1,0
2023-11-01T03:37:50.128209500+00:00,0,0
2023-11-01T03:37:50.137035620+00:00,0,1
2023-11-01T03:37:50.137035660+00:00,0,0
2023-11-01T03:37:50.243823800+00:00,1,0
2023-11-01T03:37:50.243873780+00:00,0,0
2023-11-01T03:37:50.255496360+00:00,0,1
2023-11-01T03:37:50.255496380+00:00,0,0
2023-11-01T03:37:50.359348860+00:00,1,0
2023-11-01T03:37:50.359398860+00:00,0,0
2023-11-01T03:37:50.368305020+00:00,0,1
2023-11-01T03:37:50.368305060+00:00,0,0
2023-11-01T03:37:50.475102240+00:00,1,0
2023-11-01T03:37:50.475152220+00:00,0,0
2023-11-01T03:37:50.486817860+00:00,0,1
2023-11-01T03:37:50.486817900+00:00,0,0
2023-11-01T03:37:50.590675020+00:00,1,0
2023-11-01T03:37:50.590725000+00:00,0,0
2023-11-01T03:37:50.599623280+00:00,0,1
2023-11-01T03:37:50.599623300+00:00,0,0
2023-11-01T03:37:50.706397020+00:00,1,0
2023-11-01T03:37:50.706447000+00:00,0,0
2023-11-01T03:37:50.721324360+00:00,0,1
2023-11-01T03:37:50.721324380+00:00,0,0
2023-11-01T03:37:50.821960440+00:00,1,0
2023-11-01T03:37:50.822010420+00:00,0,0
2023-11-01T03:37:50.830903560+00:00,0,1
2023-11-01T03:37:50.830903580+00:00,0,0
2023-11-01T03:37:50.937685120+00:00,1,0
2023-11-01T03:37:50.937735100+00:00,0,0
2023-11-01T03:37:50.949379420+00:00,0,1
2023-11-01T03:37:50.949379440+00:00,0,0
2023-11-01T03:37:51.053231520+00:00,1,0
2023-11-01T03:37:51.053281500+00:00,0,0
2023-11-01T03:37:51.062236880+00:00,0,1
2023-11-01T03:37:51.062236900+00:00,0,0
2023-11-01T03:37:51.169024980+00:00,1,0
2023-11-01T03:37:51.169074960+00:00,0,0
2023-11-01T03:37:51.183886980+00:00,0,1
2023-11-01T03:37:51.183887020+00:00,0,0
2023-11-01T03:37:51.284513060+00:00,1,0
2023-11-01T03:37:51.284563040+00:00,0,0
2023-11-01T03:37:51.293433700+00:00,0,1
2023-11-01T03:37:51.293433720+00:00,0,0
2023-11-01T03:37:51.400229360+00:00,1,0
2023-11-01T03:37:51.400279340+00:00,0,0
2023-11-01T03:37:51.411964920+00:00,0,1
2023-11-01T03:37:51.411964960+00:00,0,0
2023-11-01T03:37:51.515801640+00:00,1,0
2023-11-01T03:37:51.515851620+00:00,0,0
2023-11-01T03:37:51.524737760+00:00,0,1
2023-11-01T03:37:51.524737800+00:00,0,0
2023-11-01T03:37:51.631520020+00:00,1,0
2023-11-01T03:37:51.631570020+00:00,0,0
2023-11-01T03:37:51.646422600+00:00,0,1
2023-11-01T03:37:51.646422620+00:00,0,0
2023-11-01T03:37:51.747061940+00:00,1,0
2023-11-01T03:37:51.747111920+00:00,0,0
2023-11-01T03:37:51.756002900+00:00,0,1
2023-11-01T03:37:51.756002920+00:00,0,0
2023-11-01T03:37:51.862776240+00:00,1,0
2023-11-01T03:37:51.862826240+00:00,0,0
2023-11-01T03:37:51.874497120+00:00,0,1
2023-11-01T03:37:51.874497140+00:00,0,0
2023-11-01T03:37:51.978325340+00:00,1,0
2023-11-01T03:37:51.978375320+00:00,0,0
2023-11-01T03:37:51.987270100+00:00,0,1
2023-11-01T03:37:51.987270120+00:00,0,0
2023-11-01T03:37:52.094042840+00:00,1,0
2023-11-01T03:37:52.094092820+00:00,0,0
2023-11-01T03:37:52.108974340+00:00,0,1
2023-11-01T03:37:52.108974380+00:00,0,0
2023-11-01T03:37:52.209635820+00:00,1,0
2023-11-01T03:37:52.209685800+00:00,0,0
2023-11-01T03:37:52.218538420+00:00,0,1
2023-11-01T03:37:52.218538440+00:00,0,0
2023-11-01T03:37:52.325309140+00:00,1,0
2023-11-01T03:37:52.325359120+00:00,0,0
2023-11-01T03:37:52.337016400+00:00,0,1
2023-11-01T03:37:52.337016420+00:00,0,0
2023-11-01T03:37:52.440859720+00:00,1,0
2023-11-01T03:37:52.440909700+00:00,0,0
2023-11-01T03:37:52.449753600+00:00,0,1
2023-11-01T03:37:52.449753640+00:00,0,0
2023-11-01T03:37:52.556539140+00:00,1,0
2023-11-01T03:37:52.556589120+00:00,0,0
2023-11-01T03:37:52.568265180+00:00,0,1
2023-11-01T03:37:52.568265220+00:00,0,0
2023-11-01T03:37:52.672102760+00:00,1,0
2023-11-01T03:37:52.672152760+00:00,0,0
2023-11-01T03:37:52.681158520+00:00,0,1
2023-11-01T03:37:52.681158560+00:00,0,0
2023-11-01T03:37:52.787929920+00:00,1,0
2023-11-01T03:37:52.787979900+00:00,0,0
2023-11-01T03:37:52.802758760+00:00,0,1
2023-11-01T03:37:52.802758780+00:00,0,0
2023-11-01T03:37:52.903419600+00:00,1,0
2023-11-01T03:37:52.903469600+00:00,0,0
2023-11-01T03:37:52.912427940+00:00,0,1
2023-11-01T03:37:52.912427980+00:00,0,0
2023-11-01T03:37:53.019217760+00:00,1,0
2023-11-01T03:37:53.019267740+00:00,0,0
2023-11-01T03:37:53.030855040+00:00,0,1
2023-11-01T03:37:53.030855080+00:00,0,0
2023-11-01T03:37:53.134688640+00:00,1,0
2023-11-01T03:37:53.134738640+00:00,0,0
2023-11-01T03:37:53.143646380+00:00,0,1
2023-11-01T03:37:53.143646400+00:00,0,0
2023-11-01T03:37:53.250426440+00:00,1,0
2023-11-01T03:37:53.250476420+00:00,0,0
2023-11-01T03:37:53.265366980+00:00,0,1
2023-11-01T03:37:53.265367020+00:00,0,0
2023-11-01T03:37:53.366019680+00:00,1,0
2023-11-01T03:37:53.366069660+00:00,0,0
2023-11-01T03:37:53.374947300+00:00,0,1
2023-11-01T03:37:53.374947340+00:00,0,0
2023-11-01T03:37:53.481732720+00:00,1,0
2023-11-01T03:37:53.481782700+00:00,0,0
2023-11-01T03:37:53.493441520+00:00,0,1
2023-11-01T03:37:53.493441540+00:00,0,0
2023-11-01T03:37:53.597293820+00:00,1,0
2023-11-01T03:37:53.597343800+00:00,0,0
2023-11-01T03:37:53.606214460+00:00,0,1
2023-11-01T03:37:53.606214500+00:00,0,0
2023-11-01T03:37:53.712995400+00:00,1,0
2023-11-01T03:37:53.713045380+00:00,0,0
2023-11-01T03:37:53.727864540+00:00,0,1
2023-11-01T03:37:53.727864580+00:00,0,0
2023-11-01T03:37:53.828535700+00:00,1,0
2023-11-01T03:37:53.828585680+00:00,0,0
2023-11-01T03:37:53.837463220+00:00,0,1
2023-11-01T03:37:53.837463260+00:00,0,0
2023-11-01T03:37:53.944240820+00:00,1,0
2023-11-01T03:37:53.944290800+00:00,0,0
2023-11-01T03:37:53.955905460+00:00,0,1
2023-11-01T03:37:53.955905480+00:00,0,0
2023-11-01T03:37:54.059737860+00:00,1,0
2023-11-01T03:37:54.059787840+00:00,0,0
2023-11-01T03:37:54.068710960+00:00,0,1
2023-11-01T03:37:54.068710980+00:00,0,0
2023-11-01T03:37:54.175496840+00:00,1,0
2023-11-01T03:37:54.175546820+00:00,0,0
2023-11-01T03:37:54.190430420+00:00,0,1
2023-11-01T03:37:54.190430440+00:00,0,0
2023-11-01T03:37:54.291081780+00:00,1,0
2023-11-01T03:37:54.291131760+00:00,0,0
2023-11-01T03:37:54.300011860+00:00,0,1
2023-11-01T03:37:54.300011880+00:00,0,0
2023-11-01T03:37:54.406784580+00:00,1,0
2023-11-01T03:37:54.406834560+00:00,0,0
2023-11-01T03:37:54.418523440+00:00,0,1
2023-11-01T03:37:54.418523480+00:00,0,0
2023-11-01T03:37:54.522350100+00:00,1,0
2023-11-01T03:37:54.522400100+00:00,0,0
2023-11-01T03:37:54.531311640+00:00,0,1
2023-11-01T03:37:54.531311660+00:00,0,0
2023-11-01T03:37:54.638099500+00:00,1,0
2023-11-01T03:37:54.638149480+00:00,0,0
2023-11-01T03:37:54.653048480+00:00,0,1
2023-11-01T03:37:54.653048500+00:00,0,0
2023-11-01T03:37:54.753682760+00:00,1,0
2023-11-01T03:37:54.753732740+00:00,0,0
2023-11-01T03:37:54.762611400+00:00,0,1
2023-11-01T03:37:54.762611420+00:00,0,0
2023-11-01T03:37:54.869388520+00:00,1,0
2023-11-01T03:37:54.869438520+00:00,0,0
2023-11-01T03:37:54.881125160+00:00,0,1
2023-11-01T03:37:54.881125180+00:00,0,0
2023-11-01T03:37:54.984955900+00:00,1,0
2023-11-01T03:37:54.985005880+00:00,0,0
2023-11-01T03:37:54.993931720+00:00,0,1
2023-11-01T03:37:54.993931760+00:00,0,0
2023-11-01T03:37:55.100719500+00:00,1,0
2023-11-01T03:37:55.100769480+00:00,0,0
2023-11-01T03:37:55.112409820+00:00,0,1
2023-11-01T03:37:55.112409840+00:00,0,0
2023-11-01T03:37:55.216262500+00:00,1,0
2023-11-01T03:37:55.216312480+00:00,0,0
2023-11-01T03:37:55.225334520+00:00,0,1
2023-11-01T03:37:55.225334560+00:00,0,0
2023-11-01T03:37:55.332098100+00:00,1,0
2023-11-01T03:37:55.332148080+00:00,0,0
2023-11-01T03:37:55.346896740+00:00,0,1
2023-11-01T03:37:55.346896780+00:00,0,0
2023-11-01T03:37:55.447544920+00:00,1,0
2023-11-01T03:37:55.447594920+00:00,0,0
2023-11-01T03:37:55.456563860+00:00,0,1
2023-11-01T03:37:55.456563880+00:00,0,0
2023-11-01T03:37:55.563344340+00:00,1,0
2023-11-01T03:37:55.563394340+00:00,0,0
2023-11-01T03:37:55.574956200+00:00,0,1
2023-11-01T03:37:55.574956240+00:00,0,0
2023-11-01T03:37:55.678788760+00:00,1,0
2023-11-01T03:37:55.678838740+00:00,0,0
2023-11-01T03:37:55.687762760+00:00,0,1
2023-11-01T03:37:55.687762780+00:00,0,0
2023-11-01T03:37:55.794535100+00:00,1,0
2023-11-01T03:37:55.794585100+00:00,0,0
2023-11-01T03:37:55.809448620+00:00,0,1
2023-11-01T03:37:55.809448640+00:00,0,0
2023-11-01T03:37:55.910105460+00:00,1,0
2023-11-01T03:37:55.910155440+00:00,0,0
2023-11-01T03:37:55.919012560+00:00,0,1
2023-11-01T03:37:55.919012600+00:00,0,0
2023-11-01T03:37:56.025786400+00:00,1,0
2023-11-01T03:37:56.025836380+00:00,0,0
2023-11-01T03:37:56.037422280+00:00,0,1
2023-11-01T03:37:56.037422320+00:00,0,0
2023-11-01T03:37:56.141275200+00:00,1,0
2023-11-01T03:37:56.141325200+00:00,0,0
2023-11-01T03:37:56.150316740+00:00,0,1
2023-11-01T03:37:56.150316760+00:00,0,0
2023-11-01T03:37:56.257109080+00:00,1,0
2023-11-01T03:37:56.257159080+00:00,0,0
2023-11-01T03:37:56.271896340+00:00,0,1
2023-11-01T03:37:56.271896360+00:00,0,0
2023-11-01T03:37:56.372568040+00:00,1,0
2023-11-01T03:37:56.372618020+00:00,0,0
2023-11-01T03:37:56.381512420+00:00,0,1
2023-11-01T03:37:56.381512440+00:00,0,0
2023-11-01T03:37:56.488281820+00:00,1,0
2023-11-01T03:37:56.488331820+00:00,0,0
2023-11-01T03:37:56.499940520+00:00,0,1
2023-11-01T03:37:56.499940540+00:00,0,0
2023-11-01T03:37:56.603787480+00:00,1,0
2023-11-01T03:37:56.603837480+00:00,0,0
2023-11-01T03:37:56.612763340+00:00,0,1
2023-11-01T03:37:56.612763380+00:00,0,0
2023-11-01T03:37:56.719545800+00:00,1,0
2023-11-01T03:37:56.719595780+00:00,0,0
2023-11-01T03:37:56.734464460+00:00,0,1
2023-11-01T03:37:56.734464480+00:00,0,0
2023-11-01T03:37:56.835118140+00:00,1,0
2023-11-01T03:37:56.835168120+00:00,0,0
2023-11-01T03:37:56.844008900+00:00,0,1
2023-11-01T03:37:56.844008940+00:00,0,0
2023-11-01T03:37:56.950798720+00:00,1,0
2023-11-01T03:37:56.950848700+00:00,0,0
2023-11-01T03:37:56.962519480+00:00,0,1
2023-11-01T03:37:56.962519520+00:00,0,0
2023-11-01T03:37:57.066339900+00:00,1,0
2023-11-01T03:37:57.066389880+00:00,0,0
2023-11-01T03:37:57.075307560+00:00,0,1
2023-11-01T03:37:57.075307600+00:00,0,0
2023-11-01T03:37:57.182091160+00:00,1,0
2023-11-01T03:37:57.182141140+00:00,0,0
2023-11-01T03:37:57.197027060+00:00,0,1
2023-11-01T03:37:57.197027080+00:00,0,0
2023-11-01T03:37:57.297659760+00:00,1,0
2023-11-01T03:37:57.297709760+00:00,0,0
2023-11-01T03:37:57.306677880+00:00,0,1
2023-11-01T03:37:57.306677900+00:00,0,0
2023-11-01T03:37:57.413470700+00:00,1,0
2023-11-01T03:37:57.413520700+00:00,0,0
2023-11-01T03:37:57.425085320+00:00,0,1
2023-11-01T03:37:57.425085360+00:00,0,0
2023-11-01T03:37:57.528936940+00:00,1,0
2023-11-01T03:37:57.528986920+00:00,0,0
2023-11-01T03:37:57.537890820+00:00,0,1
2023-11-01T03:37:57.537890840+00:00,0,0
2023-11-01T03:37:57.644681980+00:00,1,0
2023-11-01T03:37:57.644731960+00:00,0,0
2023-11-01T03:37:57.656419800+00:00,0,1
2023-11-01T03:37:57.656419820+00:00,0,0
2023-11-01T03:37:57.760245400+00:00,1,0
2023-11-01T03:37:57.760295380+00:00,0,0
2023-11-01T03:37:57.769277380+00:00,0,1
2023-11-01T03:37:57.769277400+00:00,0,0
2023-11-01T03:37:57.876066620+00:00,1,0
2023-11-01T03:37:57.876116600+00:00,0,0
2023-11-01T03:37:57.890876460+00:00,0,1
2023-11-01T03:37:57.890876480+00:00,0,0
2023-11-01T03:37:57.991532580+00:00,1,0
2023-11-01T03:37:57.991582560+00:00,0,0
2023-11-01T03:37:58.000422000+00:00,0,1
2023-11-01T03:37:58.000422040+00:00,0,0
2023-11-01T03:37:58.107218860+00:00,1,0
2023-11-01T03:37:58.107268840+00:00,0,0
2023-11-01T03:37:58.118953240+00:00,0,1
2023-11-01T03:37:58.118953280+00:00,0,0
2023-11-01T03:37:58.222772840+00:00,1,0
2023-11-01T03:37:58.222822820+00:00,0,0
2023-11-01T03:37:58.231830280+00:00,0,1
2023-11-01T03:37:58.231830320+00:00,0,0
2023-11-01T03:37:58.338607780+00:00,1,0
2023-11-01T03:37:58.338657760+00:00,0,0
2023-11-01T03:37:58.353446720+00:00,0,1
2023-11-01T03:37:58.353446740+00:00,0,0
2023-11-01T03:37:58.454085560+00:00,1,0
2023-11-01T03:37:58.454135540+00:00,0,0
2023-11-01T03:37:58.463028000+00:00,0,1
2023-11-01T03:37:58.463028040+00:00,0,0
2023-11-01T03:37:58.569809560+00:00,1,0
2023-11-01T03:37:58.569859560+00:00,0,0
2023-11-01T03:37:58.581539760+00:00,0,1
2023-11-01T03:37:58.581539780+00:00,0,0
2023-11-01T03:37:58.685355940+00:00,1,0
2023-11-01T03:37:58.685405940+00:00,0,0
2023-11-01T03:37:58.694309340+00:00,0,1
2023-11-01T03:37:58.694309380+00:00,0,0
2023-11-01T03:37:58.801106420+00:00,1,0
2023-11-01T03:37:58.801156400+00:00,0,0
2023-11-01T03:37:58.816009420+00:00,0,1
2023-11-01T03:37:58.816009440+00:00,0,0
2023-11-01T03:37:58.916676500+00:00,1,0
2023-11-01T03:37:58.916726480+00:00,0,0
2023-11-01T03:37:58.925589600+00:00,0,1
2023-11-01T03:37:58.925589620+00:00,0,0
2023-11-01T03:37:59.147889480+00:00,1,0
2023-11-01T03:37:59.147939480+00:00,0,0
2023-11-01T03:37:59.156853660+00:00,0,1
2023-11-01T03:37:59.156853680+00:00,0,0
2023-11-01T03:37:59.263631240+00:00,1,0
2023-11-01T03:37:59.263681220+00:00,0,0
2023-11-01T03:37:59.278574260+00:00,0,1
2023-11-01T03:37:59.278574280+00:00,0,0
2023-11-01T03:37:59.379222080+00:00,1,0
2023-11-01T03:37:59.379272060+00:00,0,0
2023-11-01T03:37:59.388140440+00:00,0,1
2023-11-01T03:37:59.388140460+00:00,0,0
2023-11-01T03:37:59.494920060+00:00,1,0
2023-11-01T03:37:59.494970060+00:00,0,0
2023-11-01T03:37:59.506638020+00:00,0,1
2023-11-01T03:37:59.506638060+00:00,0,0
2023-11-01T03:37:59.610459160+00:00,1,0
2023-11-01T03:37:59.610509160+00:00,0,0
2023-11-01T03:37:59.619442340+00:00,0,1
2023-11-01T03:37:59.619442360+00:00,0,0
2023-11-01T03:37:59.726215960+00:00,1,0
2023-11-01T03:37:59.726265940+00:00,0,0
2023-11-01T03:37:59.737899820+00:00,0,1
2023-11-01T03:37:59.737899840+00:00,0,0
2023-11-01T03:37:59.841720680+00:00,1,0
2023-11-01T03:37:59.841770660+00:00,0,0
2023-11-01T03:37:59.850672640+00:00,0,1
2023-11-01T03:37:59.850672680+00:00,0,0
2023-11-01T03:37:59.957474920+00:00,1,0
2023-11-01T03:37:59.957524920+00:00,0,0
2023-11-01T03:37:59.972409520+00:00,0,1
2023-11-01T03:37:59.972409560+00:00,0,0
2023-11-01T03:38:00.073036660+00:00,1,0
2023-11-01T03:38:00.073086660+00:00,0,0
2023-11-01T03:38:00.081990940+00:00,0,1
2023-11-01T03:38:00.081990980+00:00,0,0
2023-11-01T03:38:00.188772640+00:00,1,0
2023-11-01T03:38:00.188822620+00:00,0,0
2023-11-01T03:38:00.200415800+00:00,0,1
2023-11-01T03:38:00.200415840+00:00,0,0
2023-11-01T03:38:00.304269460+00:00,1,0
2023-11-01T03:38:00.304319440+00:00,0,0
2023-11-01T03:38:00.313325400+00:00,0,1
2023-11-01T03:38:00.313325440+00:00,0,0
2023-11-01T03:38:00.420110280+00:00,1,0
2023-11-01T03:38:00.420160260+00:00,0,0
2023-11-01T03:38:00.434957000+00:00,0,1
2023-11-01T03:38:00.434957040+00:00,0,0
2023-11-01T03:38:00.535605200+00:00,1,0
2023-11-01T03:38:00.535655180+00:00,0,0
2023-11-01T03:38:00.544538420+00:00,0,1
2023-11-01T03:38:00.544538460+00:00,0,0
2023-11-01T03:38:00.651317320+00:00,1,0
2023-11-01T03:38:00.651367300+00:00,0,0
2023-11-01T03:38:00.663033760+00:00,0,1
2023-11-01T03:38:00.663033800+00:00,0,0
2023-11-01T03:38:00.766855100+00:00,1,0
2023-11-01T03:38:00.766905080+00:00,0,0
2023-11-01T03:38:00.775838220+00:00,0,1
2023-11-01T03:38:00.775838260+00:00,0,0
2023-11-01T03:38:00.882630320+00:00,1,0
2023-11-01T03:38:00.882680300+00:00,0,0
2023-11-01T03:38:00.897557700+00:00,0,1
2023-11-01T03:38:00.897557740+00:00,0,0
2023-11-01T03:38:00.998189820+00:00,1,0
2023-11-01T03:38:00.998239800+00:00,0,0
2023-11-01T03:38:01.007136900+00:00,0,1
2023-11-01T03:38:01.007136940+00:00,0,0
2023-11-01T03:38:01.113913920+00:00,1,0
2023-11-01T03:38:01.113963900+00:00,0,0
2023-11-01T03:38:01.125630080+00:00,0,1
2023-11-01T03:38:01.125630120+00:00,0,0
2023-11-01T03:38:01.229462300+00:00,1,0
2023-11-01T03:38:01.229512280+00:00,0,0
2023-11-01T03:38:01.238520180+00:00,0,1
2023-11-01T03:38:01.238520200+00:00,0,0
2023-11-01T03:38:01.345309200+00:00,1,0
2023-11-01T03:38:01.345359200+00:00,0,0
2023-11-01T03:38:01.360134520+00:00,0,1
2023-11-01T03:38:01.360134560+00:00,0,0
2023-11-01T03:38:01.460793840+00:00,1,0
2023-11-01T03:38:01.460843820+00:00,0,0
2023-11-01T03:38:01.469714740+00:00,0,1
2023-11-01T03:38:01.469714760+00:00,0,0
2023-11-01T03:38:01.576497280+00:00,1,0
2023-11-01T03:38:01.576547260+00:00,0,0
2023-11-01T03:38:01.588155960+00:00,0,1
2023-11-01T03:38:01.588155980+00:00,0,0
2023-11-01T03:38:01.692012620+00:00,1,0
2023-11-01T03:38:01.692062600+00:00,0,0
2023-11-01T03:38:01.700890920+00:00,0,1
2023-11-01T03:38:01.700890940+00:00,0,0
2023-11-01T03:38:01.807690140+00:00,1,0
2023-11-01T03:38:01.807740120+00:00,0,0
2023-11-01T03:38:01.822645100+00:00,0,1
2023-11-01T03:38:01.822645140+00:00,0,0
2023-11-01T03:38:01.923283120+00:00,1,0
2023-11-01T03:38:01.923333120+00:00,0,0
2023-11-01T03:38:01.932210180+00:00,0,1
2023-11-01T03:38:01.932210200+00:00,0,0
2023-11-01T03:38:02.038998920+00:00,1,0
2023-11-01T03:38:02.039048900+00:00,0,0
2023-11-01T03:38:02.050653500+00:00,0,1
2023-11-01T03:38:02.050653520+00:00,0,0
2023-11-01T03:38:02.154933600+00:00,1,0
2023-11-01T03:38:02.154983580+00:00,0,0
2023-11-01T03:38:02.168315760+00:00,0,1
2023-11-01T03:38:02.168315780+00:00,0,0
2023-11-01T03:38:02.270234880+00:00,1,0
2023-11-01T03:38:02.270284860+00:00,0,0
2023-11-01T03:38:02.281921800+00:00,0,1
2023-11-01T03:38:02.281921840+00:00,0,0
2023-11-01T03:38:02.385751800+00:00,1,0
2023-11-01T03:38:02.385801800+00:00,0,0
2023-11-01T03:38:02.394679520+00:00,0,1
2023-11-01T03:38:02.394679540+00:00,0,0
2023-11-01T03:38:02.501484780+00:00,1,0
2023-11-01T03:38:02.501534780+00:00,0,0
2023-11-01T03:38:02.516403380+00:00,0,1
2023-11-01T03:38:02.516403420+00:00,0,0
2023-11-01T03:38:02.617066920+00:00,1,0
2023-11-01T03:38:02.617116920+00:00,0,0
2023-11-01T03:38:02.626002040+00:00,0,1
2023-11-01T03:38:02.626002080+00:00,0,0
2023-11-01T03:38:02.732779020+00:00,1,0
2023-11-01T03:38:02.732829000+00:00,0,0
2023-11-01T03:38:02.744479060+00:00,0,1
2023-11-01T03:38:02.744479080+00:00,0,0
2023-11-01T03:38:02.848337140+00:00,1,0
2023-11-01T03:38:02.848387120+00:00,0,0
2023-11-01T03:38:02.857371240+00:00,0,1
2023-11-01T03:38:02.857371260+00:00,0,0
2023-11-01T03:38:02.964157640+00:00,1,0
2023-11-01T03:38:02.964207620+00:00,0,0
2023-11-01T03:38:02.979003960+00:00,0,1
2023-11-01T03:38:02.979004000+00:00,0,0
2023-11-01T03:38:03.079645500+00:00,1,0
2023-11-01T03:38:03.079695500+00:00,0,0
2023-11-01T03:38:03.088584220+00:00,0,1
2023-11-01T03:38:03.088584240+00:00,0,0
2023-11-01T03:38:03.195370580+00:00,1,0
2023-11-01T03:38:03.195420580+00:00,0,0
2023-11-01T03:38:03.207059060+00:00,0,1
2023-11-01T03:38:03.207059080+00:00,0,0
2023-11-01T03:38:03.322274980+00:00,1,0
2023-11-01T03:38:03.322324980+00:00,0,0
2023-11-01T03:38:03.441547140+00:00,0,1
2023-11-01T03:38:03.441547160+00:00,0,0
2023-11-01T03:38:03.542203500+00:00,1,0
2023-11-01T03:38:03.542253480+00:00,0,0
2023-11-01T03:38:03.551143660+00:00,0,1
2023-11-01T03:38:03.551143700+00:00,0,0
2023-11-01T03:38:03.657921560+00:00,1,0
2023-11-01T03:38:03.657971540+00:00,0,0
2023-11-01T03:38:03.669603260+00:00,0,1
2023-11-01T03:38:03.669603300+00:00,0,0
2023-11-01T03:38:03.773458280+00:00,1,0
2023-11-01T03:38:03.773508260+00:00,0,0
2023-11-01T03:38:03.782441320+00:00,0,1
2023-11-01T03:38:03.782441360+00:00,0,0
2023-11-01T03:38:03.889230560+00:00,1,0
2023-11-01T03:38:03.889280540+00:00,0,0
2023-11-01T03:38:03.904142420+00:00,0,1
2023-11-01T03:38:03.904142460+00:00,0,0
2023-11-01T03:38:04.004801120+00:00,1,0
2023-11-01T03:38:04.004851100+00:00,0,0
2023-11-01T03:38:04.013721500+00:00,0,1
2023-11-01T03:38:04.013721540+00:00,0,0
2023-11-01T03:38:04.120493460+00:00,1,0
2023-11-01T03:38:04.120543460+00:00,0,0
2023-11-01T03:38:04.132198460+00:00,0,1
2023-11-01T03:38:04.132198500+00:00,0,0
2023-11-01T03:38:04.236013320+00:00,1,0
2023-11-01T03:38:04.236063300+00:00,0,0
2023-11-01T03:38:04.245075500+00:00,0,1
2023-11-01T03:38:04.245075540+00:00,0,0
2023-11-01T03:38:04.351843200+00:00,1,0
2023-11-01T03:38:04.351893200+00:00,0,0
