Time [s],Channel 0,Channel 1
2023-10-21T04:34:07.837994000+00:00,0,0
2023-10-21T04:34:07.838273050+00:00,1,0
2023-10-21T04:34:07.838273520+00:00,1,1
2023-10-21T04:34:07.838273580+00:00,1,0
2023-10-21T04:34:07.838323060+00:00,0,0
2023-10-21T04:34:07.839273050+00:00,1,0
2023-10-21T04:34:07.839273510+00:00,1,1
2023-10-21T04:34:07.839273570+00:00,1,0
2023-10-21T04:34:07.839323060+00:00,0,0
2023-10-21T04:34:07.840273050+00:00,1,0
2023-10-21T04:34:07.840273510+00:00,1,1
2023-10-21T04:34:07.840273570+00:00,1,0
2023-10-21T04:34:07.840323060+00:00,0,0
2023-10-21T04:34:07.841273040+00:00,1,0
2023-10-21T04:34:07.841273510+00:00,1,1
2023-10-21T04:34:07.841273570+00:00,1,0
2023-10-21T04:34:07.841323050+00:00,0,0
2023-10-21T04:34:07.842273040+00:00,1,0
2023-10-21T04:34:07.842273510+00:00,1,1
2023-10-21T04:34:07.842273570+00:00,1,0
2023-10-21T04:34:07.842323050+00:00,0,0
2023-10-21T04:34:07.843273040+00:00,1,0
2023-10-21T04:34:07.843273500+00:00,1,1
2023-10-21T04:34:07.843273560+00:00,1,0
2023-10-21T04:34:07.843323050+00:00,0,0
2023-10-21T04:34:07.844273040+00:00,1,0
2023-10-21T04:34:07.844273490+00:00,1,1
2023-10-21T04:34:07.844273550+00:00,1,0
2023-10-21T04:34:07.844323040+00:00,0,0
2023-10-21T04:34:07.845273030+00:00,1,0
2023-10-21T04:34:07.845273500+00:00,1,1
2023-10-21T04:34:07.845273560+00:00,1,0
2023-10-21T04:34:07.845323040+00:00,0,0
2023-10-21T04:34:07.846273030+00:00,1,0
2023-10-21T04:34:07.846273500+00:00,1,1
2023-10-21T04:34:07.846273560+00:00,1,0
2023-10-21T04:34:07.846323040+00:00,0,0
2023-10-21T04:34:07.847273030+00:00,1,0
2023-10-21T04:34:07.847273490+00:00,1,1
2023-10-21T04:34:07.847273550+00:00,1,0
2023-10-21T04:34:07.847323040+00:00,0,0
2023-10-21T04:34:07.848273030+00:00,1,0
2023-10-21T04:34:07.848273490+00:00,1,1
2023-10-21T04:34:07.848273550+00:00,1,0
2023-10-21T04:34:07.848323030+00:00,0,0
2023-10-21T04:34:07.849273020+00:00,1,0
2023-10-21T04:34:07.849273480+00:00,1,1
2023-10-21T04:34:07.849273540+00:00,1,0
2023-10-21T04:34:07.849323030+00:00,0,0
2023-10-21T04:34:07.850273020+00:00,1,0
2023-10-21T04:34:07.850273490+00:00,1,1
2023-10-21T04:34:07.850273550+00:00,1,0
2023-10-21T04:34:07.850323030+00:00,0,0
2023-10-21T04:34:07.851273020+00:00,1,0
2023-10-21T04:34:07.851273480+00:00,1,1
2023-10-21T04:34:07.851273540+00:00,1,0
2023-10-21T04:34:07.851323030+00:00,0,0
2023-10-21T04:34:07.852273020+00:00,1,0
2023-10-21T04:34:07.852273480+00:00,1,1
2023-10-21T04:34:07.852273540+00:00,1,0
2023-10-21T04:34:07.852323020+00:00,0,0
2023-10-21T04:34:07.853273010+00:00,1,0
2023-10-21T04:34:07.853273470+00:00,1,1
2023-10-21T04:34:07.853273530+00:00,1,0
2023-10-21T04:34:07.853323020+00:00,0,0
2023-10-21T04:34:07.854273010+00:00,1,0
2023-10-21T04:34:07.854273480+00:00,1,1
2023-10-21T04:34:07.854273540+00:00,1,0
2023-10-21T04:34:07.854323020+00:00,0,0
2023-10-21T04:34:07.855273010+00:00,1,0
2023-10-21T04:34:07.855273470+00:00,1,1
2023-10-21T04:34:07.855273530+00:00,1,0
2023-10-21T04:34:07.855323020+00:00,0,0
2023-10-21T04:34:07.856273010+00:00,1,0
2023-10-21T04:34:07.856273470+00:00,1,1
2023-10-21T04:34:07.856273530+00:00,1,0
2023-10-21T04:34:07.856323010+00:00,0,0
2023-10-21T04:34:07.857273000+00:00,1,0
2023-10-21T04:34:07.857273460+00:00,1,1
2023-10-21T04:34:07.857273520+00:00,1,0
2023-10-21T04:34:07.857323010+00:00,0,0
2023-10-21T04:34:07.858273000+00:00,1,0
2023-10-21T04:34:07.858273470+00:00,1,1
2023-10-21T04:34:07.858273530+00:00,1,0
2023-10-21T04:34:07.858323010+00:00,0,0
2023-10-21T04:34:07.859273000+00:00,1,0
2023-10-21T04:34:07.859273470+00:00,1,1
2023-10-21T04:34:07.859273530+00:00,1,0
2023-10-21T04:34:07.859323010+00:00,0,0
2023-10-21T04:34:07.860272990+00:00,1,0
2023-10-21T04:34:07.860273460+00:00,1,1
2023-10-21T04:34:07.860273520+00:00,1,0
2023-10-21T04:34:07.860323000+00:00,0,0
2023-10-21T04:34:07.861272990+00:00,1,0
2023-10-21T04:34:07.861273460+00:00,1,1
2023-10-21T04:34:07.861273520+00:00,1,0
2023-10-21T04:34:07.861323000+00:00,0,0
2023-10-21T04:34:07.862272990+00:00,1,0
2023-10-21T04:34:07.862273460+00:00,1,1
2023-10-21T04:34:07.862273520+00:00,1,0
2023-10-21T04:34:07.862323000+00:00,0,0
2023-10-21T04:34:07.863272990+00:00,1,0
2023-10-21T04:34:07.863273440+00:00,1,1
2023-10-21T04:34:07.863273500+00:00,1,0
2023-10-21T04:34:07.863323000+00:00,0,0
2023-10-21T04:34:07.864272990+00:00,1,0
2023-10-21T04:34:07.864273450+00:00,1,1
2023-10-21T04:34:07.864273510+00:00,1,0
2023-10-21T04:34:07.864322990+00:00,0,0
2023-10-21T04:34:07.865272980+00:00,1,0
2023-10-21T04:34:07.865273450+00:00,1,1
2023-10-21T04:34:07.865273510+00:00,1,0
2023-10-21T04:34:07.865322990+00:00,0,0
2023-10-21T04:34:07.866272980+00:00,1,0
2023-10-21T04:34:07.866273440+00:00,1,1
2023-10-21T04:34:07.866273500+00:00,1,0
2023-10-21T04:34:07.866322990+00:00,0,0
2023-10-21T04:34:07.867272980+00:00,1,0
2023-10-21T04:34:07.867273450+00:00,1,1
2023-10-21T04:34:07.867273510+00:00,1,0
2023-10-21T04:34:07.867322990+00:00,0,0
2023-10-21T04:34:07.868272980+00:00,1,0
2023-10-21T04:34:07.868273440+00:00,1,1
2023-10-21T04:34:07.868273500+00:00,1,0
2023-10-21T04:34:07.868322980+00:00,0,0
2023-10-21T04:34:07.869272970+00:00,1,0
2023-10-21T04:34:07.869273440+00:00,1,1
2023-10-21T04:34:07.869273500+00:00,1,0
2023-10-21T04:34:07.869322980+00:00,0,0
2023-10-21T04:34:07.870272970+00:00,1,0
2023-10-21T04:34:07.870273430+00:00,1,1
2023-10-21T04:34:07.870273490+00:00,1,0
2023-10-21T04:34:07.870322980+00:00,0,0
2023-10-21T04:34:07.871272970+00:00,1,0
2023-10-21T04:34:07.871273440+00:00,1,1
2023-10-21T04:34:07.871273500+00:00,1,0
2023-10-21T04:34:07.871322980+00:00,0,0
2023-10-21T04:34:07.872272970+00:00,1,0
2023-10-21T04:34:07.872273430+00:00,1,1
2023-10-21T04:34:07.872273490+00:00,1,0
2023-10-21T04:34:07.872322970+00:00,0,0
2023-10-21T04:34:07.873272960+00:00,1,0
2023-10-21T04:34:07.873273430+00:00,1,1
2023-10-21T04:34:07.873273490+00:00,1,0
2023-10-21T04:34:07.873322970+00:00,0,0
2023-10-21T04:34:07.874272960+00:00,1,0
2023-10-21T04:34:07.874273420+00:00,1,1
2023-10-21T04:34:07.874273480+00:00,1,0
2023-10-21T04:34:07.874322970+00:00,0,0
2023-10-21T04:34:07.875272960+00:00,1,0
2023-10-21T04:34:07.875273430+00:00,1,1
2023-10-21T04:34:07.875273490+00:00,1,0
2023-10-21T04:34:07.875322970+00:00,0,0
2023-10-21T04:34:07.876272950+00:00,1,0
2023-10-21T04:34:07.876273420+00:00,1,1
2023-10-21T04:34:07.876273480+00:00,1,0
2023-10-21T04:34:07.876322960+00:00,0,0
2023-10-21T04:34:07.877272950+00:00,1,0
2023-10-21T04:34:07.877273420+00:00,1,1
2023-10-21T04:34:07.877273480+00:00,1,0
2023-10-21T04:34:07.877322960+00:00,0,0
2023-10-21T04:34:07.878272950+00:00,1,0
2023-10-21T04:34:07.878273410+00:00,1,1
2023-10-21T04:34:07.878273470+00:00,1,0
2023-10-21T04:34:07.878322960+00:00,0,0
2023-10-21T04:34:07.879272950+00:00,1,0
2023-10-21T04:34:07.879273410+00:00,1,1
2023-10-21T04:34:07.879273480+00:00,1,0
2023-10-21T04:34:07.879322960+00:00,0,0
2023-10-21T04:34:07.880272940+00:00,1,0
2023-10-21T04:34:07.880273410+00:00,1,1
2023-10-21T04:34:07.880273470+00:00,1,0
2023-10-21T04:34:07.880322950+00:00,0,0
2023-10-21T04:34:07.881272940+00:00,1,0
2023-10-21T04:34:07.881273390+00:00,1,1
2023-10-21T04:34:07.881273450+00:00,1,0
2023-10-21T04:34:07.881322950+00:00,0,0
2023-10-21T04:34:07.882272940+00:00,1,0
2023-10-21T04:34:07.882273400+00:00,1,1
2023-10-21T04:34:07.882273460+00:00,1,0
2023-10-21T04:34:07.882322950+00:00,0,0
2023-10-21T04:34:07.883272940+00:00,1,0
2023-10-21T04:34:07.883273400+00:00,1,1
2023-10-21T04:34:07.883273460+00:00,1,0
2023-10-21T04:34:07.883322950+00:00,0,0
2023-10-21T04:34:07.884272930+00:00,1,0
2023-10-21T04:34:07.884273400+00:00,1,1
2023-10-21T04:34:07.884273460+00:00,1,0
2023-10-21T04:34:07.884322940+00:00,0,0
2023-10-21T04:34:07.885272930+00:00,1,0
2023-10-21T04:34:07.885273400+00:00,1,1
2023-10-21T04:34:07.885273460+00:00,1,0
2023-10-21T04:34:07.885322940+00:00,0,0
2023-10-21T04:34:07.886272930+00:00,1,0
2023-10-21T04:34:07.886273390+00:00,1,1
2023-10-21T04:34:07.886273450+00:00,1,0
2023-10-21T04:34:07.886322940+00:00,0,0
2023-10-21T04:34:07.887272930+00:00,1,0
2023-10-21T04:34:07.887273390+00:00,1,1
2023-10-21T04:34:07.887273450+00:00,1,0
2023-10-21T04:34:07.887322940+00:00,0,0
2023-10-21T04:34:07.888272920+00:00,1,0
2023-10-21T04:34:07.888273390+00:00,1,1
2023-10-21T04:34:07.888273450+00:00,1,0
2023-10-21T04:34:07.888322930+00:00,0,0
2023-10-21T04:34:07.889272920+00:00,1,0
2023-10-21T04:34:07.889273390+00:00,1,1
2023-10-21T04:34:07.889273450+00:00,1,0
2023-10-21T04:34:07.889322930+00:00,0,0
2023-10-21T04:34:07.890272920+00:00,1,0
2023-10-21T04:34:07.890273380+00:00,1,1
2023-10-21T04:34:07.890273440+00:00,1,0
2023-10-21T04:34:07.890322930+00:00,0,0
2023-10-21T04:34:07.891272920+00:00,1,0
2023-10-21T04:34:07.891273380+00:00,1,1
2023-10-21T04:34:07.891273440+00:00,1,0
2023-10-21T04:34:07.891322930+00:00,0,0
2023-10-21T04:34:07.892272910+00:00,1,0
2023-10-21T04:34:07.892273370+00:00,1,1
2023-10-21T04:34:07.892273430+00:00,1,0
2023-10-21T04:34:07.892322920+00:00,0,0
2023-10-21T04:34:07.893272910+00:00,1,0
2023-10-21T04:34:07.893273380+00:00,1,1
2023-10-21T04:34:07.893273440+00:00,1,0
2023-10-21T04:34:07.893322920+00:00,0,0
2023-10-21T04:34:07.894272910+00:00,1,0
2023-10-21T04:34:07.894273380+00:00,1,1
2023-10-21T04:34:07.894273440+00:00,1,0
2023-10-21T04:34:07.894322920+00:00,0,0
2023-10-21T04:34:07.895272910+00:00,1,0
2023-10-21T04:34:07.895273390+00:00,1,1
2023-10-21T04:34:07.895273450+00:00,1,0
2023-10-21T04:34:07.895322920+00:00,0,0
2023-10-21T04:34:07.896272900+00:00,1,0
2023-10-21T04:34:07.896273390+00:00,1,1
2023-10-21T04:34:07.896273450+00:00,1,0
2023-10-21T04:34:07.896322910+00:00,0,0
2023-10-21T04:34:07.897272900+00:00,1,0
2023-10-21T04:34:07.897273400+00:00,1,1
2023-10-21T04:34:07.897273460+00:00,1,0
2023-10-21T04:34:07.897322910+00:00,0,0
2023-10-21T04:34:07.898272900+00:00,1,0
2023-10-21T04:34:07.898273350+00:00,1,1
2023-10-21T04:34:07.898273410+00:00,1,0
2023-10-21T04:34:07.898322910+00:00,0,0
2023-10-21T04:34:07.899272900+00:00,1,0
2023-10-21T04:34:07.899273340+00:00,1,1
2023-10-21T04:34:07.899273400+00:00,1,0
2023-10-21T04:34:07.899322910+00:00,0,0
2023-10-21T04:34:07.900272890+00:00,1,0
2023-10-21T04:34:07.900273350+00:00,1,1
2023-10-21T04:34:07.900273410+00:00,1,0
2023-10-21T04:34:07.900322900+00:00,0,0
2023-10-21T04:34:07.901272890+00:00,1,0
2023-10-21T04:34:07.901273360+00:00,1,1
2023-10-21T04:34:07.901273420+00:00,1,0
2023-10-21T04:34:07.901322900+00:00,0,0
2023-10-21T04:34:07.902272890+00:00,1,0
2023-10-21T04:34:07.902273360+00:00,1,1
2023-10-21T04:34:07.902273420+00:00,1,0
2023-10-21T04:34:07.902322900+00:00,0,0
2023-10-21T04:34:07.903272890+00:00,1,0
2023-10-21T04:34:07.903273350+00:00,1,1
2023-10-21T04:34:07.903273410+00:00,1,0
2023-10-21T04:34:07.903322900+00:00,0,0
2023-10-21T04:34:07.904272880+00:00,1,0
2023-10-21T04:34:07.904273360+00:00,1,1
2023-10-21T04:34:07.904273410+00:00,1,0
2023-10-21T04:34:07.904322890+00:00,0,0
2023-10-21T04:34:07.905272880+00:00,1,0
2023-10-21T04:34:07.905273350+00:00,1,1
2023-10-21T04:34:07.905273410+00:00,1,0
2023-10-21T04:34:07.905322890+00:00,0,0
2023-10-21T04:34:07.906272880+00:00,1,0
2023-10-21T04:34:07.906273350+00:00,1,1
2023-10-21T04:34:07.906273410+00:00,1,0
2023-10-21T04:34:07.906322890+00:00,0,0
2023-10-21T04:34:07.907272880+00:00,1,0
2023-10-21T04:34:07.907273340+00:00,1,1
2023-10-21T04:34:07.907273400+00:00,1,0
2023-10-21T04:34:07.907322890+00:00,0,0
2023-10-21T04:34:07.908272870+00:00,1,0
2023-10-21T04:34:07.908273340+00:00,1,1
2023-10-21T04:34:07.908273400+00:00,1,0
2023-10-21T04:34:07.908322880+00:00,0,0
2023-10-21T04:34:07.909272870+00:00,1,0
2023-10-21T04:34:07.909273340+00:00,1,1
2023-10-21T04:34:07.909273400+00:00,1,0
2023-10-21T04:34:07.909322880+00:00,0,0
2023-10-21T04:34:07.910272870+00:00,1,0
2023-10-21T04:34:07.910273340+00:00,1,1
2023-10-21T04:34:07.910273400+00:00,1,0
2023-10-21T04:34:07.910322880+00:00,0,0
2023-10-21T04:34:07.911272870+00:00,1,0
2023-10-21T04:34:07.911273330+00:00,1,1
2023-10-21T04:34:07.911273390+00:00,1,0
2023-10-21T04:34:07.911322870+00:00,0,0
2023-10-21T04:34:07.912272860+00:00,1,0
2023-10-21T04:34:07.912273330+00:00,1,1
2023-10-21T04:34:07.912273390+00:00,1,0
2023-10-21T04:34:07.912322870+00:00,0,0
2023-10-21T04:34:07.913272860+00:00,1,0
2023-10-21T04:34:07.913273320+00:00,1,1
2023-10-21T04:34:07.913273380+00:00,1,0
2023-10-21T04:34:07.913322870+00:00,0,0
2023-10-21T04:34:07.914272860+00:00,1,0
2023-10-21T04:34:07.914273330+00:00,1,1
2023-10-21T04:34:07.914273390+00:00,1,0
2023-10-21T04:34:07.914322870+00:00,0,0
2023-10-21T04:34:07.915272860+00:00,1,0
2023-10-21T04:34:07.915273320+00:00,1,1
2023-10-21T04:34:07.915273380+00:00,1,0
2023-10-21T04:34:07.915322860+00:00,0,0
2023-10-21T04:34:07.916272850+00:00,1,0
2023-10-21T04:34:07.916273320+00:00,1,1
2023-10-21T04:34:07.916273380+00:00,1,0
2023-10-21T04:34:07.916322860+00:00,0,0
2023-10-21T04:34:07.917272850+00:00,1,0
2023-10-21T04:34:07.917273310+00:00,1,1
2023-10-21T04:34:07.917273370+00:00,1,0
2023-10-21T04:34:07.917322860+00:00,0,0
2023-10-21T04:34:07.918272850+00:00,1,0
2023-10-21T04:34:07.918273300+00:00,1,1
2023-10-21T04:34:07.918273360+00:00,1,0
2023-10-21T04:34:07.918322860+00:00,0,0
2023-10-21T04:34:07.919272850+00:00,1,0
2023-10-21T04:34:07.919273310+00:00,1,1
2023-10-21T04:34:07.919273370+00:00,1,0
2023-10-21T04:34:07.919322850+00:00,0,0
2023-10-21T04:34:07.920272840+00:00,1,0
2023-10-21T04:34:07.920273310+00:00,1,1
2023-10-21T04:34:07.920273370+00:00,1,0
2023-10-21T04:34:07.920322850+00:00,0,0
2023-10-21T04:34:07.921272840+00:00,1,0
2023-10-21T04:34:07.921273300+00:00,1,1
2023-10-21T04:34:07.921273360+00:00,1,0
2023-10-21T04:34:07.921322850+00:00,0,0
2023-10-21T04:34:07.922272840+00:00,1,0
2023-10-21T04:34:07.922273310+00:00,1,1
2023-10-21T04:34:07.922273370+00:00,1,0
2023-10-21T04:34:07.922322850+00:00,0,0
2023-10-21T04:34:07.923272840+00:00,1,0
2023-10-21T04:34:07.923273300+00:00,1,1
2023-10-21T04:34:07.923273360+00:00,1,0
2023-10-21T04:34:07.923322850+00:00,0,0
2023-10-21T04:34:07.924272830+00:00,1,0
2023-10-21T04:34:07.924273300+00:00,1,1
2023-10-21T04:34:07.924273360+00:00,1,0
2023-10-21T04:34:07.924322840+00:00,0,0
2023-10-21T04:34:07.925272830+00:00,1,0
2023-10-21T04:34:07.925273290+00:00,1,1
2023-10-21T04:34:07.925273350+00:00,1,0
2023-10-21T04:34:07.925322840+00:00,0,0
2023-10-21T04:34:07.926272830+00:00,1,0
2023-10-21T04:34:07.926273300+00:00,1,1
2023-10-21T04:34:07.926273360+00:00,1,0
2023-10-21T04:34:07.926322840+00:00,0,0
2023-10-21T04:34:07.927272830+00:00,1,0
2023-10-21T04:34:07.927273290+00:00,1,1
2023-10-21T04:34:07.927273350+00:00,1,0
2023-10-21T04:34:07.927322830+00:00,0,0
2023-10-21T04:34:07.928272820+00:00,1,0
2023-10-21T04:34:07.928273290+00:00,1,1
2023-10-21T04:34:07.928273350+00:00,1,0
2023-10-21T04:34:07.928322830+00:00,0,0
2023-10-21T04:34:07.929272820+00:00,1,0
2023-10-21T04:34:07.929273280+00:00,1,1
2023-10-21T04:34:07.929273340+00:00,1,0
2023-10-21T04:34:07.929322830+00:00,0,0
2023-10-21T04:34:07.930272820+00:00,1,0
2023-10-21T04:34:07.930273280+00:00,1,1
2023-10-21T04:34:07.930273340+00:00,1,0
2023-10-21T04:34:07.930322830+00:00,0,0
2023-10-21T04:34:07.931272820+00:00,1,0
2023-10-21T04:34:07.931273280+00:00,1,1
2023-10-21T04:34:07.931273340+00:00,1,0
2023-10-21T04:34:07.931322820+00:00,0,0
2023-10-21T04:34:07.932272810+00:00,1,0
2023-10-21T04:34:07.932273280+00:00,1,1
2023-10-21T04:34:07.932273340+00:00,1,0
2023-10-21T04:34:07.932322820+00:00,0,0
2023-10-21T04:34:07.933272810+00:00,1,0
2023-10-21T04:34:07.933273280+00:00,1,1
2023-10-21T04:34:07.933273340+00:00,1,0
2023-10-21T04:34:07.933322820+00:00,0,0
2023-10-21T04:34:07.934272810+00:00,1,0
2023-10-21T04:34:07.934273270+00:00,1,1
2023-10-21T04:34:07.934273330+00:00,1,0
2023-10-21T04:34:07.934322820+00:00,0,0
2023-10-21T04:34:07.935272810+00:00,1,0
2023-10-21T04:34:07.935273280+00:00,1,1
2023-10-21T04:34:07.935273340+00:00,1,0
2023-10-21T04:34:07.935322810+00:00,0,0
2023-10-21T04:34:07.936272800+00:00,1,0
2023-10-21T04:34:07.936273270+00:00,1,1
2023-10-21T04:34:07.936273330+00:00,1,0
2023-10-21T04:34:07.936322810+00:00,0,0
2023-10-21T04:34:07.937272800+00:00,1,0
2023-10-21T04:34:07.937273250+00:00,1,1
2023-10-21T04:34:07.937273310+00:00,1,0
2023-10-21T04:34:07.937322810+00:00,0,0
2023-10-21T04:34:07.938272800+00:00,1,0
2023-10-21T04:34:07.938273260+00:00,1,1
2023-10-21T04:34:07.938273320+00:00,1,0
2023-10-21T04:34:07.938322810+00:00,0,0
2023-10-21T04:34:07.939272790+00:00,1,0
2023-10-21T04:34:07.939273270+00:00,1,1
2023-10-21T04:34:07.939273330+00:00,1,0
2023-10-21T04:34:07.939322800+00:00,0,0
2023-10-21T04:34:07.940272790+00:00,1,0
2023-10-21T04:34:07.940273260+00:00,1,1
2023-10-21T04:34:07.940273320+00:00,1,0
2023-10-21T04:34:07.940322800+00:00,0,0
2023-10-21T04:34:07.941272790+00:00,1,0
2023-10-21T04:34:07.941273260+00:00,1,1
2023-10-21T04:34:07.941273320+00:00,1,0
2023-10-21T04:34:07.941322800+00:00,0,0
2023-10-21T04:34:07.942272790+00:00,1,0
2023-10-21T04:34:07.942273250+00:00,1,1
2023-10-21T04:34:07.942273310+00:00,1,0
2023-10-21T04:34:07.942322800+00:00,0,0
2023-10-21T04:34:07.943272780+00:00,1,0
2023-10-21T04:34:07.943273260+00:00,1,1
2023-10-21T04:34:07.943273320+00:00,1,0
2023-10-21T04:34:07.943322790+00:00,0,0
2023-10-21T04:34:07.944272780+00:00,1,0
2023-10-21T04:34:07.944273250+00:00,1,1
2023-10-21T04:34:07.944273310+00:00,1,0
2023-10-21T04:34:07.944322790+00:00,0,0
2023-10-21T04:34:07.945272780+00:00,1,0
2023-10-21T04:34:07.945273250+00:00,1,1
2023-10-21T04:34:07.945273310+00:00,1,0
2023-10-21T04:34:07.945322790+00:00,0,0
2023-10-21T04:34:07.946272780+00:00,1,0
2023-10-21T04:34:07.946273240+00:00,1,1
2023-10-21T04:34:07.946273300+00:00,1,0
2023-10-21T04:34:07.946322790+00:00,0,0
2023-10-21T04:34:07.947272780+00:00,1,0
2023-10-21T04:34:07.947273240+00:00,1,1
2023-10-21T04:34:07.947273310+00:00,1,0
2023-10-21T04:34:07.947322780+00:00,0,0
2023-10-21T04:34:07.948272770+00:00,1,0
2023-10-21T04:34:07.948273240+00:00,1,1
2023-10-21T04:34:07.948273300+00:00,1,0
2023-10-21T04:34:07.948322780+00:00,0,0
2023-10-21T04:34:07.949272770+00:00,1,0
2023-10-21T04:34:07.949273240+00:00,1,1
2023-10-21T04:34:07.949273300+00:00,1,0
2023-10-21T04:34:07.949322780+00:00,0,0
2023-10-21T04:34:07.950272770+00:00,1,0
2023-10-21T04:34:07.950273230+00:00,1,1
2023-10-21T04:34:07.950273290+00:00,1,0
2023-10-21T04:34:07.950322780+00:00,0,0
2023-10-21T04:34:07.951272770+00:00,1,0
2023-10-21T04:34:07.951273230+00:00,1,1
2023-10-21T04:34:07.951273290+00:00,1,0
2023-10-21T04:34:07.951322770+00:00,0,0
2023-10-21T04:34:07.952272760+00:00,1,0
2023-10-21T04:34:07.952273230+00:00,1,1
2023-10-21T04:34:07.952273290+00:00,1,0
2023-10-21T04:34:07.952322770+00:00,0,0
2023-10-21T04:34:07.953272760+00:00,1,0
2023-10-21T04:34:07.953273230+00:00,1,1
2023-10-21T04:34:07.953273290+00:00,1,0
2023-10-21T04:34:07.953322770+00:00,0,0
2023-10-21T04:34:07.954272760+00:00,1,0
2023-10-21T04:34:07.954273220+00:00,1,1
2023-10-21T04:34:07.954273280+00:00,1,0
2023-10-21T04:34:07.954322770+00:00,0,0
2023-10-21T04:34:07.955272750+00:00,1,0
2023-10-21T04:34:07.955273210+00:00,1,1
2023-10-21T04:34:07.955273270+00:00,1,0
2023-10-21T04:34:07.955322760+00:00,0,0
2023-10-21T04:34:07.956272750+00:00,1,0
2023-10-21T04:34:07.956273210+00:00,1,1
2023-10-21T04:34:07.956273280+00:00,1,0
2023-10-21T04:34:07.956322760+00:00,0,0
2023-10-21T04:34:07.957272750+00:00,1,0
2023-10-21T04:34:07.957273220+00:00,1,1
2023-10-21T04:34:07.957273280+00:00,1,0
2023-10-21T04:34:07.957322760+00:00,0,0
2023-10-21T04:34:07.958272750+00:00,1,0
2023-10-21T04:34:07.958273210+00:00,1,1
2023-10-21T04:34:07.958273270+00:00,1,0
2023-10-21T04:34:07.958322760+00:00,0,0
2023-10-21T04:34:07.959272740+00:00,1,0
2023-10-21T04:34:07.959273210+00:00,1,1
2023-10-21T04:34:07.959273270+00:00,1,0
2023-10-21T04:34:07.959322750+00:00,0,0
2023-10-21T04:34:07.960272740+00:00,1,0
2023-10-21T04:34:07.960273200+00:00,1,1
2023-10-21T04:34:07.960273260+00:00,1,0
2023-10-21T04:34:07.960322750+00:00,0,0
2023-10-21T04:34:07.961272740+00:00,1,0
2023-10-21T04:34:07.961273210+00:00,1,1
2023-10-21T04:34:07.961273270+00:00,1,0
2023-10-21T04:34:07.961322750+00:00,0,0
2023-10-21T04:34:07.962272740+00:00,1,0
2023-10-21T04:34:07.962273200+00:00,1,1
