Time [s],Channel 0,Channel 1
2023-10-21T04:41:35.317226000+00:00,0,0
2023-10-21T04:41:35.317598990+00:00,1,0
2023-10-21T04:41:35.317599330+00:00,1,1
2023-10-21T04:41:35.317599400+00:00,1,0
2023-10-21T04:41:35.317649000+00:00,0,0
2023-10-21T04:41:35.318598990+00:00,1,0
2023-10-21T04:41:35.318599330+00:00,1,1
2023-10-21T04:41:35.318599390+00:00,1,0
2023-10-21T04:41:35.318649000+00:00,0,0
2023-10-21T04:41:35.319598990+00:00,1,0
2023-10-21T04:41:35.319599310+00:00,1,1
2023-10-21T04:41:35.319599380+00:00,1,0
2023-10-21T04:41:35.319649000+00:00,0,0
2023-10-21T04:41:35.320598980+00:00,1,0
2023-10-21T04:41:35.320599300+00:00,1,1
2023-10-21T04:41:35.320599370+00:00,1,0
2023-10-21T04:41:35.320648990+00:00,0,0
2023-10-21T04:41:35.321598980+00:00,1,0
2023-10-21T04:41:35.321599340+00:00,1,1
2023-10-21T04:41:35.321599410+00:00,1,0
2023-10-21T04:41:35.321648990+00:00,0,0
2023-10-21T04:41:35.322598980+00:00,1,0
2023-10-21T04:41:35.322599320+00:00,1,1
2023-10-21T04:41:35.322599380+00:00,1,0
2023-10-21T04:41:35.322648990+00:00,0,0
2023-10-21T04:41:35.323598970+00:00,1,0
2023-10-21T04:41:35.323599320+00:00,1,1
2023-10-21T04:41:35.323599380+00:00,1,0
2023-10-21T04:41:35.323648980+00:00,0,0
2023-10-21T04:41:35.324598970+00:00,1,0
2023-10-21T04:41:35.324599310+00:00,1,1
2023-10-21T04:41:35.324599380+00:00,1,0
2023-10-21T04:41:35.324648980+00:00,0,0
2023-10-21T04:41:35.325598970+00:00,1,0
2023-10-21T04:41:35.325599300+00:00,1,1
2023-10-21T04:41:35.325599360+00:00,1,0
2023-10-21T04:41:35.325648980+00:00,0,0
2023-10-21T04:41:35.326598970+00:00,1,0
2023-10-21T04:41:35.326599290+00:00,1,1
2023-10-21T04:41:35.326599350+00:00,1,0
2023-10-21T04:41:35.326648970+00:00,0,0
2023-10-21T04:41:35.327598960+00:00,1,0
2023-10-21T04:41:35.327599330+00:00,1,1
2023-10-21T04:41:35.327599390+00:00,1,0
2023-10-21T04:41:35.327648970+00:00,0,0
2023-10-21T04:41:35.328598960+00:00,1,0
2023-10-21T04:41:35.328599300+00:00,1,1
2023-10-21T04:41:35.328599370+00:00,1,0
2023-10-21T04:41:35.328648970+00:00,0,0
2023-10-21T04:41:35.329598960+00:00,1,0
2023-10-21T04:41:35.329599280+00:00,1,1
2023-10-21T04:41:35.329599350+00:00,1,0
2023-10-21T04:41:35.329648970+00:00,0,0
2023-10-21T04:41:35.330598950+00:00,1,0
2023-10-21T04:41:35.330599280+00:00,1,1
2023-10-21T04:41:35.330599340+00:00,1,0
2023-10-21T04:41:35.330648960+00:00,0,0
2023-10-21T04:41:35.331598950+00:00,1,0
2023-10-21T04:41:35.331599320+00:00,1,1
2023-10-21T04:41:35.331599380+00:00,1,0
2023-10-21T04:41:35.331648960+00:00,0,0
2023-10-21T04:41:35.332598950+00:00,1,0
2023-10-21T04:41:35.332599290+00:00,1,1
2023-10-21T04:41:35.332599360+00:00,1,0
2023-10-21T04:41:35.332648960+00:00,0,0
2023-10-21T04:41:35.333598950+00:00,1,0
2023-10-21T04:41:35.333599260+00:00,1,1
2023-10-21T04:41:35.333599330+00:00,1,0
2023-10-21T04:41:35.333648950+00:00,0,0
2023-10-21T04:41:35.334598940+00:00,1,0
2023-10-21T04:41:35.334599280+00:00,1,1
2023-10-21T04:41:35.334599350+00:00,1,0
2023-10-21T04:41:35.334648950+00:00,0,0
2023-10-21T04:41:35.335598940+00:00,1,0
2023-10-21T04:41:35.335599280+00:00,1,1
2023-10-21T04:41:35.335599340+00:00,1,0
2023-10-21T04:41:35.335648950+00:00,0,0
2023-10-21T04:41:35.336598940+00:00,1,0
2023-10-21T04:41:35.336599260+00:00,1,1
2023-10-21T04:41:35.336599330+00:00,1,0
2023-10-21T04:41:35.336648940+00:00,0,0
2023-10-21T04:41:35.337598930+00:00,1,0
2023-10-21T04:41:35.337599250+00:00,1,1
2023-10-21T04:41:35.337599320+00:00,1,0
2023-10-21T04:41:35.337648940+00:00,0,0
2023-10-21T04:41:35.338598930+00:00,1,0
2023-10-21T04:41:35.338599290+00:00,1,1
2023-10-21T04:41:35.338599360+00:00,1,0
2023-10-21T04:41:35.338648940+00:00,0,0
2023-10-21T04:41:35.339598930+00:00,1,0
2023-10-21T04:41:35.339599260+00:00,1,1
2023-10-21T04:41:35.339599330+00:00,1,0
2023-10-21T04:41:35.339648940+00:00,0,0
2023-10-21T04:41:35.340598920+00:00,1,0
2023-10-21T04:41:35.340599270+00:00,1,1
2023-10-21T04:41:35.340599330+00:00,1,0
2023-10-21T04:41:35.340648930+00:00,0,0
2023-10-21T04:41:35.341598920+00:00,1,0
2023-10-21T04:41:35.341599260+00:00,1,1
2023-10-21T04:41:35.341599330+00:00,1,0
2023-10-21T04:41:35.341648930+00:00,0,0
2023-10-21T04:41:35.342598920+00:00,1,0
2023-10-21T04:41:35.342599250+00:00,1,1
2023-10-21T04:41:35.342599310+00:00,1,0
2023-10-21T04:41:35.342648930+00:00,0,0
2023-10-21T04:41:35.343598920+00:00,1,0
2023-10-21T04:41:35.343599240+00:00,1,1
2023-10-21T04:41:35.343599300+00:00,1,0
2023-10-21T04:41:35.343648920+00:00,0,0
2023-10-21T04:41:35.344598910+00:00,1,0
2023-10-21T04:41:35.344599280+00:00,1,1
2023-10-21T04:41:35.344599340+00:00,1,0
2023-10-21T04:41:35.344648920+00:00,0,0
2023-10-21T04:41:35.345598910+00:00,1,0
2023-10-21T04:41:35.345599250+00:00,1,1
2023-10-21T04:41:35.345599320+00:00,1,0
2023-10-21T04:41:35.345648920+00:00,0,0
2023-10-21T04:41:35.346598910+00:00,1,0
2023-10-21T04:41:35.346599230+00:00,1,1
2023-10-21T04:41:35.346599300+00:00,1,0
2023-10-21T04:41:35.346648910+00:00,0,0
2023-10-21T04:41:35.347598900+00:00,1,0
2023-10-21T04:41:35.347599230+00:00,1,1
2023-10-21T04:41:35.347599290+00:00,1,0
2023-10-21T04:41:35.347648910+00:00,0,0
2023-10-21T04:41:35.348598900+00:00,1,0
2023-10-21T04:41:35.348599260+00:00,1,1
2023-10-21T04:41:35.348599330+00:00,1,0
2023-10-21T04:41:35.348648910+00:00,0,0
2023-10-21T04:41:35.349598900+00:00,1,0
2023-10-21T04:41:35.349599240+00:00,1,1
2023-10-21T04:41:35.349599300+00:00,1,0
2023-10-21T04:41:35.349648910+00:00,0,0
2023-10-21T04:41:35.350598890+00:00,1,0
2023-10-21T04:41:35.350599210+00:00,1,1
2023-10-21T04:41:35.350599280+00:00,1,0
2023-10-21T04:41:35.350648900+00:00,0,0
2023-10-21T04:41:35.351598890+00:00,1,0
2023-10-21T04:41:35.351599230+00:00,1,1
2023-10-21T04:41:35.351599300+00:00,1,0
2023-10-21T04:41:35.351648900+00:00,0,0
2023-10-21T04:41:35.352598890+00:00,1,0
2023-10-21T04:41:35.352599220+00:00,1,1
2023-10-21T04:41:35.352599290+00:00,1,0
2023-10-21T04:41:35.352648900+00:00,0,0
2023-10-21T04:41:35.353598890+00:00,1,0
2023-10-21T04:41:35.353599210+00:00,1,1
2023-10-21T04:41:35.353599280+00:00,1,0
2023-10-21T04:41:35.353648890+00:00,0,0
2023-10-21T04:41:35.354598880+00:00,1,0
2023-10-21T04:41:35.354599200+00:00,1,1
2023-10-21T04:41:35.354599270+00:00,1,0
2023-10-21T04:41:35.354648890+00:00,0,0
2023-10-21T04:41:35.355598880+00:00,1,0
2023-10-21T04:41:35.355599240+00:00,1,1
2023-10-21T04:41:35.355599310+00:00,1,0
2023-10-21T04:41:35.355648890+00:00,0,0
2023-10-21T04:41:35.356598880+00:00,1,0
2023-10-21T04:41:35.356599210+00:00,1,1
2023-10-21T04:41:35.356599280+00:00,1,0
2023-10-21T04:41:35.356648880+00:00,0,0
2023-10-21T04:41:35.357598870+00:00,1,0
2023-10-21T04:41:35.357599220+00:00,1,1
2023-10-21T04:41:35.357599280+00:00,1,0
2023-10-21T04:41:35.357648880+00:00,0,0
2023-10-21T04:41:35.358598870+00:00,1,0
2023-10-21T04:41:35.358599210+00:00,1,1
2023-10-21T04:41:35.358599270+00:00,1,0
2023-10-21T04:41:35.358648880+00:00,0,0
2023-10-21T04:41:35.359598870+00:00,1,0
2023-10-21T04:41:35.359599190+00:00,1,1
2023-10-21T04:41:35.359599260+00:00,1,0
2023-10-21T04:41:35.359648880+00:00,0,0
2023-10-21T04:41:35.360598860+00:00,1,0
2023-10-21T04:41:35.360599190+00:00,1,1
2023-10-21T04:41:35.360599250+00:00,1,0
2023-10-21T04:41:35.360648870+00:00,0,0
2023-10-21T04:41:35.361598860+00:00,1,0
2023-10-21T04:41:35.361599220+00:00,1,1
2023-10-21T04:41:35.361599290+00:00,1,0
2023-10-21T04:41:35.361648870+00:00,0,0
2023-10-21T04:41:35.362598860+00:00,1,0
2023-10-21T04:41:35.362599200+00:00,1,1
2023-10-21T04:41:35.362599260+00:00,1,0
2023-10-21T04:41:35.362648870+00:00,0,0
2023-10-21T04:41:35.363598860+00:00,1,0
2023-10-21T04:41:35.363599180+00:00,1,1
2023-10-21T04:41:35.363599250+00:00,1,0
2023-10-21T04:41:35.363648860+00:00,0,0
2023-10-21T04:41:35.364598850+00:00,1,0
2023-10-21T04:41:35.364599170+00:00,1,1
2023-10-21T04:41:35.364599240+00:00,1,0
2023-10-21T04:41:35.364648860+00:00,0,0
2023-10-21T04:41:35.365598850+00:00,1,0
2023-10-21T04:41:35.365599210+00:00,1,1
2023-10-21T04:41:35.365599280+00:00,1,0
2023-10-21T04:41:35.365648860+00:00,0,0
2023-10-21T04:41:35.366598850+00:00,1,0
2023-10-21T04:41:35.366599190+00:00,1,1
2023-10-21T04:41:35.366599250+00:00,1,0
2023-10-21T04:41:35.366648860+00:00,0,0
2023-10-21T04:41:35.367598840+00:00,1,0
2023-10-21T04:41:35.367599160+00:00,1,1
2023-10-21T04:41:35.367599230+00:00,1,0
2023-10-21T04:41:35.367648850+00:00,0,0
2023-10-21T04:41:35.368598840+00:00,1,0
2023-10-21T04:41:35.368599180+00:00,1,1
2023-10-21T04:41:35.368599250+00:00,1,0
2023-10-21T04:41:35.368648850+00:00,0,0
2023-10-21T04:41:35.369598840+00:00,1,0
2023-10-21T04:41:35.369599170+00:00,1,1
2023-10-21T04:41:35.369599240+00:00,1,0
2023-10-21T04:41:35.369648850+00:00,0,0
2023-10-21T04:41:35.370598830+00:00,1,0
2023-10-21T04:41:35.370599160+00:00,1,1
2023-10-21T04:41:35.370599220+00:00,1,0
2023-10-21T04:41:35.370648840+00:00,0,0
2023-10-21T04:41:35.371598830+00:00,1,0
2023-10-21T04:41:35.371599150+00:00,1,1
2023-10-21T04:41:35.371599220+00:00,1,0
2023-10-21T04:41:35.371648840+00:00,0,0
2023-10-21T04:41:35.372598830+00:00,1,0
2023-10-21T04:41:35.372599190+00:00,1,1
2023-10-21T04:41:35.372599260+00:00,1,0
2023-10-21T04:41:35.372648840+00:00,0,0
2023-10-21T04:41:35.373598830+00:00,1,0
2023-10-21T04:41:35.373599160+00:00,1,1
2023-10-21T04:41:35.373599230+00:00,1,0
2023-10-21T04:41:35.373648830+00:00,0,0
2023-10-21T04:41:35.374598820+00:00,1,0
2023-10-21T04:41:35.374599170+00:00,1,1
2023-10-21T04:41:35.374599230+00:00,1,0
2023-10-21T04:41:35.374648830+00:00,0,0
2023-10-21T04:41:35.375598820+00:00,1,0
2023-10-21T04:41:35.375599160+00:00,1,1
2023-10-21T04:41:35.375599220+00:00,1,0
2023-10-21T04:41:35.375648830+00:00,0,0
2023-10-21T04:41:35.376598820+00:00,1,0
2023-10-21T04:41:35.376599140+00:00,1,1
2023-10-21T04:41:35.376599210+00:00,1,0
2023-10-21T04:41:35.376648830+00:00,0,0
2023-10-21T04:41:35.377598810+00:00,1,0
2023-10-21T04:41:35.377599130+00:00,1,1
2023-10-21T04:41:35.377599200+00:00,1,0
2023-10-21T04:41:35.377648820+00:00,0,0
2023-10-21T04:41:35.378598810+00:00,1,0
2023-10-21T04:41:35.378599170+00:00,1,1
2023-10-21T04:41:35.378599240+00:00,1,0
2023-10-21T04:41:35.378648820+00:00,0,0
2023-10-21T04:41:35.379598810+00:00,1,0
2023-10-21T04:41:35.379599150+00:00,1,1
2023-10-21T04:41:35.379599210+00:00,1,0
2023-10-21T04:41:35.379648820+00:00,0,0
2023-10-21T04:41:35.380598800+00:00,1,0
2023-10-21T04:41:35.380599130+00:00,1,1
2023-10-21T04:41:35.380599200+00:00,1,0
2023-10-21T04:41:35.380648810+00:00,0,0
2023-10-21T04:41:35.381598800+00:00,1,0
2023-10-21T04:41:35.381599120+00:00,1,1
2023-10-21T04:41:35.381599190+00:00,1,0
2023-10-21T04:41:35.381648810+00:00,0,0
2023-10-21T04:41:35.382598800+00:00,1,0
2023-10-21T04:41:35.382599160+00:00,1,1
2023-10-21T04:41:35.382599230+00:00,1,0
2023-10-21T04:41:35.382648810+00:00,0,0
2023-10-21T04:41:35.383598800+00:00,1,0
2023-10-21T04:41:35.383599140+00:00,1,1
2023-10-21T04:41:35.383599200+00:00,1,0
2023-10-21T04:41:35.383648800+00:00,0,0
2023-10-21T04:41:35.384598790+00:00,1,0
2023-10-21T04:41:35.384599120+00:00,1,1
2023-10-21T04:41:35.384599190+00:00,1,0
2023-10-21T04:41:35.384648800+00:00,0,0
2023-10-21T04:41:35.385598790+00:00,1,0
2023-10-21T04:41:35.385599110+00:00,1,1
2023-10-21T04:41:35.385599180+00:00,1,0
2023-10-21T04:41:35.385648800+00:00,0,0
2023-10-21T04:41:35.386598790+00:00,1,0
2023-10-21T04:41:35.386599140+00:00,1,1
2023-10-21T04:41:35.386599210+00:00,1,0
2023-10-21T04:41:35.386648790+00:00,0,0
2023-10-21T04:41:35.387598780+00:00,1,0
2023-10-21T04:41:35.387599130+00:00,1,1
2023-10-21T04:41:35.387599190+00:00,1,0
2023-10-21T04:41:35.387648790+00:00,0,0
2023-10-21T04:41:35.388598780+00:00,1,0
2023-10-21T04:41:35.388599120+00:00,1,1
2023-10-21T04:41:35.388599180+00:00,1,0
2023-10-21T04:41:35.388648790+00:00,0,0
2023-10-21T04:41:35.389598780+00:00,1,0
2023-10-21T04:41:35.389599100+00:00,1,1
2023-10-21T04:41:35.389599170+00:00,1,0
2023-10-21T04:41:35.389648790+00:00,0,0
2023-10-21T04:41:35.390598770+00:00,1,0
2023-10-21T04:41:35.390599140+00:00,1,1
2023-10-21T04:41:35.390599210+00:00,1,0
2023-10-21T04:41:35.390648780+00:00,0,0
2023-10-21T04:41:35.391598770+00:00,1,0
2023-10-21T04:41:35.391599130+00:00,1,1
2023-10-21T04:41:35.391599200+00:00,1,0
2023-10-21T04:41:35.391648780+00:00,0,0
2023-10-21T04:41:35.392598770+00:00,1,0
2023-10-21T04:41:35.392599110+00:00,1,1
2023-10-21T04:41:35.392599170+00:00,1,0
2023-10-21T04:41:35.392648780+00:00,0,0
2023-10-21T04:41:35.393598770+00:00,1,0
2023-10-21T04:41:35.393599090+00:00,1,1
2023-10-21T04:41:35.393599160+00:00,1,0
2023-10-21T04:41:35.393648770+00:00,0,0
2023-10-21T04:41:35.394598760+00:00,1,0
2023-10-21T04:41:35.394599080+00:00,1,1
2023-10-21T04:41:35.394599150+00:00,1,0
2023-10-21T04:41:35.394648770+00:00,0,0
2023-10-21T04:41:35.395598760+00:00,1,0
2023-10-21T04:41:35.395599120+00:00,1,1
2023-10-21T04:41:35.395599190+00:00,1,0
2023-10-21T04:41:35.395648770+00:00,0,0
2023-10-21T04:41:35.396598760+00:00,1,0
2023-10-21T04:41:35.396599100+00:00,1,1
2023-10-21T04:41:35.396599160+00:00,1,0
2023-10-21T04:41:35.396648770+00:00,0,0
2023-10-21T04:41:35.397598750+00:00,1,0
2023-10-21T04:41:35.397599080+00:00,1,1
2023-10-21T04:41:35.397599150+00:00,1,0
2023-10-21T04:41:35.397648760+00:00,0,0
2023-10-21T04:41:35.398598750+00:00,1,0
2023-10-21T04:41:35.398599070+00:00,1,1
2023-10-21T04:41:35.398599140+00:00,1,0
2023-10-21T04:41:35.398648760+00:00,0,0
2023-10-21T04:41:35.399598750+00:00,1,0
2023-10-21T04:41:35.399599110+00:00,1,1
2023-10-21T04:41:35.399599180+00:00,1,0
2023-10-21T04:41:35.399648760+00:00,0,0
2023-10-21T04:41:35.400598750+00:00,1,0
2023-10-21T04:41:35.400599090+00:00,1,1
2023-10-21T04:41:35.400599150+00:00,1,0
2023-10-21T04:41:35.400648750+00:00,0,0
2023-10-21T04:41:35.401598740+00:00,1,0
2023-10-21T04:41:35.401599070+00:00,1,1
2023-10-21T04:41:35.401599140+00:00,1,0
2023-10-21T04:41:35.401648750+00:00,0,0
2023-10-21T04:41:35.402598740+00:00,1,0
2023-10-21T04:41:35.402599060+00:00,1,1
2023-10-21T04:41:35.402599130+00:00,1,0
2023-10-21T04:41:35.402648750+00:00,0,0
2023-10-21T04:41:35.403598740+00:00,1,0
2023-10-21T04:41:35.403599090+00:00,1,1
2023-10-21T04:41:35.403599160+00:00,1,0
2023-10-21T04:41:35.403648740+00:00,0,0
2023-10-21T04:41:35.404598730+00:00,1,0
2023-10-21T04:41:35.404599070+00:00,1,1
2023-10-21T04:41:35.404599140+00:00,1,0
2023-10-21T04:41:35.404648740+00:00,0,0
2023-10-21T04:41:35.405598730+00:00,1,0
2023-10-21T04:41:35.405599070+00:00,1,1
2023-10-21T04:41:35.405599130+00:00,1,0
2023-10-21T04:41:35.405648740+00:00,0,0
2023-10-21T04:41:35.406598730+00:00,1,0
2023-10-21T04:41:35.406599050+00:00,1,1
2023-10-21T04:41:35.406599120+00:00,1,0
2023-10-21T04:41:35.406648730+00:00,0,0
2023-10-21T04:41:35.407598720+00:00,1,0
2023-10-21T04:41:35.407599090+00:00,1,1
2023-10-21T04:41:35.407599160+00:00,1,0
2023-10-21T04:41:35.407648730+00:00,0,0
2023-10-21T04:41:35.408598720+00:00,1,0
2023-10-21T04:41:35.408599080+00:00,1,1
2023-10-21T04:41:35.408599150+00:00,1,0
2023-10-21T04:41:35.408648730+00:00,0,0
2023-10-21T04:41:35.409598720+00:00,1,0
2023-10-21T04:41:35.409599060+00:00,1,1
2023-10-21T04:41:35.409599120+00:00,1,0
2023-10-21T04:41:35.409648730+00:00,0,0
2023-10-21T04:41:35.410598710+00:00,1,0
2023-10-21T04:41:35.410599040+00:00,1,1
2023-10-21T04:41:35.410599110+00:00,1,0
2023-10-21T04:41:35.410648720+00:00,0,0
2023-10-21T04:41:35.411598710+00:00,1,0
2023-10-21T04:41:35.411599030+00:00,1,1
2023-10-21T04:41:35.411599100+00:00,1,0
2023-10-21T04:41:35.411648720+00:00,0,0
2023-10-21T04:41:35.412598710+00:00,1,0
2023-10-21T04:41:35.412599070+00:00,1,1
2023-10-21T04:41:35.412599140+00:00,1,0
2023-10-21T04:41:35.412648720+00:00,0,0
2023-10-21T04:41:35.413598710+00:00,1,0
2023-10-21T04:41:35.413599040+00:00,1,1
2023-10-21T04:41:35.413599110+00:00,1,0
2023-10-21T04:41:35.413648710+00:00,0,0
2023-10-21T04:41:35.414598700+00:00,1,0
2023-10-21T04:41:35.414599030+00:00,1,1
2023-10-21T04:41:35.414599100+00:00,1,0
2023-10-21T04:41:35.414648710+00:00,0,0
2023-10-21T04:41:35.415598700+00:00,1,0
2023-10-21T04:41:35.415599020+00:00,1,1
2023-10-21T04:41:35.415599090+00:00,1,0
2023-10-21T04:41:35.415648710+00:00,0,0
2023-10-21T04:41:35.416598700+00:00,1,0
2023-10-21T04:41:35.416599060+00:00,1,1
2023-10-21T04:41:35.416599130+00:00,1,0
2023-10-21T04:41:35.416648710+00:00,0,0
2023-10-21T04:41:35.417598690+00:00,1,0
2023-10-21T04:41:35.417599030+00:00,1,1
2023-10-21T04:41:35.417599100+00:00,1,0
2023-10-21T04:41:35.417648700+00:00,0,0
2023-10-21T04:41:35.418598690+00:00,1,0
2023-10-21T04:41:35.418599010+00:00,1,1
2023-10-21T04:41:35.418599070+00:00,1,0
2023-10-21T04:41:35.418648700+00:00,0,0
2023-10-21T04:41:35.419598690+00:00,1,0
2023-10-21T04:41:35.419599030+00:00,1,1
2023-10-21T04:41:35.419599100+00:00,1,0
2023-10-21T04:41:35.419648700+00:00,0,0
2023-10-21T04:41:35.420598690+00:00,1,0
2023-10-21T04:41:35.420599020+00:00,1,1
2023-10-21T04:41:35.420599090+00:00,1,0
2023-10-21T04:41:35.420648690+00:00,0,0
2023-10-21T04:41:35.421598680+00:00,1,0
2023-10-21T04:41:35.421599000+00:00,1,1
2023-10-21T04:41:35.421599070+00:00,1,0
2023-10-21T04:41:35.421648690+00:00,0,0
2023-10-21T04:41:35.422598680+00:00,1,0
2023-10-21T04:41:35.422599000+00:00,1,1
2023-10-21T04:41:35.422599060+00:00,1,0
2023-10-21T04:41:35.422648690+00:00,0,0
2023-10-21T04:41:35.423598680+00:00,1,0
2023-10-21T04:41:35.423599040+00:00,1,1
2023-10-21T04:41:35.423599100+00:00,1,0
2023-10-21T04:41:35.423648680+00:00,0,0
2023-10-21T04:41:35.424598670+00:00,1,0
2023-10-21T04:41:35.424599010+00:00,1,1
2023-10-21T04:41:35.424599080+00:00,1,0
2023-10-21T04:41:35.424648680+00:00,0,0
2023-10-21T04:41:35.425598670+00:00,1,0
2023-10-21T04:41:35.425599010+00:00,1,1
2023-10-21T04:41:35.425599080+00:00,1,0
2023-10-21T04:41:35.425648680+00:00,0,0
2023-10-21T04:41:35.426598670+00:00,1,0
2023-10-21T04:41:35.426599000+00:00,1,1
2023-10-21T04:41:35.426599070+00:00,1,0
2023-10-21T04:41:35.426648680+00:00,0,0
2023-10-21T04:41:35.427598660+00:00,1,0
2023-10-21T04:41:35.427598990+00:00,1,1
2023-10-21T04:41:35.427599060+00:00,1,0
2023-10-21T04:41:35.427648670+00:00,0,0
2023-10-21T04:41:35.428598660+00:00,1,0
2023-10-21T04:41:35.428598980+00:00,1,1
2023-10-21T04:41:35.428599050+00:00,1,0
2023-10-21T04:41:35.428648670+00:00,0,0
2023-10-21T04:41:35.429598660+00:00,1,0
2023-10-21T04:41:35.429599020+00:00,1,1
2023-10-21T04:41:35.429599090+00:00,1,0
2023-10-21T04:41:35.429648670+00:00,0,0
2023-10-21T04:41:35.430598650+00:00,1,0
2023-10-21T04:41:35.430598990+00:00,1,1
2023-10-21T04:41:35.430599060+00:00,1,0
2023-10-21T04:41:35.430648660+00:00,0,0
2023-10-21T04:41:35.431598650+00:00,1,0
2023-10-21T04:41:35.431598980+00:00,1,1
2023-10-21T04:41:35.431599050+00:00,1,0
2023-10-21T04:41:35.431648660+00:00,0,0
2023-10-21T04:41:35.432598650+00:00,1,0
2023-10-21T04:41:35.432598970+00:00,1,1
2023-10-21T04:41:35.432599040+00:00,1,0
2023-10-21T04:41:35.432648660+00:00,0,0
2023-10-21T04:41:35.433598650+00:00,1,0
2023-10-21T04:41:35.433599010+00:00,1,1
2023-10-21T04:41:35.433599080+00:00,1,0
2023-10-21T04:41:35.433648650+00:00,0,0
2023-10-21T04:41:35.434598640+00:00,1,0
2023-10-21T04:41:35.434598980+00:00,1,1
2023-10-21T04:41:35.434599050+00:00,1,0
2023-10-21T04:41:35.434648650+00:00,0,0
2023-10-21T04:41:35.435598640+00:00,1,0
2023-10-21T04:41:35.435598970+00:00,1,1
2023-10-21T04:41:35.435599040+00:00,1,0
2023-10-21T04:41:35.435648650+00:00,0,0
2023-10-21T04:41:35.436598640+00:00,1,0
2023-10-21T04:41:35.436598960+00:00,1,1
2023-10-21T04:41:35.436599030+00:00,1,0
2023-10-21T04:41:35.436648650+00:00,0,0
2023-10-21T04:41:35.437598630+00:00,1,0
2023-10-21T04:41:35.437598990+00:00,1,1
2023-10-21T04:41:35.437599050+00:00,1,0
2023-10-21T04:41:35.437648640+00:00,0,0
2023-10-21T04:41:35.438598630+00:00,1,0
2023-10-21T04:41:35.438598970+00:00,1,1
2023-10-21T04:41:35.438599040+00:00,1,0
2023-10-21T04:41:35.438648640+00:00,0,0
2023-10-21T04:41:35.439598630+00:00,1,0
2023-10-21T04:41:35.439598960+00:00,1,1
2023-10-21T04:41:35.439599030+00:00,1,0
2023-10-21T04:41:35.439648640+00:00,0,0
2023-10-21T04:41:35.440598630+00:00,1,0
2023-10-21T04:41:35.440598950+00:00,1,1
2023-10-21T04:41:35.440599020+00:00,1,0
2023-10-21T04:41:35.440648630+00:00,0,0
2023-10-21T04:41:35.441598620+00:00,1,0
2023-10-21T04:41:35.441598990+00:00,1,1
