Time [s],Channel 0,Channel 1
2023-10-18T06:33:40.242876000+00:00,1,0
2023-10-18T06:33:40.242909520+00:00,0,0
2023-10-18T06:33:40.243859510+00:00,1,0
2023-10-18T06:33:40.243860980+00:00,1,1
2023-10-18T06:33:40.243861570+00:00,1,0
2023-10-18T06:33:40.243909520+00:00,0,0
2023-10-18T06:33:40.244859510+00:00,1,0
2023-10-18T06:33:40.244860750+00:00,1,1
2023-10-18T06:33:40.244861350+00:00,1,0
2023-10-18T06:33:40.244909520+00:00,0,0
2023-10-18T06:33:40.245859510+00:00,1,0
2023-10-18T06:33:40.245861050+00:00,1,1
2023-10-18T06:33:40.245861650+00:00,1,0
2023-10-18T06:33:40.245909520+00:00,0,0
2023-10-18T06:33:40.246859510+00:00,1,0
2023-10-18T06:33:40.246860830+00:00,1,1
2023-10-18T06:33:40.246861420+00:00,1,0
2023-10-18T06:33:40.246909510+00:00,0,0
2023-10-18T06:33:40.247859500+00:00,1,0
2023-10-18T06:33:40.247861120+00:00,1,1
2023-10-18T06:33:40.247861720+00:00,1,0
2023-10-18T06:33:40.247909510+00:00,0,0
2023-10-18T06:33:40.248859500+00:00,1,0
2023-10-18T06:33:40.248860860+00:00,1,1
2023-10-18T06:33:40.248861450+00:00,1,0
2023-10-18T06:33:40.248909510+00:00,0,0
2023-10-18T06:33:40.249859500+00:00,1,0
2023-10-18T06:33:40.249860600+00:00,1,1
2023-10-18T06:33:40.249861220+00:00,1,0
2023-10-18T06:33:40.249909500+00:00,0,0
2023-10-18T06:33:40.250859490+00:00,1,0
2023-10-18T06:33:40.250860910+00:00,1,1
2023-10-18T06:33:40.250861500+00:00,1,0
2023-10-18T06:33:40.250909500+00:00,0,0
2023-10-18T06:33:40.251859490+00:00,1,0
2023-10-18T06:33:40.251860660+00:00,1,1
2023-10-18T06:33:40.251861290+00:00,1,0
2023-10-18T06:33:40.251909500+00:00,0,0
2023-10-18T06:33:40.252859490+00:00,1,0
2023-10-18T06:33:40.252860990+00:00,1,1
2023-10-18T06:33:40.252861580+00:00,1,0
2023-10-18T06:33:40.252909490+00:00,0,0
2023-10-18T06:33:40.253859480+00:00,1,0
2023-10-18T06:33:40.253860750+00:00,1,1
2023-10-18T06:33:40.253861350+00:00,1,0
2023-10-18T06:33:40.253909490+00:00,0,0
2023-10-18T06:33:40.254859480+00:00,1,0
2023-10-18T06:33:40.254861080+00:00,1,1
2023-10-18T06:33:40.254861670+00:00,1,0
2023-10-18T06:33:40.254909490+00:00,0,0
2023-10-18T06:33:40.255859480+00:00,1,0
2023-10-18T06:33:40.255860820+00:00,1,1
2023-10-18T06:33:40.255861420+00:00,1,0
2023-10-18T06:33:40.255909490+00:00,0,0
2023-10-18T06:33:40.256859470+00:00,1,0
2023-10-18T06:33:40.256860590+00:00,1,1
2023-10-18T06:33:40.256861210+00:00,1,0
2023-10-18T06:33:40.256909480+00:00,0,0
2023-10-18T06:33:40.257859470+00:00,1,0
2023-10-18T06:33:40.257860880+00:00,1,1
2023-10-18T06:33:40.257861480+00:00,1,0
2023-10-18T06:33:40.257909480+00:00,0,0
2023-10-18T06:33:40.258859470+00:00,1,0
2023-10-18T06:33:40.258860600+00:00,1,1
2023-10-18T06:33:40.258861220+00:00,1,0
2023-10-18T06:33:40.258909480+00:00,0,0
2023-10-18T06:33:40.259859470+00:00,1,0
2023-10-18T06:33:40.259860890+00:00,1,1
2023-10-18T06:33:40.259861480+00:00,1,0
2023-10-18T06:33:40.259909470+00:00,0,0
2023-10-18T06:33:40.260859460+00:00,1,0
2023-10-18T06:33:40.260860660+00:00,1,1
2023-10-18T06:33:40.260861280+00:00,1,0
2023-10-18T06:33:40.260909470+00:00,0,0
2023-10-18T06:33:40.261859460+00:00,1,0
2023-10-18T06:33:40.261861000+00:00,1,1
2023-10-18T06:33:40.261861590+00:00,1,0
2023-10-18T06:33:40.261909470+00:00,0,0
2023-10-18T06:33:40.262859460+00:00,1,0
2023-10-18T06:33:40.262860770+00:00,1,1
2023-10-18T06:33:40.262861360+00:00,1,0
2023-10-18T06:33:40.262909470+00:00,0,0
2023-10-18T06:33:40.263859450+00:00,1,0
2023-10-18T06:33:40.263861070+00:00,1,1
2023-10-18T06:33:40.263861660+00:00,1,0
2023-10-18T06:33:40.263909460+00:00,0,0
2023-10-18T06:33:40.264859450+00:00,1,0
2023-10-18T06:33:40.264860820+00:00,1,1
2023-10-18T06:33:40.264861410+00:00,1,0
2023-10-18T06:33:40.264909460+00:00,0,0
2023-10-18T06:33:40.265859450+00:00,1,0
2023-10-18T06:33:40.265860570+00:00,1,1
2023-10-18T06:33:40.265861190+00:00,1,0
2023-10-18T06:33:40.265909460+00:00,0,0
2023-10-18T06:33:40.266859450+00:00,1,0
2023-10-18T06:33:40.266860900+00:00,1,1
2023-10-18T06:33:40.266861500+00:00,1,0
2023-10-18T06:33:40.266909450+00:00,0,0
2023-10-18T06:33:40.267859440+00:00,1,0
2023-10-18T06:33:40.267860680+00:00,1,1
2023-10-18T06:33:40.267861270+00:00,1,0
2023-10-18T06:33:40.267909450+00:00,0,0
2023-10-18T06:33:40.268859440+00:00,1,0
2023-10-18T06:33:40.268860980+00:00,1,1
2023-10-18T06:33:40.268861580+00:00,1,0
2023-10-18T06:33:40.268909450+00:00,0,0
2023-10-18T06:33:40.269859440+00:00,1,0
2023-10-18T06:33:40.269860750+00:00,1,1
2023-10-18T06:33:40.269861350+00:00,1,0
2023-10-18T06:33:40.269909440+00:00,0,0
2023-10-18T06:33:40.270859430+00:00,1,0
2023-10-18T06:33:40.270861040+00:00,1,1
2023-10-18T06:33:40.270861630+00:00,1,0
2023-10-18T06:33:40.270909440+00:00,0,0
2023-10-18T06:33:40.271859430+00:00,1,0
2023-10-18T06:33:40.271860800+00:00,1,1
2023-10-18T06:33:40.271861390+00:00,1,0
2023-10-18T06:33:40.271909440+00:00,0,0
2023-10-18T06:33:40.272859430+00:00,1,0
2023-10-18T06:33:40.272860540+00:00,1,1
2023-10-18T06:33:40.272861160+00:00,1,0
2023-10-18T06:33:40.272909430+00:00,0,0
2023-10-18T06:33:40.273859420+00:00,1,0
2023-10-18T06:33:40.273860840+00:00,1,1
2023-10-18T06:33:40.273861430+00:00,1,0
2023-10-18T06:33:40.273909430+00:00,0,0
2023-10-18T06:33:40.274859420+00:00,1,0
2023-10-18T06:33:40.274860610+00:00,1,1
2023-10-18T06:33:40.274861230+00:00,1,0
2023-10-18T06:33:40.274909430+00:00,0,0
2023-10-18T06:33:40.275859420+00:00,1,0
2023-10-18T06:33:40.275860960+00:00,1,1
2023-10-18T06:33:40.275861550+00:00,1,0
2023-10-18T06:33:40.275909430+00:00,0,0
2023-10-18T06:33:40.276859420+00:00,1,0
2023-10-18T06:33:40.276860740+00:00,1,1
2023-10-18T06:33:40.276861330+00:00,1,0
2023-10-18T06:33:40.276909420+00:00,0,0
2023-10-18T06:33:40.277859410+00:00,1,0
2023-10-18T06:33:40.277860450+00:00,1,1
2023-10-18T06:33:40.277861100+00:00,1,0
2023-10-18T06:33:40.277909420+00:00,0,0
2023-10-18T06:33:40.278859410+00:00,1,0
2023-10-18T06:33:40.278860800+00:00,1,1
2023-10-18T06:33:40.278861390+00:00,1,0
2023-10-18T06:33:40.278909420+00:00,0,0
2023-10-18T06:33:40.279859410+00:00,1,0
2023-10-18T06:33:40.279860530+00:00,1,1
2023-10-18T06:33:40.279861160+00:00,1,0
2023-10-18T06:33:40.279909410+00:00,0,0
2023-10-18T06:33:40.280859400+00:00,1,0
2023-10-18T06:33:40.280860870+00:00,1,1
2023-10-18T06:33:40.280861460+00:00,1,0
2023-10-18T06:33:40.280909410+00:00,0,0
2023-10-18T06:33:40.281859400+00:00,1,0
2023-10-18T06:33:40.281860670+00:00,1,1
2023-10-18T06:33:40.281861260+00:00,1,0
2023-10-18T06:33:40.281909410+00:00,0,0
2023-10-18T06:33:40.282859400+00:00,1,0
2023-10-18T06:33:40.282861000+00:00,1,1
2023-10-18T06:33:40.282861590+00:00,1,0
2023-10-18T06:33:40.282909410+00:00,0,0
2023-10-18T06:33:40.283859390+00:00,1,0
2023-10-18T06:33:40.283860750+00:00,1,1
2023-10-18T06:33:40.283861340+00:00,1,0
2023-10-18T06:33:40.283909400+00:00,0,0
2023-10-18T06:33:40.284859390+00:00,1,0
2023-10-18T06:33:40.284860500+00:00,1,1
2023-10-18T06:33:40.284861120+00:00,1,0
2023-10-18T06:33:40.284909400+00:00,0,0
2023-10-18T06:33:40.285859390+00:00,1,0
2023-10-18T06:33:40.285860810+00:00,1,1
2023-10-18T06:33:40.285861410+00:00,1,0
2023-10-18T06:33:40.285909400+00:00,0,0
2023-10-18T06:33:40.286859390+00:00,1,0
2023-10-18T06:33:40.286860580+00:00,1,1
2023-10-18T06:33:40.286861210+00:00,1,0
2023-10-18T06:33:40.286909390+00:00,0,0
2023-10-18T06:33:40.287859380+00:00,1,0
2023-10-18T06:33:40.287860910+00:00,1,1
2023-10-18T06:33:40.287861510+00:00,1,0
2023-10-18T06:33:40.287909390+00:00,0,0
2023-10-18T06:33:40.288859380+00:00,1,0
2023-10-18T06:33:40.288860680+00:00,1,1
2023-10-18T06:33:40.288861270+00:00,1,0
2023-10-18T06:33:40.288909390+00:00,0,0
2023-10-18T06:33:40.289859380+00:00,1,0
2023-10-18T06:33:40.289860420+00:00,1,1
2023-10-18T06:33:40.289861080+00:00,1,0
2023-10-18T06:33:40.289909380+00:00,0,0
2023-10-18T06:33:40.290859370+00:00,1,0
2023-10-18T06:33:40.290860760+00:00,1,1
2023-10-18T06:33:40.290861350+00:00,1,0
2023-10-18T06:33:40.290909380+00:00,0,0
2023-10-18T06:33:40.291859370+00:00,1,0
2023-10-18T06:33:40.291860510+00:00,1,1
2023-10-18T06:33:40.291861130+00:00,1,0
2023-10-18T06:33:40.291909380+00:00,0,0
2023-10-18T06:33:40.292859370+00:00,1,0
2023-10-18T06:33:40.292860830+00:00,1,1
2023-10-18T06:33:40.292861420+00:00,1,0
2023-10-18T06:33:40.292909380+00:00,0,0
2023-10-18T06:33:40.293859360+00:00,1,0
2023-10-18T06:33:40.293860630+00:00,1,1
2023-10-18T06:33:40.293861220+00:00,1,0
2023-10-18T06:33:40.293909370+00:00,0,0
2023-10-18T06:33:40.294859360+00:00,1,0
2023-10-18T06:33:40.294860960+00:00,1,1
2023-10-18T06:33:40.294861550+00:00,1,0
2023-10-18T06:33:40.294909370+00:00,0,0
2023-10-18T06:33:40.295859360+00:00,1,0
2023-10-18T06:33:40.295860700+00:00,1,1
2023-10-18T06:33:40.295861290+00:00,1,0
2023-10-18T06:33:40.295909370+00:00,0,0
2023-10-18T06:33:40.296859360+00:00,1,0
2023-10-18T06:33:40.296860460+00:00,1,1
2023-10-18T06:33:40.296861090+00:00,1,0
2023-10-18T06:33:40.296909360+00:00,0,0
2023-10-18T06:33:40.297859350+00:00,1,0
2023-10-18T06:33:40.297860770+00:00,1,1
2023-10-18T06:33:40.297861370+00:00,1,0
2023-10-18T06:33:40.297909360+00:00,0,0
2023-10-18T06:33:40.298859350+00:00,1,0
2023-10-18T06:33:40.298860520+00:00,1,1
2023-10-18T06:33:40.298861150+00:00,1,0
2023-10-18T06:33:40.298909360+00:00,0,0
2023-10-18T06:33:40.299859350+00:00,1,0
2023-10-18T06:33:40.299860850+00:00,1,1
2023-10-18T06:33:40.299861450+00:00,1,0
2023-10-18T06:33:40.299909350+00:00,0,0
2023-10-18T06:33:40.300859340+00:00,1,0
2023-10-18T06:33:40.300860650+00:00,1,1
2023-10-18T06:33:40.300861240+00:00,1,0
2023-10-18T06:33:40.300909350+00:00,0,0
2023-10-18T06:33:40.301859340+00:00,1,0
2023-10-18T06:33:40.301860960+00:00,1,1
2023-10-18T06:33:40.301861550+00:00,1,0
2023-10-18T06:33:40.301909350+00:00,0,0
2023-10-18T06:33:40.302859340+00:00,1,0
2023-10-18T06:33:40.302860710+00:00,1,1
2023-10-18T06:33:40.302861310+00:00,1,0
2023-10-18T06:33:40.302909350+00:00,0,0
2023-10-18T06:33:40.303859340+00:00,1,0
2023-10-18T06:33:40.303860470+00:00,1,1
2023-10-18T06:33:40.303861090+00:00,1,0
2023-10-18T06:33:40.303909340+00:00,0,0
2023-10-18T06:33:40.304859330+00:00,1,0
2023-10-18T06:33:40.304860790+00:00,1,1
2023-10-18T06:33:40.304861380+00:00,1,0
2023-10-18T06:33:40.304909340+00:00,0,0
2023-10-18T06:33:40.305859330+00:00,1,0
2023-10-18T06:33:40.305860590+00:00,1,1
2023-10-18T06:33:40.305861180+00:00,1,0
2023-10-18T06:33:40.305909340+00:00,0,0
2023-10-18T06:33:40.306859330+00:00,1,0
2023-10-18T06:33:40.306860900+00:00,1,1
2023-10-18T06:33:40.306861490+00:00,1,0
2023-10-18T06:33:40.306909330+00:00,0,0
2023-10-18T06:33:40.307859320+00:00,1,0
2023-10-18T06:33:40.307860650+00:00,1,1
2023-10-18T06:33:40.307861250+00:00,1,0
2023-10-18T06:33:40.307909330+00:00,0,0
2023-10-18T06:33:40.308859320+00:00,1,0
2023-10-18T06:33:40.308860410+00:00,1,1
2023-10-18T06:33:40.308861030+00:00,1,0
2023-10-18T06:33:40.308909330+00:00,0,0
2023-10-18T06:33:40.309859320+00:00,1,0
2023-10-18T06:33:40.309860700+00:00,1,1
2023-10-18T06:33:40.309861290+00:00,1,0
2023-10-18T06:33:40.309909320+00:00,0,0
2023-10-18T06:33:40.310859310+00:00,1,0
2023-10-18T06:33:40.310860440+00:00,1,1
2023-10-18T06:33:40.310861060+00:00,1,0
2023-10-18T06:33:40.310909320+00:00,0,0
2023-10-18T06:33:40.311859310+00:00,1,0
2023-10-18T06:33:40.311860770+00:00,1,1
2023-10-18T06:33:40.311861370+00:00,1,0
2023-10-18T06:33:40.311909320+00:00,0,0
2023-10-18T06:33:40.312859310+00:00,1,0
2023-10-18T06:33:40.312860550+00:00,1,1
2023-10-18T06:33:40.312861140+00:00,1,0
2023-10-18T06:33:40.312909320+00:00,0,0
2023-10-18T06:33:40.313859310+00:00,1,0
2023-10-18T06:33:40.313860850+00:00,1,1
2023-10-18T06:33:40.313861440+00:00,1,0
2023-10-18T06:33:40.313909310+00:00,0,0
2023-10-18T06:33:40.314859300+00:00,1,0
2023-10-18T06:33:40.314860620+00:00,1,1
2023-10-18T06:33:40.314861210+00:00,1,0
2023-10-18T06:33:40.314909310+00:00,0,0
2023-10-18T06:33:40.315859300+00:00,1,0
2023-10-18T06:33:40.315860340+00:00,1,1
2023-10-18T06:33:40.315860990+00:00,1,0
2023-10-18T06:33:40.315909310+00:00,0,0
2023-10-18T06:33:40.316859300+00:00,1,0
2023-10-18T06:33:40.316860670+00:00,1,1
2023-10-18T06:33:40.316861260+00:00,1,0
2023-10-18T06:33:40.316909300+00:00,0,0
2023-10-18T06:33:40.317859290+00:00,1,0
2023-10-18T06:33:40.317860410+00:00,1,1
2023-10-18T06:33:40.317861030+00:00,1,0
2023-10-18T06:33:40.317909300+00:00,0,0
2023-10-18T06:33:40.318859290+00:00,1,0
2023-10-18T06:33:40.318860710+00:00,1,1
2023-10-18T06:33:40.318861300+00:00,1,0
2023-10-18T06:33:40.318909300+00:00,0,0
2023-10-18T06:33:40.319859290+00:00,1,0
2023-10-18T06:33:40.319860470+00:00,1,1
2023-10-18T06:33:40.319861090+00:00,1,0
2023-10-18T06:33:40.319909290+00:00,0,0
2023-10-18T06:33:40.320859280+00:00,1,0
2023-10-18T06:33:40.320860800+00:00,1,1
2023-10-18T06:33:40.320861390+00:00,1,0
2023-10-18T06:33:40.320909290+00:00,0,0
2023-10-18T06:33:40.321859280+00:00,1,0
2023-10-18T06:33:40.321860560+00:00,1,1
2023-10-18T06:33:40.321861150+00:00,1,0
2023-10-18T06:33:40.321909290+00:00,0,0
2023-10-18T06:33:40.322859280+00:00,1,0
2023-10-18T06:33:40.322860870+00:00,1,1
2023-10-18T06:33:40.322861460+00:00,1,0
2023-10-18T06:33:40.322909290+00:00,0,0
2023-10-18T06:33:40.323859280+00:00,1,0
2023-10-18T06:33:40.323860620+00:00,1,1
2023-10-18T06:33:40.323861210+00:00,1,0
2023-10-18T06:33:40.323909280+00:00,0,0
2023-10-18T06:33:40.324859270+00:00,1,0
2023-10-18T06:33:40.324860350+00:00,1,1
2023-10-18T06:33:40.324860980+00:00,1,0
2023-10-18T06:33:40.324909280+00:00,0,0
2023-10-18T06:33:40.325859270+00:00,1,0
2023-10-18T06:33:40.325860690+00:00,1,1
2023-10-18T06:33:40.325861280+00:00,1,0
2023-10-18T06:33:40.325909280+00:00,0,0
2023-10-18T06:33:40.326859270+00:00,1,0
2023-10-18T06:33:40.326860460+00:00,1,1
2023-10-18T06:33:40.326861080+00:00,1,0
2023-10-18T06:33:40.326909270+00:00,0,0
2023-10-18T06:33:40.327859260+00:00,1,0
2023-10-18T06:33:40.327860800+00:00,1,1
2023-10-18T06:33:40.327861390+00:00,1,0
2023-10-18T06:33:40.327909270+00:00,0,0
2023-10-18T06:33:40.328859260+00:00,1,0
2023-10-18T06:33:40.328860550+00:00,1,1
2023-10-18T06:33:40.328861150+00:00,1,0
2023-10-18T06:33:40.328909270+00:00,0,0
2023-10-18T06:33:40.329859260+00:00,1,0
2023-10-18T06:33:40.329860850+00:00,1,1
2023-10-18T06:33:40.329861440+00:00,1,0
2023-10-18T06:33:40.329909270+00:00,0,0
2023-10-18T06:33:40.330859250+00:00,1,0
2023-10-18T06:33:40.330860590+00:00,1,1
2023-10-18T06:33:40.330861180+00:00,1,0
2023-10-18T06:33:40.330909260+00:00,0,0
2023-10-18T06:33:40.331859250+00:00,1,0
2023-10-18T06:33:40.331860370+00:00,1,1
2023-10-18T06:33:40.331860990+00:00,1,0
2023-10-18T06:33:40.331909260+00:00,0,0
2023-10-18T06:33:40.332859250+00:00,1,0
2023-10-18T06:33:40.332860640+00:00,1,1
2023-10-18T06:33:40.332861230+00:00,1,0
2023-10-18T06:33:40.332909260+00:00,0,0
2023-10-18T06:33:40.333859250+00:00,1,0
2023-10-18T06:33:40.333860360+00:00,1,1
2023-10-18T06:33:40.333860990+00:00,1,0
2023-10-18T06:33:40.333909250+00:00,0,0
2023-10-18T06:33:40.334859240+00:00,1,0
2023-10-18T06:33:40.334860650+00:00,1,1
2023-10-18T06:33:40.334861250+00:00,1,0
2023-10-18T06:33:40.334909250+00:00,0,0
2023-10-18T06:33:40.335859240+00:00,1,0
2023-10-18T06:33:40.335860420+00:00,1,1
2023-10-18T06:33:40.335861050+00:00,1,0
2023-10-18T06:33:40.335909250+00:00,0,0
2023-10-18T06:33:40.336859240+00:00,1,0
2023-10-18T06:33:40.336860770+00:00,1,1
2023-10-18T06:33:40.336861360+00:00,1,0
2023-10-18T06:33:40.336909240+00:00,0,0
2023-10-18T06:33:40.337859230+00:00,1,0
2023-10-18T06:33:40.337860530+00:00,1,1
2023-10-18T06:33:40.337861120+00:00,1,0
2023-10-18T06:33:40.337909240+00:00,0,0
2023-10-18T06:33:40.338859230+00:00,1,0
2023-10-18T06:33:40.338860820+00:00,1,1
2023-10-18T06:33:40.338861420+00:00,1,0
2023-10-18T06:33:40.338909240+00:00,0,0
2023-10-18T06:33:40.339859230+00:00,1,0
2023-10-18T06:33:40.339860570+00:00,1,1
2023-10-18T06:33:40.339861160+00:00,1,0
2023-10-18T06:33:40.339909240+00:00,0,0
2023-10-18T06:33:40.340859220+00:00,1,0
2023-10-18T06:33:40.340860310+00:00,1,1
2023-10-18T06:33:40.340860930+00:00,1,0
2023-10-18T06:33:40.340909230+00:00,0,0
2023-10-18T06:33:40.341859220+00:00,1,0
2023-10-18T06:33:40.341860610+00:00,1,1
2023-10-18T06:33:40.341861200+00:00,1,0
2023-10-18T06:33:40.341909230+00:00,0,0
2023-10-18T06:33:40.342859220+00:00,1,0
2023-10-18T06:33:40.342860350+00:00,1,1
2023-10-18T06:33:40.342860980+00:00,1,0
2023-10-18T06:33:40.342909230+00:00,0,0
2023-10-18T06:33:40.343859220+00:00,1,0
2023-10-18T06:33:40.343860680+00:00,1,1
2023-10-18T06:33:40.343861270+00:00,1,0
2023-10-18T06:33:40.343909220+00:00,0,0
2023-10-18T06:33:40.344859210+00:00,1,0
2023-10-18T06:33:40.344860450+00:00,1,1
2023-10-18T06:33:40.344861050+00:00,1,0
2023-10-18T06:33:40.344909220+00:00,0,0
2023-10-18T06:33:40.345859210+00:00,1,0
2023-10-18T06:33:40.345860750+00:00,1,1
2023-10-18T06:33:40.345861350+00:00,1,0
2023-10-18T06:33:40.345909220+00:00,0,0
2023-10-18T06:33:40.346859210+00:00,1,0
2023-10-18T06:33:40.346860520+00:00,1,1
2023-10-18T06:33:40.346861120+00:00,1,0
2023-10-18T06:33:40.346909210+00:00,0,0
2023-10-18T06:33:40.347859200+00:00,1,0
2023-10-18T06:33:40.347860820+00:00,1,1
2023-10-18T06:33:40.347861420+00:00,1,0
2023-10-18T06:33:40.347909210+00:00,0,0
2023-10-18T06:33:40.348859200+00:00,1,0
2023-10-18T06:33:40.348860590+00:00,1,1
2023-10-18T06:33:40.348861190+00:00,1,0
2023-10-18T06:33:40.348909210+00:00,0,0
2023-10-18T06:33:40.349859200+00:00,1,0
2023-10-18T06:33:40.349860330+00:00,1,1
2023-10-18T06:33:40.349860960+00:00,1,0
2023-10-18T06:33:40.349909210+00:00,0,0
2023-10-18T06:33:40.350859190+00:00,1,0
2023-10-18T06:33:40.350860670+00:00,1,1
2023-10-18T06:33:40.350861260+00:00,1,0
2023-10-18T06:33:40.350909200+00:00,0,0
2023-10-18T06:33:40.351859190+00:00,1,0
2023-10-18T06:33:40.351860460+00:00,1,1
2023-10-18T06:33:40.351861060+00:00,1,0
2023-10-18T06:33:40.351909200+00:00,0,0
2023-10-18T06:33:40.352859190+00:00,1,0
2023-10-18T06:33:40.352860780+00:00,1,1
2023-10-18T06:33:40.352861370+00:00,1,0
2023-10-18T06:33:40.352909200+00:00,0,0
2023-10-18T06:33:40.353859190+00:00,1,0
2023-10-18T06:33:40.353860530+00:00,1,1
2023-10-18T06:33:40.353861120+00:00,1,0
2023-10-18T06:33:40.353909190+00:00,0,0
2023-10-18T06:33:40.354859180+00:00,1,0
2023-10-18T06:33:40.354860300+00:00,1,1
2023-10-18T06:33:40.354860920+00:00,1,0
2023-10-18T06:33:40.354909190+00:00,0,0
2023-10-18T06:33:40.355859180+00:00,1,0
2023-10-18T06:33:40.355860640+00:00,1,1
2023-10-18T06:33:40.355861230+00:00,1,0
2023-10-18T06:33:40.355909190+00:00,0,0
2023-10-18T06:33:40.356859180+00:00,1,0
2023-10-18T06:33:40.356860410+00:00,1,1
2023-10-18T06:33:40.356861000+00:00,1,0
2023-10-18T06:33:40.356909180+00:00,0,0
2023-10-18T06:33:40.357859170+00:00,1,0
2023-10-18T06:33:40.357860720+00:00,1,1
2023-10-18T06:33:40.357861310+00:00,1,0
2023-10-18T06:33:40.357909180+00:00,0,0
2023-10-18T06:33:40.358859170+00:00,1,0
2023-10-18T06:33:40.358860480+00:00,1,1
2023-10-18T06:33:40.358861080+00:00,1,0
2023-10-18T06:33:40.358909180+00:00,0,0
2023-10-18T06:33:40.359859170+00:00,1,0
2023-10-18T06:33:40.359860210+00:00,1,1
2023-10-18T06:33:40.359860860+00:00,1,0
2023-10-18T06:33:40.359909180+00:00,0,0
2023-10-18T06:33:40.360859170+00:00,1,0
2023-10-18T06:33:40.360860540+00:00,1,1
2023-10-18T06:33:40.360861130+00:00,1,0
2023-10-18T06:33:40.360909170+00:00,0,0
2023-10-18T06:33:40.361859160+00:00,1,0
2023-10-18T06:33:40.361860280+00:00,1,1
2023-10-18T06:33:40.361860910+00:00,1,0
2023-10-18T06:33:40.361909170+00:00,0,0
2023-10-18T06:33:40.362859160+00:00,1,0
2023-10-18T06:33:40.362860610+00:00,1,1
2023-10-18T06:33:40.362861210+00:00,1,0
2023-10-18T06:33:40.362909170+00:00,0,0
2023-10-18T06:33:40.363859160+00:00,1,0
2023-10-18T06:33:40.363860330+00:00,1,1
2023-10-18T06:33:40.363860960+00:00,1,0
2023-10-18T06:33:40.363909160+00:00,0,0
2023-10-18T06:33:40.364859150+00:00,1,0
2023-10-18T06:33:40.364860660+00:00,1,1
2023-10-18T06:33:40.364861250+00:00,1,0
2023-10-18T06:33:40.364909160+00:00,0,0
2023-10-18T06:33:40.365859150+00:00,1,0
2023-10-18T06:33:40.365860420+00:00,1,1
2023-10-18T06:33:40.365861020+00:00,1,0
2023-10-18T06:33:40.365909160+00:00,0,0
2023-10-18T06:33:40.366859150+00:00,1,0
2023-10-18T06:33:40.366860740+00:00,1,1
2023-10-18T06:33:40.366861330+00:00,1,0
2023-10-18T06:33:40.366909150+00:00,0,0
2023-10-18T06:33:40.367859140+00:00,1,0
