Time [s],Channel 0,Channel 1
2023-10-18T06:35:32.105355000+00:00,0,0
2023-10-18T06:35:32.106077250+00:00,1,0
2023-10-18T06:35:32.106078860+00:00,1,1
2023-10-18T06:35:32.106079520+00:00,1,0
2023-10-18T06:35:32.106127260+00:00,0,0
2023-10-18T06:35:32.107077250+00:00,1,0
2023-10-18T06:35:32.107078790+00:00,1,1
2023-10-18T06:35:32.107079450+00:00,1,0
2023-10-18T06:35:32.107127260+00:00,0,0
2023-10-18T06:35:32.108077250+00:00,1,0
2023-10-18T06:35:32.108078760+00:00,1,1
2023-10-18T06:35:32.108079420+00:00,1,0
2023-10-18T06:35:32.108127260+00:00,0,0
2023-10-18T06:35:32.109077250+00:00,1,0
2023-10-18T06:35:32.109079340+00:00,1,1
2023-10-18T06:35:32.109079980+00:00,1,0
2023-10-18T06:35:32.109127250+00:00,0,0
2023-10-18T06:35:32.110077240+00:00,1,0
2023-10-18T06:35:32.110079300+00:00,1,1
2023-10-18T06:35:32.110079930+00:00,1,0
2023-10-18T06:35:32.110127250+00:00,0,0
2023-10-18T06:35:32.111077240+00:00,1,0
2023-10-18T06:35:32.111079250+00:00,1,1
2023-10-18T06:35:32.111079890+00:00,1,0
2023-10-18T06:35:32.111127250+00:00,0,0
2023-10-18T06:35:32.112077240+00:00,1,0
2023-10-18T06:35:32.112079180+00:00,1,1
2023-10-18T06:35:32.112079810+00:00,1,0
2023-10-18T06:35:32.112127240+00:00,0,0
2023-10-18T06:35:32.113077230+00:00,1,0
2023-10-18T06:35:32.113079140+00:00,1,1
2023-10-18T06:35:32.113079780+00:00,1,0
2023-10-18T06:35:32.113127240+00:00,0,0
2023-10-18T06:35:32.114077230+00:00,1,0
2023-10-18T06:35:32.114079100+00:00,1,1
2023-10-18T06:35:32.114079740+00:00,1,0
2023-10-18T06:35:32.114127240+00:00,0,0
2023-10-18T06:35:32.115077230+00:00,1,0
2023-10-18T06:35:32.115079090+00:00,1,1
2023-10-18T06:35:32.115079720+00:00,1,0
2023-10-18T06:35:32.115127240+00:00,0,0
2023-10-18T06:35:32.116077220+00:00,1,0
2023-10-18T06:35:32.116079030+00:00,1,1
2023-10-18T06:35:32.116079670+00:00,1,0
2023-10-18T06:35:32.116127230+00:00,0,0
2023-10-18T06:35:32.117077220+00:00,1,0
2023-10-18T06:35:32.117079020+00:00,1,1
2023-10-18T06:35:32.117079650+00:00,1,0
2023-10-18T06:35:32.117127230+00:00,0,0
2023-10-18T06:35:32.118077220+00:00,1,0
2023-10-18T06:35:32.118079020+00:00,1,1
2023-10-18T06:35:32.118079660+00:00,1,0
2023-10-18T06:35:32.118127230+00:00,0,0
2023-10-18T06:35:32.119077220+00:00,1,0
2023-10-18T06:35:32.119079000+00:00,1,1
2023-10-18T06:35:32.119079640+00:00,1,0
2023-10-18T06:35:32.119127220+00:00,0,0
2023-10-18T06:35:32.120077210+00:00,1,0
2023-10-18T06:35:32.120078950+00:00,1,1
2023-10-18T06:35:32.120079590+00:00,1,0
2023-10-18T06:35:32.120127220+00:00,0,0
2023-10-18T06:35:32.121077210+00:00,1,0
2023-10-18T06:35:32.121078900+00:00,1,1
2023-10-18T06:35:32.121079540+00:00,1,0
2023-10-18T06:35:32.121127220+00:00,0,0
2023-10-18T06:35:32.122077210+00:00,1,0
2023-10-18T06:35:32.122078860+00:00,1,1
2023-10-18T06:35:32.122079490+00:00,1,0
2023-10-18T06:35:32.122127210+00:00,0,0
2023-10-18T06:35:32.123077200+00:00,1,0
2023-10-18T06:35:32.123078810+00:00,1,1
2023-10-18T06:35:32.123079470+00:00,1,0
2023-10-18T06:35:32.123127210+00:00,0,0
2023-10-18T06:35:32.124077200+00:00,1,0
2023-10-18T06:35:32.124078750+00:00,1,1
2023-10-18T06:35:32.124079410+00:00,1,0
2023-10-18T06:35:32.124127210+00:00,0,0
2023-10-18T06:35:32.125077200+00:00,1,0
2023-10-18T06:35:32.125078730+00:00,1,1
2023-10-18T06:35:32.125079400+00:00,1,0
2023-10-18T06:35:32.125127210+00:00,0,0
2023-10-18T06:35:32.126077190+00:00,1,0
2023-10-18T06:35:32.126078670+00:00,1,1
2023-10-18T06:35:32.126079360+00:00,1,0
2023-10-18T06:35:32.126127200+00:00,0,0
2023-10-18T06:35:32.127077190+00:00,1,0
2023-10-18T06:35:32.127079290+00:00,1,1
2023-10-18T06:35:32.127079930+00:00,1,0
2023-10-18T06:35:32.127127200+00:00,0,0
2023-10-18T06:35:32.128077190+00:00,1,0
2023-10-18T06:35:32.128079250+00:00,1,1
2023-10-18T06:35:32.128079880+00:00,1,0
2023-10-18T06:35:32.128127200+00:00,0,0
2023-10-18T06:35:32.129077190+00:00,1,0
2023-10-18T06:35:32.129079210+00:00,1,1
2023-10-18T06:35:32.129079840+00:00,1,0
2023-10-18T06:35:32.129127190+00:00,0,0
2023-10-18T06:35:32.130077180+00:00,1,0
2023-10-18T06:35:32.130079190+00:00,1,1
2023-10-18T06:35:32.130079820+00:00,1,0
2023-10-18T06:35:32.130127190+00:00,0,0
2023-10-18T06:35:32.131077180+00:00,1,0
2023-10-18T06:35:32.131079120+00:00,1,1
2023-10-18T06:35:32.131079750+00:00,1,0
2023-10-18T06:35:32.131127190+00:00,0,0
2023-10-18T06:35:32.132077180+00:00,1,0
2023-10-18T06:35:32.132079080+00:00,1,1
2023-10-18T06:35:32.132079710+00:00,1,0
2023-10-18T06:35:32.132127180+00:00,0,0
2023-10-18T06:35:32.133077170+00:00,1,0
2023-10-18T06:35:32.133079030+00:00,1,1
2023-10-18T06:35:32.133079660+00:00,1,0
2023-10-18T06:35:32.133127180+00:00,0,0
2023-10-18T06:35:32.134077170+00:00,1,0
2023-10-18T06:35:32.134078980+00:00,1,1
2023-10-18T06:35:32.134079620+00:00,1,0
2023-10-18T06:35:32.134127180+00:00,0,0
2023-10-18T06:35:32.135077170+00:00,1,0
2023-10-18T06:35:32.135078970+00:00,1,1
2023-10-18T06:35:32.135079600+00:00,1,0
2023-10-18T06:35:32.135127180+00:00,0,0
2023-10-18T06:35:32.136077160+00:00,1,0
2023-10-18T06:35:32.136078900+00:00,1,1
2023-10-18T06:35:32.136079530+00:00,1,0
2023-10-18T06:35:32.136127170+00:00,0,0
2023-10-18T06:35:32.137077160+00:00,1,0
2023-10-18T06:35:32.137078850+00:00,1,1
2023-10-18T06:35:32.137079480+00:00,1,0
2023-10-18T06:35:32.137127170+00:00,0,0
2023-10-18T06:35:32.138077160+00:00,1,0
2023-10-18T06:35:32.138078820+00:00,1,1
2023-10-18T06:35:32.138079450+00:00,1,0
2023-10-18T06:35:32.138127170+00:00,0,0
2023-10-18T06:35:32.139077160+00:00,1,0
2023-10-18T06:35:32.139078750+00:00,1,1
2023-10-18T06:35:32.139079410+00:00,1,0
2023-10-18T06:35:32.139127160+00:00,0,0
2023-10-18T06:35:32.140077150+00:00,1,0
2023-10-18T06:35:32.140078680+00:00,1,1
2023-10-18T06:35:32.140079350+00:00,1,0
2023-10-18T06:35:32.140127160+00:00,0,0
2023-10-18T06:35:32.141077150+00:00,1,0
2023-10-18T06:35:32.141078610+00:00,1,1
2023-10-18T06:35:32.141079300+00:00,1,0
2023-10-18T06:35:32.141127160+00:00,0,0
2023-10-18T06:35:32.142077150+00:00,1,0
2023-10-18T06:35:32.142079250+00:00,1,1
2023-10-18T06:35:32.142079880+00:00,1,0
2023-10-18T06:35:32.142127150+00:00,0,0
2023-10-18T06:35:32.143077140+00:00,1,0
2023-10-18T06:35:32.143079230+00:00,1,1
2023-10-18T06:35:32.143079860+00:00,1,0
2023-10-18T06:35:32.143127150+00:00,0,0
2023-10-18T06:35:32.144077140+00:00,1,0
2023-10-18T06:35:32.144079160+00:00,1,1
2023-10-18T06:35:32.144079800+00:00,1,0
2023-10-18T06:35:32.144127150+00:00,0,0
2023-10-18T06:35:32.145077140+00:00,1,0
2023-10-18T06:35:32.145079120+00:00,1,1
2023-10-18T06:35:32.145079760+00:00,1,0
2023-10-18T06:35:32.145127150+00:00,0,0
2023-10-18T06:35:32.146077140+00:00,1,0
2023-10-18T06:35:32.146079090+00:00,1,1
2023-10-18T06:35:32.146079720+00:00,1,0
2023-10-18T06:35:32.146127140+00:00,0,0
2023-10-18T06:35:32.147077130+00:00,1,0
2023-10-18T06:35:32.147079040+00:00,1,1
2023-10-18T06:35:32.147079680+00:00,1,0
2023-10-18T06:35:32.147127140+00:00,0,0
2023-10-18T06:35:32.148077130+00:00,1,0
2023-10-18T06:35:32.148079000+00:00,1,1
2023-10-18T06:35:32.148079630+00:00,1,0
2023-10-18T06:35:32.148127140+00:00,0,0
2023-10-18T06:35:32.149077130+00:00,1,0
2023-10-18T06:35:32.149078930+00:00,1,1
2023-10-18T06:35:32.149079570+00:00,1,0
2023-10-18T06:35:32.149127130+00:00,0,0
2023-10-18T06:35:32.150077120+00:00,1,0
2023-10-18T06:35:32.150078910+00:00,1,1
2023-10-18T06:35:32.150079550+00:00,1,0
2023-10-18T06:35:32.150127130+00:00,0,0
2023-10-18T06:35:32.151077120+00:00,1,0
2023-10-18T06:35:32.151078870+00:00,1,1
2023-10-18T06:35:32.151079500+00:00,1,0
2023-10-18T06:35:32.151127130+00:00,0,0
2023-10-18T06:35:32.152077120+00:00,1,0
2023-10-18T06:35:32.152078800+00:00,1,1
2023-10-18T06:35:32.152079440+00:00,1,0
2023-10-18T06:35:32.152127120+00:00,0,0
2023-10-18T06:35:32.153077110+00:00,1,0
2023-10-18T06:35:32.153078710+00:00,1,1
2023-10-18T06:35:32.153079380+00:00,1,0
2023-10-18T06:35:32.153127120+00:00,0,0
2023-10-18T06:35:32.154077110+00:00,1,0
2023-10-18T06:35:32.154078660+00:00,1,1
2023-10-18T06:35:32.154079320+00:00,1,0
2023-10-18T06:35:32.154127120+00:00,0,0
2023-10-18T06:35:32.155077110+00:00,1,0
2023-10-18T06:35:32.155078610+00:00,1,1
2023-10-18T06:35:32.155079280+00:00,1,0
2023-10-18T06:35:32.155127120+00:00,0,0
2023-10-18T06:35:32.156077110+00:00,1,0
2023-10-18T06:35:32.156079200+00:00,1,1
2023-10-18T06:35:32.156079840+00:00,1,0
2023-10-18T06:35:32.156127110+00:00,0,0
2023-10-18T06:35:32.157077100+00:00,1,0
2023-10-18T06:35:32.157079170+00:00,1,1
2023-10-18T06:35:32.157079800+00:00,1,0
2023-10-18T06:35:32.157127110+00:00,0,0
2023-10-18T06:35:32.158077100+00:00,1,0
2023-10-18T06:35:32.158079120+00:00,1,1
2023-10-18T06:35:32.158079760+00:00,1,0
2023-10-18T06:35:32.158127110+00:00,0,0
2023-10-18T06:35:32.159077100+00:00,1,0
2023-10-18T06:35:32.159079100+00:00,1,1
2023-10-18T06:35:32.159079730+00:00,1,0
2023-10-18T06:35:32.159127100+00:00,0,0
2023-10-18T06:35:32.160077090+00:00,1,0
2023-10-18T06:35:32.160079050+00:00,1,1
2023-10-18T06:35:32.160079690+00:00,1,0
2023-10-18T06:35:32.160127100+00:00,0,0
2023-10-18T06:35:32.161077090+00:00,1,0
2023-10-18T06:35:32.161079010+00:00,1,1
2023-10-18T06:35:32.161079640+00:00,1,0
2023-10-18T06:35:32.161127100+00:00,0,0
2023-10-18T06:35:32.162077090+00:00,1,0
2023-10-18T06:35:32.162078970+00:00,1,1
2023-10-18T06:35:32.162079600+00:00,1,0
2023-10-18T06:35:32.162127090+00:00,0,0
2023-10-18T06:35:32.163077080+00:00,1,0
2023-10-18T06:35:32.163078920+00:00,1,1
2023-10-18T06:35:32.163079560+00:00,1,0
2023-10-18T06:35:32.163127090+00:00,0,0
2023-10-18T06:35:32.164077080+00:00,1,0
2023-10-18T06:35:32.164078890+00:00,1,1
2023-10-18T06:35:32.164079520+00:00,1,0
2023-10-18T06:35:32.164127090+00:00,0,0
2023-10-18T06:35:32.165077080+00:00,1,0
2023-10-18T06:35:32.165078870+00:00,1,1
2023-10-18T06:35:32.165079500+00:00,1,0
2023-10-18T06:35:32.165127090+00:00,0,0
2023-10-18T06:35:32.166077080+00:00,1,0
2023-10-18T06:35:32.166078820+00:00,1,1
2023-10-18T06:35:32.166079460+00:00,1,0
2023-10-18T06:35:32.166127080+00:00,0,0
2023-10-18T06:35:32.167077070+00:00,1,0
2023-10-18T06:35:32.167078760+00:00,1,1
2023-10-18T06:35:32.167079390+00:00,1,0
2023-10-18T06:35:32.167127080+00:00,0,0
2023-10-18T06:35:32.168077070+00:00,1,0
2023-10-18T06:35:32.168078730+00:00,1,1
2023-10-18T06:35:32.168079360+00:00,1,0
2023-10-18T06:35:32.168127080+00:00,0,0
2023-10-18T06:35:32.169077070+00:00,1,0
2023-10-18T06:35:32.169078660+00:00,1,1
2023-10-18T06:35:32.169079330+00:00,1,0
2023-10-18T06:35:32.169127070+00:00,0,0
2023-10-18T06:35:32.170077060+00:00,1,0
2023-10-18T06:35:32.170078610+00:00,1,1
2023-10-18T06:35:32.170079270+00:00,1,0
2023-10-18T06:35:32.170127070+00:00,0,0
2023-10-18T06:35:32.171077060+00:00,1,0
2023-10-18T06:35:32.171078580+00:00,1,1
2023-10-18T06:35:32.171079250+00:00,1,0
2023-10-18T06:35:32.171127070+00:00,0,0
2023-10-18T06:35:32.172077060+00:00,1,0
2023-10-18T06:35:32.172078520+00:00,1,1
2023-10-18T06:35:32.172079210+00:00,1,0
2023-10-18T06:35:32.172127060+00:00,0,0
2023-10-18T06:35:32.173077050+00:00,1,0
2023-10-18T06:35:32.173079150+00:00,1,1
2023-10-18T06:35:32.173079780+00:00,1,0
2023-10-18T06:35:32.173127060+00:00,0,0
2023-10-18T06:35:32.174077050+00:00,1,0
2023-10-18T06:35:32.174079100+00:00,1,1
2023-10-18T06:35:32.174079740+00:00,1,0
2023-10-18T06:35:32.174127060+00:00,0,0
2023-10-18T06:35:32.175077050+00:00,1,0
2023-10-18T06:35:32.175079060+00:00,1,1
2023-10-18T06:35:32.175079700+00:00,1,0
2023-10-18T06:35:32.175127060+00:00,0,0
2023-10-18T06:35:32.176077050+00:00,1,0
2023-10-18T06:35:32.176079000+00:00,1,1
2023-10-18T06:35:32.176079630+00:00,1,0
2023-10-18T06:35:32.176127050+00:00,0,0
2023-10-18T06:35:32.177077040+00:00,1,0
2023-10-18T06:35:32.177078950+00:00,1,1
2023-10-18T06:35:32.177079590+00:00,1,0
2023-10-18T06:35:32.177127050+00:00,0,0
2023-10-18T06:35:32.178077040+00:00,1,0
2023-10-18T06:35:32.178078910+00:00,1,1
2023-10-18T06:35:32.178079550+00:00,1,0
2023-10-18T06:35:32.178127050+00:00,0,0
2023-10-18T06:35:32.179077040+00:00,1,0
2023-10-18T06:35:32.179078880+00:00,1,1
2023-10-18T06:35:32.179079520+00:00,1,0
2023-10-18T06:35:32.179127040+00:00,0,0
2023-10-18T06:35:32.180077030+00:00,1,0
2023-10-18T06:35:32.180078820+00:00,1,1
2023-10-18T06:35:32.180079450+00:00,1,0
2023-10-18T06:35:32.180127040+00:00,0,0
2023-10-18T06:35:32.181077030+00:00,1,0
2023-10-18T06:35:32.181078770+00:00,1,1
2023-10-18T06:35:32.181079400+00:00,1,0
2023-10-18T06:35:32.181127040+00:00,0,0
2023-10-18T06:35:32.182077030+00:00,1,0
2023-10-18T06:35:32.182078710+00:00,1,1
2023-10-18T06:35:32.182079350+00:00,1,0
2023-10-18T06:35:32.182127030+00:00,0,0
2023-10-18T06:35:32.183077020+00:00,1,0
2023-10-18T06:35:32.183078640+00:00,1,1
2023-10-18T06:35:32.183079300+00:00,1,0
2023-10-18T06:35:32.183127030+00:00,0,0
2023-10-18T06:35:32.184077020+00:00,1,0
2023-10-18T06:35:32.184078610+00:00,1,1
2023-10-18T06:35:32.184079280+00:00,1,0
2023-10-18T06:35:32.184127030+00:00,0,0
2023-10-18T06:35:32.185077020+00:00,1,0
2023-10-18T06:35:32.185078570+00:00,1,1
2023-10-18T06:35:32.185079240+00:00,1,0
2023-10-18T06:35:32.185127030+00:00,0,0
2023-10-18T06:35:32.186077020+00:00,1,0
2023-10-18T06:35:32.186078550+00:00,1,1
2023-10-18T06:35:32.186079210+00:00,1,0
2023-10-18T06:35:32.186127020+00:00,0,0
2023-10-18T06:35:32.187077010+00:00,1,0
2023-10-18T06:35:32.187078480+00:00,1,1
2023-10-18T06:35:32.187079170+00:00,1,0
2023-10-18T06:35:32.187127020+00:00,0,0
2023-10-18T06:35:32.188077010+00:00,1,0
2023-10-18T06:35:32.188079100+00:00,1,1
2023-10-18T06:35:32.188079740+00:00,1,0
2023-10-18T06:35:32.188127020+00:00,0,0
2023-10-18T06:35:32.189077010+00:00,1,0
2023-10-18T06:35:32.189079030+00:00,1,1
2023-10-18T06:35:32.189079670+00:00,1,0
2023-10-18T06:35:32.189127010+00:00,0,0
2023-10-18T06:35:32.190077000+00:00,1,0
2023-10-18T06:35:32.190078990+00:00,1,1
2023-10-18T06:35:32.190079630+00:00,1,0
2023-10-18T06:35:32.190127010+00:00,0,0
2023-10-18T06:35:32.191077000+00:00,1,0
2023-10-18T06:35:32.191078950+00:00,1,1
2023-10-18T06:35:32.191079590+00:00,1,0
2023-10-18T06:35:32.191127010+00:00,0,0
2023-10-18T06:35:32.192077000+00:00,1,0
2023-10-18T06:35:32.192078910+00:00,1,1
2023-10-18T06:35:32.192079540+00:00,1,0
2023-10-18T06:35:32.192127010+00:00,0,0
2023-10-18T06:35:32.193076990+00:00,1,0
2023-10-18T06:35:32.193078850+00:00,1,1
2023-10-18T06:35:32.193079480+00:00,1,0
2023-10-18T06:35:32.193127000+00:00,0,0
2023-10-18T06:35:32.194076990+00:00,1,0
2023-10-18T06:35:32.194078810+00:00,1,1
2023-10-18T06:35:32.194079440+00:00,1,0
2023-10-18T06:35:32.194127000+00:00,0,0
2023-10-18T06:35:32.195076990+00:00,1,0
2023-10-18T06:35:32.195078770+00:00,1,1
2023-10-18T06:35:32.195079410+00:00,1,0
2023-10-18T06:35:32.195127000+00:00,0,0
2023-10-18T06:35:32.196076990+00:00,1,0
2023-10-18T06:35:32.196078780+00:00,1,1
2023-10-18T06:35:32.196079420+00:00,1,0
2023-10-18T06:35:32.196126990+00:00,0,0
2023-10-18T06:35:32.197076980+00:00,1,0
2023-10-18T06:35:32.197078720+00:00,1,1
2023-10-18T06:35:32.197079360+00:00,1,0
2023-10-18T06:35:32.197126990+00:00,0,0
2023-10-18T06:35:32.198076980+00:00,1,0
2023-10-18T06:35:32.198078670+00:00,1,1
2023-10-18T06:35:32.198079310+00:00,1,0
2023-10-18T06:35:32.198126990+00:00,0,0
2023-10-18T06:35:32.199076980+00:00,1,0
2023-10-18T06:35:32.199078630+00:00,1,1
2023-10-18T06:35:32.199079260+00:00,1,0
2023-10-18T06:35:32.199126980+00:00,0,0
2023-10-18T06:35:32.200076970+00:00,1,0
2023-10-18T06:35:32.200078570+00:00,1,1
2023-10-18T06:35:32.200079240+00:00,1,0
2023-10-18T06:35:32.200126980+00:00,0,0
2023-10-18T06:35:32.201076970+00:00,1,0
2023-10-18T06:35:32.201078520+00:00,1,1
2023-10-18T06:35:32.201079180+00:00,1,0
2023-10-18T06:35:32.201126980+00:00,0,0
2023-10-18T06:35:32.202076970+00:00,1,0
2023-10-18T06:35:32.202078500+00:00,1,1
2023-10-18T06:35:32.202079170+00:00,1,0
2023-10-18T06:35:32.202126980+00:00,0,0
2023-10-18T06:35:32.203076970+00:00,1,0
2023-10-18T06:35:32.203079070+00:00,1,1
2023-10-18T06:35:32.203079710+00:00,1,0
2023-10-18T06:35:32.203126970+00:00,0,0
2023-10-18T06:35:32.204076960+00:00,1,0
2023-10-18T06:35:32.204079040+00:00,1,1
2023-10-18T06:35:32.204079670+00:00,1,0
2023-10-18T06:35:32.204126970+00:00,0,0
2023-10-18T06:35:32.205076960+00:00,1,0
2023-10-18T06:35:32.205078990+00:00,1,1
2023-10-18T06:35:32.205079620+00:00,1,0
2023-10-18T06:35:32.205126970+00:00,0,0
2023-10-18T06:35:32.206076960+00:00,1,0
2023-10-18T06:35:32.206078940+00:00,1,1
2023-10-18T06:35:32.206079580+00:00,1,0
2023-10-18T06:35:32.206126960+00:00,0,0
2023-10-18T06:35:32.207076950+00:00,1,0
2023-10-18T06:35:32.207078890+00:00,1,1
2023-10-18T06:35:32.207079530+00:00,1,0
2023-10-18T06:35:32.207126960+00:00,0,0
2023-10-18T06:35:32.208076950+00:00,1,0
2023-10-18T06:35:32.208078840+00:00,1,1
2023-10-18T06:35:32.208079470+00:00,1,0
2023-10-18T06:35:32.208126960+00:00,0,0
2023-10-18T06:35:32.209076950+00:00,1,0
2023-10-18T06:35:32.209078800+00:00,1,1
2023-10-18T06:35:32.209079440+00:00,1,0
2023-10-18T06:35:32.209126950+00:00,0,0
2023-10-18T06:35:32.210076940+00:00,1,0
2023-10-18T06:35:32.210078780+00:00,1,1
2023-10-18T06:35:32.210079420+00:00,1,0
2023-10-18T06:35:32.210126950+00:00,0,0
2023-10-18T06:35:32.211076940+00:00,1,0
2023-10-18T06:35:32.211078750+00:00,1,1
2023-10-18T06:35:32.211079380+00:00,1,0
2023-10-18T06:35:32.211126950+00:00,0,0
2023-10-18T06:35:32.212076940+00:00,1,0
2023-10-18T06:35:32.212078720+00:00,1,1
2023-10-18T06:35:32.212079360+00:00,1,0
2023-10-18T06:35:32.212126950+00:00,0,0
2023-10-18T06:35:32.213076930+00:00,1,0
2023-10-18T06:35:32.213078680+00:00,1,1
2023-10-18T06:35:32.213079320+00:00,1,0
2023-10-18T06:35:32.213126940+00:00,0,0
2023-10-18T06:35:32.214076930+00:00,1,0
2023-10-18T06:35:32.214078620+00:00,1,1
2023-10-18T06:35:32.214079250+00:00,1,0
2023-10-18T06:35:32.214126940+00:00,0,0
2023-10-18T06:35:32.215076930+00:00,1,0
2023-10-18T06:35:32.215078590+00:00,1,1
2023-10-18T06:35:32.215079220+00:00,1,0
2023-10-18T06:35:32.215126940+00:00,0,0
2023-10-18T06:35:32.216076930+00:00,1,0
2023-10-18T06:35:32.216078520+00:00,1,1
2023-10-18T06:35:32.216079180+00:00,1,0
2023-10-18T06:35:32.216126930+00:00,0,0
2023-10-18T06:35:32.217076920+00:00,1,0
2023-10-18T06:35:32.217078480+00:00,1,1
2023-10-18T06:35:32.217079140+00:00,1,0
2023-10-18T06:35:32.217126930+00:00,0,0
2023-10-18T06:35:32.218076920+00:00,1,0
2023-10-18T06:35:32.218078450+00:00,1,1
2023-10-18T06:35:32.218079120+00:00,1,0
2023-10-18T06:35:32.218126930+00:00,0,0
2023-10-18T06:35:32.219076920+00:00,1,0
2023-10-18T06:35:32.219078380+00:00,1,1
2023-10-18T06:35:32.219079070+00:00,1,0
2023-10-18T06:35:32.219126920+00:00,0,0
2023-10-18T06:35:32.220076910+00:00,1,0
2023-10-18T06:35:32.220079020+00:00,1,1
2023-10-18T06:35:32.220079660+00:00,1,0
2023-10-18T06:35:32.220126920+00:00,0,0
2023-10-18T06:35:32.221076910+00:00,1,0
2023-10-18T06:35:32.221078990+00:00,1,1
2023-10-18T06:35:32.221079620+00:00,1,0
2023-10-18T06:35:32.221126920+00:00,0,0
2023-10-18T06:35:32.222076910+00:00,1,0
2023-10-18T06:35:32.222078930+00:00,1,1
2023-10-18T06:35:32.222079570+00:00,1,0
2023-10-18T06:35:32.222126920+00:00,0,0
2023-10-18T06:35:32.223076910+00:00,1,0
2023-10-18T06:35:32.223078840+00:00,1,1
2023-10-18T06:35:32.223079480+00:00,1,0
2023-10-18T06:35:32.223126910+00:00,0,0
2023-10-18T06:35:32.224076900+00:00,1,0
2023-10-18T06:35:32.224078820+00:00,1,1
2023-10-18T06:35:32.224079460+00:00,1,0
2023-10-18T06:35:32.224126910+00:00,0,0
2023-10-18T06:35:32.225076900+00:00,1,0
2023-10-18T06:35:32.225078770+00:00,1,1
2023-10-18T06:35:32.225079410+00:00,1,0
2023-10-18T06:35:32.225126910+00:00,0,0
2023-10-18T06:35:32.226076900+00:00,1,0
2023-10-18T06:35:32.226078740+00:00,1,1
2023-10-18T06:35:32.226079370+00:00,1,0
2023-10-18T06:35:32.226126900+00:00,0,0
2023-10-18T06:35:32.227076890+00:00,1,0
2023-10-18T06:35:32.227078680+00:00,1,1
2023-10-18T06:35:32.227079310+00:00,1,0
2023-10-18T06:35:32.227126900+00:00,0,0
2023-10-18T06:35:32.228076890+00:00,1,0
2023-10-18T06:35:32.228078640+00:00,1,1
2023-10-18T06:35:32.228079270+00:00,1,0
2023-10-18T06:35:32.228126900+00:00,0,0
2023-10-18T06:35:32.229076890+00:00,1,0
2023-10-18T06:35:32.229078570+00:00,1,1
2023-10-18T06:35:32.229079210+00:00,1,0
2023-10-18T06:35:32.229126890+00:00,0,0
2023-10-18T06:35:32.230076880+00:00,1,0
2023-10-18T06:35:32.230078540+00:00,1,1
