Time [s],Channel 0,Channel 1
2023-11-22T10:55:43.594086220+00:00,0,0
2023-11-22T10:55:43.677345830+00:00,1,0
2023-11-22T10:55:43.677395850+00:00,0,0
2023-11-22T10:55:43.744328630+00:00,0,1
2023-11-22T10:55:43.744329460+00:00,0,0
2023-11-22T10:55:43.877345120+00:00,1,0
2023-11-22T10:55:43.877395140+00:00,0,0
2023-11-22T10:55:43.947039070+00:00,0,1
2023-11-22T10:55:43.947039900+00:00,0,0
2023-11-22T10:55:44.077344410+00:00,1,0
2023-11-22T10:55:44.077394430+00:00,0,0
2023-11-22T10:55:44.147041300+00:00,0,1
2023-11-22T10:55:44.147042120+00:00,0,0
2023-11-22T10:55:44.277343700+00:00,1,0
2023-11-22T10:55:44.277393720+00:00,0,0
2023-11-22T10:55:44.348397270+00:00,0,1
2023-11-22T10:55:44.348398090+00:00,0,0
2023-11-22T10:55:44.477342990+00:00,1,0
2023-11-22T10:55:44.477393010+00:00,0,0
2023-11-22T10:55:44.545677530+00:00,0,1
2023-11-22T10:55:44.545678350+00:00,0,0
2023-11-22T10:55:44.677342270+00:00,1,0
2023-11-22T10:55:44.677392300+00:00,0,0
2023-11-22T10:55:44.747015230+00:00,0,1
2023-11-22T10:55:44.747016060+00:00,0,0
2023-11-22T10:55:44.877341560+00:00,1,0
2023-11-22T10:55:44.877391590+00:00,0,0
2023-11-22T10:55:44.948426700+00:00,0,1
2023-11-22T10:55:44.948427530+00:00,0,0
2023-11-22T10:55:45.077340850+00:00,1,0
2023-11-22T10:55:45.077390870+00:00,0,0
2023-11-22T10:55:45.144282300+00:00,0,1
2023-11-22T10:55:45.144283120+00:00,0,0
2023-11-22T10:55:45.277340140+00:00,1,0
2023-11-22T10:55:45.277390160+00:00,0,0
2023-11-22T10:55:45.344308270+00:00,0,1
2023-11-22T10:55:45.344309090+00:00,0,0
2023-11-22T10:55:45.477339430+00:00,1,0
2023-11-22T10:55:45.477389450+00:00,0,0
2023-11-22T10:55:45.548425640+00:00,0,1
2023-11-22T10:55:45.548426460+00:00,0,0
2023-11-22T10:55:45.677338720+00:00,1,0
2023-11-22T10:55:45.677388740+00:00,0,0
2023-11-22T10:55:45.745677460+00:00,0,1
2023-11-22T10:55:45.745678290+00:00,0,0
2023-11-22T10:55:45.877338010+00:00,1,0
2023-11-22T10:55:45.877388030+00:00,0,0
2023-11-22T10:55:45.947039650+00:00,0,1
2023-11-22T10:55:45.947040470+00:00,0,0
2023-11-22T10:55:46.077337300+00:00,1,0
2023-11-22T10:55:46.077387320+00:00,0,0
2023-11-22T10:55:46.148417080+00:00,0,1
2023-11-22T10:55:46.148417900+00:00,0,0
2023-11-22T10:55:46.277336580+00:00,1,0
2023-11-22T10:55:46.277386610+00:00,0,0
2023-11-22T10:55:46.342929730+00:00,0,1
2023-11-22T10:55:46.342930550+00:00,0,0
2023-11-22T10:55:46.477335870+00:00,1,0
2023-11-22T10:55:46.477385890+00:00,0,0
2023-11-22T10:55:46.547028580+00:00,0,1
2023-11-22T10:55:46.547029400+00:00,0,0
2023-11-22T10:55:46.677335160+00:00,1,0
2023-11-22T10:55:46.677385180+00:00,0,0
2023-11-22T10:55:46.748405500+00:00,0,1
2023-11-22T10:55:46.748406320+00:00,0,0
2023-11-22T10:55:46.877334450+00:00,1,0
2023-11-22T10:55:46.877384470+00:00,0,0
2023-11-22T10:55:46.944319860+00:00,0,1
2023-11-22T10:55:46.944320680+00:00,0,0
2023-11-22T10:55:47.077333740+00:00,1,0
2023-11-22T10:55:47.077383760+00:00,0,0
2023-11-22T10:55:47.145657040+00:00,0,1
2023-11-22T10:55:47.145657860+00:00,0,0
2023-11-22T10:55:47.277333030+00:00,1,0
2023-11-22T10:55:47.277383050+00:00,0,0
2023-11-22T10:55:47.349814720+00:00,0,1
2023-11-22T10:55:47.349815540+00:00,0,0
2023-11-22T10:55:47.477332310+00:00,1,0
2023-11-22T10:55:47.477382330+00:00,0,0
2023-11-22T10:55:47.547062010+00:00,0,1
2023-11-22T10:55:47.547062830+00:00,0,0
2023-11-22T10:55:47.677331600+00:00,1,0
2023-11-22T10:55:47.677381620+00:00,0,0
2023-11-22T10:55:47.742930300+00:00,0,1
2023-11-22T10:55:47.742931130+00:00,0,0
2023-11-22T10:55:47.877330890+00:00,1,0
2023-11-22T10:55:47.877380910+00:00,0,0
2023-11-22T10:55:47.952211330+00:00,0,1
2023-11-22T10:55:47.952212160+00:00,0,0
2023-11-22T10:55:48.077330180+00:00,1,0
2023-11-22T10:55:48.077380200+00:00,0,0
2023-11-22T10:55:48.151152090+00:00,0,1
2023-11-22T10:55:48.151152910+00:00,0,0
2023-11-22T10:55:48.277329470+00:00,1,0
2023-11-22T10:55:48.277379490+00:00,0,0
2023-11-22T10:55:48.345662700+00:00,0,1
2023-11-22T10:55:48.345663530+00:00,0,0
2023-11-22T10:55:48.477328750+00:00,1,0
2023-11-22T10:55:48.477378770+00:00,0,0
2023-11-22T10:55:48.542932480+00:00,0,1
2023-11-22T10:55:48.542933300+00:00,0,0
2023-11-22T10:55:48.677328040+00:00,1,0
2023-11-22T10:55:48.677378060+00:00,0,0
2023-11-22T10:55:48.747039660+00:00,0,1
2023-11-22T10:55:48.747040480+00:00,0,0
2023-11-22T10:55:48.877327330+00:00,1,0
2023-11-22T10:55:48.877377350+00:00,0,0
2023-11-22T10:55:48.945688610+00:00,0,1
2023-11-22T10:55:48.945689430+00:00,0,0
2023-11-22T10:55:49.077326610+00:00,1,0
2023-11-22T10:55:49.077376640+00:00,0,0
2023-11-22T10:55:49.144273160+00:00,0,1
2023-11-22T10:55:49.144273980+00:00,0,0
2023-11-22T10:55:49.277325900+00:00,1,0
2023-11-22T10:55:49.277375920+00:00,0,0
2023-11-22T10:55:49.344297880+00:00,0,1
2023-11-22T10:55:49.344298700+00:00,0,0
2023-11-22T10:55:49.477325190+00:00,1,0
2023-11-22T10:55:49.477375210+00:00,0,0
2023-11-22T10:55:49.541517460+00:00,0,1
2023-11-22T10:55:49.541518280+00:00,0,0
2023-11-22T10:55:49.677324480+00:00,1,0
2023-11-22T10:55:49.677374500+00:00,0,0
2023-11-22T10:55:49.750793970+00:00,0,1
2023-11-22T10:55:49.750794790+00:00,0,0
2023-11-22T10:55:49.877323760+00:00,1,0
2023-11-22T10:55:49.877373790+00:00,0,0
2023-11-22T10:55:49.941528670+00:00,0,1
2023-11-22T10:55:49.941529500+00:00,0,0
2023-11-22T10:55:50.077323050+00:00,1,0
2023-11-22T10:55:50.077373070+00:00,0,0
2023-11-22T10:55:50.144285580+00:00,0,1
2023-11-22T10:55:50.144286410+00:00,0,0
2023-11-22T10:55:50.277322340+00:00,1,0
2023-11-22T10:55:50.277372360+00:00,0,0
2023-11-22T10:55:50.344278510+00:00,0,1
2023-11-22T10:55:50.344279330+00:00,0,0
2023-11-22T10:55:50.477321630+00:00,1,0
2023-11-22T10:55:50.477371650+00:00,0,0
2023-11-22T10:55:50.549780230+00:00,0,1
2023-11-22T10:55:50.549781050+00:00,0,0
2023-11-22T10:55:50.677320910+00:00,1,0
2023-11-22T10:55:50.677370930+00:00,0,0
2023-11-22T10:55:50.744267990+00:00,0,1
2023-11-22T10:55:50.744268810+00:00,0,0
2023-11-22T10:55:50.877320200+00:00,1,0
2023-11-22T10:55:50.877370220+00:00,0,0
2023-11-22T10:55:50.945627190+00:00,0,1
2023-11-22T10:55:50.945628020+00:00,0,0
2023-11-22T10:55:51.077319490+00:00,1,0
2023-11-22T10:55:51.077369510+00:00,0,0
2023-11-22T10:55:51.145648890+00:00,0,1
2023-11-22T10:55:51.145649720+00:00,0,0
2023-11-22T10:55:51.277318770+00:00,1,0
2023-11-22T10:55:51.277368800+00:00,0,0
2023-11-22T10:55:51.347007360+00:00,0,1
2023-11-22T10:55:51.347008180+00:00,0,0
2023-11-22T10:55:51.477318060+00:00,1,0
2023-11-22T10:55:51.477368080+00:00,0,0
2023-11-22T10:55:51.548388780+00:00,0,1
2023-11-22T10:55:51.548389600+00:00,0,0
2023-11-22T10:55:51.677317350+00:00,1,0
2023-11-22T10:55:51.677367370+00:00,0,0
2023-11-22T10:55:51.747039070+00:00,0,1
2023-11-22T10:55:51.747039890+00:00,0,0
2023-11-22T10:55:51.877316630+00:00,1,0
2023-11-22T10:55:51.877366650+00:00,0,0
2023-11-22T10:55:51.942914120+00:00,0,1
2023-11-22T10:55:51.942914940+00:00,0,0
2023-11-22T10:55:52.077315920+00:00,1,0
2023-11-22T10:55:52.077365940+00:00,0,0
2023-11-22T10:55:52.144297100+00:00,0,1
2023-11-22T10:55:52.144297920+00:00,0,0
2023-11-22T10:55:52.277315200+00:00,1,0
2023-11-22T10:55:52.277365230+00:00,0,0
2023-11-22T10:55:52.345614790+00:00,0,1
2023-11-22T10:55:52.345615610+00:00,0,0
2023-11-22T10:55:52.477314490+00:00,1,0
2023-11-22T10:55:52.477364510+00:00,0,0
2023-11-22T10:55:52.548402740+00:00,0,1
2023-11-22T10:55:52.548403560+00:00,0,0
2023-11-22T10:55:52.677313780+00:00,1,0
2023-11-22T10:55:52.677363800+00:00,0,0
2023-11-22T10:55:52.748376940+00:00,0,1
2023-11-22T10:55:52.748377770+00:00,0,0
2023-11-22T10:55:52.877313060+00:00,1,0
2023-11-22T10:55:52.877363080+00:00,0,0
2023-11-22T10:55:52.942887770+00:00,0,1
2023-11-22T10:55:52.942888590+00:00,0,0
2023-11-22T10:55:53.077312350+00:00,1,0
2023-11-22T10:55:53.077362370+00:00,0,0
2023-11-22T10:55:53.145645240+00:00,0,1
2023-11-22T10:55:53.145646060+00:00,0,0
2023-11-22T10:55:53.277311630+00:00,1,0
2023-11-22T10:55:53.277361660+00:00,0,0
2023-11-22T10:55:53.344301500+00:00,0,1
2023-11-22T10:55:53.344302330+00:00,0,0
2023-11-22T10:55:53.477310920+00:00,1,0
2023-11-22T10:55:53.477360940+00:00,0,0
2023-11-22T10:55:53.547058380+00:00,0,1
2023-11-22T10:55:53.547059200+00:00,0,0
2023-11-22T10:55:53.677310210+00:00,1,0
2023-11-22T10:55:53.677360230+00:00,0,0
2023-11-22T10:55:53.747024880+00:00,0,1
2023-11-22T10:55:53.747025710+00:00,0,0
2023-11-22T10:55:53.877309490+00:00,1,0
2023-11-22T10:55:53.877359510+00:00,0,0
2023-11-22T10:55:53.945616400+00:00,0,1
2023-11-22T10:55:53.945617220+00:00,0,0
2023-11-22T10:55:54.077308780+00:00,1,0
2023-11-22T10:55:54.077358800+00:00,0,0
2023-11-22T10:55:54.144268350+00:00,0,1
2023-11-22T10:55:54.144269180+00:00,0,0
2023-11-22T10:55:54.277308060+00:00,1,0
2023-11-22T10:55:54.277358090+00:00,0,0
2023-11-22T10:55:54.348423280+00:00,0,1
2023-11-22T10:55:54.348424100+00:00,0,0
2023-11-22T10:55:54.477307350+00:00,1,0
2023-11-22T10:55:54.477357370+00:00,0,0
2023-11-22T10:55:54.549759460+00:00,0,1
2023-11-22T10:55:54.549760280+00:00,0,0
2023-11-22T10:55:54.677306630+00:00,1,0
2023-11-22T10:55:54.677356650+00:00,0,0
2023-11-22T10:55:54.744264060+00:00,0,1
2023-11-22T10:55:54.744264890+00:00,0,0
2023-11-22T10:55:54.877305920+00:00,1,0
2023-11-22T10:55:54.877355940+00:00,0,0
2023-11-22T10:55:54.946979740+00:00,0,1
2023-11-22T10:55:54.946980570+00:00,0,0
2023-11-22T10:55:55.077305200+00:00,1,0
2023-11-22T10:55:55.077355230+00:00,0,0
2023-11-22T10:55:55.147019480+00:00,0,1
2023-11-22T10:55:55.147020300+00:00,0,0
2023-11-22T10:55:55.277304490+00:00,1,0
2023-11-22T10:55:55.277354510+00:00,0,0
2023-11-22T10:55:55.353856790+00:00,0,1
2023-11-22T10:55:55.353857610+00:00,0,0
2023-11-22T10:55:55.477303770+00:00,1,0
2023-11-22T10:55:55.477353790+00:00,0,0
2023-11-22T10:55:55.548370910+00:00,0,1
2023-11-22T10:55:55.548371730+00:00,0,0
2023-11-22T10:55:55.677303060+00:00,1,0
2023-11-22T10:55:55.677353080+00:00,0,0
2023-11-22T10:55:55.745623440+00:00,0,1
2023-11-22T10:55:55.745624260+00:00,0,0
2023-11-22T10:55:55.877302340+00:00,1,0
2023-11-22T10:55:55.877352360+00:00,0,0
2023-11-22T10:55:55.945633900+00:00,0,1
2023-11-22T10:55:55.945634720+00:00,0,0
2023-11-22T10:55:56.077301630+00:00,1,0
2023-11-22T10:55:56.077351650+00:00,0,0
2023-11-22T10:55:56.148441320+00:00,0,1
2023-11-22T10:55:56.148442140+00:00,0,0
2023-11-22T10:55:56.277300910+00:00,1,0
2023-11-22T10:55:56.277350940+00:00,0,0
2023-11-22T10:55:56.344232650+00:00,0,1
2023-11-22T10:55:56.344233480+00:00,0,0
2023-11-22T10:55:56.477300200+00:00,1,0
2023-11-22T10:55:56.477350220+00:00,0,0
2023-11-22T10:55:56.548360790+00:00,0,1
2023-11-22T10:55:56.548361620+00:00,0,0
2023-11-22T10:55:56.677299480+00:00,1,0
2023-11-22T10:55:56.677349500+00:00,0,0
2023-11-22T10:55:56.751130960+00:00,0,1
2023-11-22T10:55:56.751131780+00:00,0,0
2023-11-22T10:55:56.877298770+00:00,1,0
2023-11-22T10:55:56.877348790+00:00,0,0
2023-11-22T10:55:56.944283340+00:00,0,1
2023-11-22T10:55:56.944284170+00:00,0,0
2023-11-22T10:55:57.077298050+00:00,1,0
2023-11-22T10:55:57.077348070+00:00,0,0
2023-11-22T10:55:57.144309520+00:00,0,1
2023-11-22T10:55:57.144310350+00:00,0,0
2023-11-22T10:55:57.277297340+00:00,1,0
2023-11-22T10:55:57.277347360+00:00,0,0
2023-11-22T10:55:57.348382930+00:00,0,1
2023-11-22T10:55:57.348383760+00:00,0,0
2023-11-22T10:55:57.477296620+00:00,1,0
2023-11-22T10:55:57.477346640+00:00,0,0
2023-11-22T10:55:57.549726140+00:00,0,1
2023-11-22T10:55:57.549726960+00:00,0,0
2023-11-22T10:55:57.677295910+00:00,1,0
2023-11-22T10:55:57.677345930+00:00,0,0
2023-11-22T10:55:57.745655930+00:00,0,1
2023-11-22T10:55:57.745656750+00:00,0,0
2023-11-22T10:55:57.877295190+00:00,1,0
2023-11-22T10:55:57.877345210+00:00,0,0
2023-11-22T10:55:57.947019400+00:00,0,1
2023-11-22T10:55:57.947020220+00:00,0,0
2023-11-22T10:55:58.077294470+00:00,1,0
2023-11-22T10:55:58.077344490+00:00,0,0
2023-11-22T10:55:58.145615140+00:00,0,1
2023-11-22T10:55:58.145615960+00:00,0,0
2023-11-22T10:55:58.277293760+00:00,1,0
2023-11-22T10:55:58.277343780+00:00,0,0
2023-11-22T10:55:58.344261140+00:00,0,1
2023-11-22T10:55:58.344261960+00:00,0,0
2023-11-22T10:55:58.477293040+00:00,1,0
2023-11-22T10:55:58.477343060+00:00,0,0
2023-11-22T10:55:58.547006600+00:00,0,1
2023-11-22T10:55:58.547007420+00:00,0,0
2023-11-22T10:55:58.677292330+00:00,1,0
2023-11-22T10:55:58.677342350+00:00,0,0
2023-11-22T10:55:58.741477150+00:00,0,1
2023-11-22T10:55:58.741477980+00:00,0,0
2023-11-22T10:55:58.877291610+00:00,1,0
2023-11-22T10:55:58.877341630+00:00,0,0
2023-11-22T10:55:58.944263360+00:00,0,1
2023-11-22T10:55:58.944264190+00:00,0,0
2023-11-22T10:55:59.077290890+00:00,1,0
2023-11-22T10:55:59.077340920+00:00,0,0
2023-11-22T10:55:59.144241080+00:00,0,1
2023-11-22T10:55:59.144241900+00:00,0,0
2023-11-22T10:55:59.277290180+00:00,1,0
2023-11-22T10:55:59.277340200+00:00,0,0
2023-11-22T10:55:59.349735880+00:00,0,1
2023-11-22T10:55:59.349736700+00:00,0,0
2023-11-22T10:55:59.477289460+00:00,1,0
2023-11-22T10:55:59.477339480+00:00,0,0
2023-11-22T10:55:59.545626250+00:00,0,1
2023-11-22T10:55:59.545627070+00:00,0,0
2023-11-22T10:55:59.677288740+00:00,1,0
2023-11-22T10:55:59.677338770+00:00,0,0
2023-11-22T10:55:59.751141840+00:00,0,1
2023-11-22T10:55:59.751142660+00:00,0,0
2023-11-22T10:55:59.877288030+00:00,1,0
2023-11-22T10:55:59.877338050+00:00,0,0
2023-11-22T10:55:59.949735570+00:00,0,1
2023-11-22T10:55:59.949736390+00:00,0,0
2023-11-22T10:56:00.077287310+00:00,1,0
2023-11-22T10:56:00.077337330+00:00,0,0
2023-11-22T10:56:00.146996640+00:00,0,1
2023-11-22T10:56:00.146997470+00:00,0,0
2023-11-22T10:56:00.277286590+00:00,1,0
2023-11-22T10:56:00.277336620+00:00,0,0
2023-11-22T10:56:00.352495220+00:00,0,1
2023-11-22T10:56:00.352496040+00:00,0,0
2023-11-22T10:56:00.477285880+00:00,1,0
2023-11-22T10:56:00.477335900+00:00,0,0
2023-11-22T10:56:00.547004580+00:00,0,1
2023-11-22T10:56:00.547005400+00:00,0,0
2023-11-22T10:56:00.677285160+00:00,1,0
2023-11-22T10:56:00.677335180+00:00,0,0
2023-11-22T10:56:00.749751260+00:00,0,1
2023-11-22T10:56:00.749752080+00:00,0,0
2023-11-22T10:56:00.877284440+00:00,1,0
2023-11-22T10:56:00.877334470+00:00,0,0
2023-11-22T10:56:00.948390520+00:00,0,1
2023-11-22T10:56:00.948391350+00:00,0,0
2023-11-22T10:56:01.077283730+00:00,1,0
2023-11-22T10:56:01.077333750+00:00,0,0
2023-11-22T10:56:01.146617760+00:00,0,1
2023-11-22T10:56:01.146618580+00:00,0,0
2023-11-22T10:56:01.277283010+00:00,1,0
2023-11-22T10:56:01.277333030+00:00,0,0
2023-11-22T10:56:01.346990510+00:00,0,1
2023-11-22T10:56:01.346991330+00:00,0,0
2023-11-22T10:56:01.477282290+00:00,1,0
2023-11-22T10:56:01.477332320+00:00,0,0
2023-11-22T10:56:01.549703120+00:00,0,1
2023-11-22T10:56:01.549703940+00:00,0,0
2023-11-22T10:56:01.677281580+00:00,1,0
2023-11-22T10:56:01.677331600+00:00,0,0
2023-11-22T10:56:01.745669500+00:00,0,1
2023-11-22T10:56:01.745670320+00:00,0,0
2023-11-22T10:56:01.877280860+00:00,1,0
2023-11-22T10:56:01.877330880+00:00,0,0
2023-11-22T10:56:01.945579160+00:00,0,1
2023-11-22T10:56:01.945579990+00:00,0,0
2023-11-22T10:56:02.077280140+00:00,1,0
2023-11-22T10:56:02.077330160+00:00,0,0
2023-11-22T10:56:02.153863490+00:00,0,1
2023-11-22T10:56:02.153864310+00:00,0,0
2023-11-22T10:56:02.277279430+00:00,1,0
2023-11-22T10:56:02.277329450+00:00,0,0
2023-11-22T10:56:02.348392550+00:00,0,1
2023-11-22T10:56:02.348393370+00:00,0,0
2023-11-22T10:56:02.477278710+00:00,1,0
2023-11-22T10:56:02.477328730+00:00,0,0
2023-11-22T10:56:02.545602400+00:00,0,1
2023-11-22T10:56:02.545603220+00:00,0,0
2023-11-22T10:56:02.677277990+00:00,1,0
2023-11-22T10:56:02.677328010+00:00,0,0
2023-11-22T10:56:02.742851400+00:00,0,1
2023-11-22T10:56:02.742852220+00:00,0,0
2023-11-22T10:56:02.877277270+00:00,1,0
2023-11-22T10:56:02.877327290+00:00,0,0
2023-11-22T10:56:02.946992520+00:00,0,1
2023-11-22T10:56:02.946993340+00:00,0,0
2023-11-22T10:56:03.077276560+00:00,1,0
2023-11-22T10:56:03.077326580+00:00,0,0
2023-11-22T10:56:03.142846270+00:00,0,1
2023-11-22T10:56:03.142847100+00:00,0,0
2023-11-22T10:56:03.277275840+00:00,1,0
2023-11-22T10:56:03.277325860+00:00,0,0
2023-11-22T10:56:03.348382200+00:00,0,1
2023-11-22T10:56:03.348383030+00:00,0,0
2023-11-22T10:56:03.477275120+00:00,1,0
2023-11-22T10:56:03.477325140+00:00,0,0
2023-11-22T10:56:03.543950060+00:00,0,1
2023-11-22T10:56:03.543950880+00:00,0,0
2023-11-22T10:56:03.677274410+00:00,1,0
2023-11-22T10:56:03.677324430+00:00,0,0
2023-11-22T10:56:03.746994710+00:00,0,1
2023-11-22T10:56:03.746995530+00:00,0,0
2023-11-22T10:56:03.877273690+00:00,1,0
2023-11-22T10:56:03.877323710+00:00,0,0
2023-11-22T10:56:03.945597690+00:00,0,1
2023-11-22T10:56:03.945598510+00:00,0,0
2023-11-22T10:56:04.077272970+00:00,1,0
2023-11-22T10:56:04.077322990+00:00,0,0
2023-11-22T10:56:04.148390340+00:00,0,1
2023-11-22T10:56:04.148391160+00:00,0,0
2023-11-22T10:56:04.277272250+00:00,1,0
2023-11-22T10:56:04.277322280+00:00,0,0
2023-11-22T10:56:04.345585120+00:00,0,1
2023-11-22T10:56:04.345585950+00:00,0,0
2023-11-22T10:56:04.477271540+00:00,1,0
2023-11-22T10:56:04.477321560+00:00,0,0
2023-11-22T10:56:04.547003340+00:00,0,1
2023-11-22T10:56:04.547004160+00:00,0,0
2023-11-22T10:56:04.677270820+00:00,1,0
2023-11-22T10:56:04.677320840+00:00,0,0
2023-11-22T10:56:04.744238890+00:00,0,1
2023-11-22T10:56:04.744239710+00:00,0,0
2023-11-22T10:56:04.877270100+00:00,1,0
2023-11-22T10:56:04.877320120+00:00,0,0
2023-11-22T10:56:04.945627830+00:00,0,1
2023-11-22T10:56:04.945628650+00:00,0,0
2023-11-22T10:56:05.077269380+00:00,1,0
2023-11-22T10:56:05.077319410+00:00,0,0
2023-11-22T10:56:05.140099430+00:00,0,1
2023-11-22T10:56:05.140100250+00:00,0,0
2023-11-22T10:56:05.277268670+00:00,1,0
2023-11-22T10:56:05.277318690+00:00,0,0
2023-11-22T10:56:05.342836610+00:00,0,1
2023-11-22T10:56:05.342837430+00:00,0,0
2023-11-22T10:56:05.477267950+00:00,1,0
2023-11-22T10:56:05.477317970+00:00,0,0
2023-11-22T10:56:05.544209800+00:00,0,1
2023-11-22T10:56:05.544210620+00:00,0,0
2023-11-22T10:56:05.677267230+00:00,1,0
2023-11-22T10:56:05.677317250+00:00,0,0
2023-11-22T10:56:05.749712870+00:00,0,1
2023-11-22T10:56:05.749713700+00:00,0,0
2023-11-22T10:56:05.877266510+00:00,1,0
2023-11-22T10:56:05.877316530+00:00,0,0
2023-11-22T10:56:05.944215520+00:00,0,1
2023-11-22T10:56:05.944216340+00:00,0,0
2023-11-22T10:56:06.077265790+00:00,1,0
2023-11-22T10:56:06.077315820+00:00,0,0
2023-11-22T10:56:06.146975180+00:00,0,1
2023-11-22T10:56:06.146976000+00:00,0,0
2023-11-22T10:56:06.277265080+00:00,1,0
2023-11-22T10:56:06.277315100+00:00,0,0
2023-11-22T10:56:06.346980640+00:00,0,1
2023-11-22T10:56:06.346981460+00:00,0,0
2023-11-22T10:56:06.477264360+00:00,1,0
2023-11-22T10:56:06.477314380+00:00,0,0
2023-11-22T10:56:06.545580390+00:00,0,1
2023-11-22T10:56:06.545581210+00:00,0,0
2023-11-22T10:56:06.677263640+00:00,1,0
2023-11-22T10:56:06.677313660+00:00,0,0
2023-11-22T10:56:06.752477660+00:00,0,1
2023-11-22T10:56:06.752478480+00:00,0,0
2023-11-22T10:56:06.877262920+00:00,1,0
2023-11-22T10:56:06.877312940+00:00,0,0
2023-11-22T10:56:06.946958570+00:00,0,1
2023-11-22T10:56:06.946959390+00:00,0,0
2023-11-22T10:56:07.077262210+00:00,1,0
2023-11-22T10:56:07.077312230+00:00,0,0
2023-11-22T10:56:07.145606520+00:00,0,1
2023-11-22T10:56:07.145607350+00:00,0,0
2023-11-22T10:56:07.277261490+00:00,1,0
2023-11-22T10:56:07.277311510+00:00,0,0
2023-11-22T10:56:07.346945470+00:00,0,1
2023-11-22T10:56:07.346946300+00:00,0,0
2023-11-22T10:56:07.477260770+00:00,1,0
2023-11-22T10:56:07.477310790+00:00,0,0
2023-11-22T10:56:07.548350420+00:00,0,1
2023-11-22T10:56:07.548351240+00:00,0,0
2023-11-22T10:56:07.677260050+00:00,1,0
2023-11-22T10:56:07.677310070+00:00,0,0
2023-11-22T10:56:07.748356920+00:00,0,1
2023-11-22T10:56:07.748357750+00:00,0,0
2023-11-22T10:56:07.877259330+00:00,1,0
2023-11-22T10:56:07.877309350+00:00,0,0
2023-11-22T10:56:07.948367360+00:00,0,1
2023-11-22T10:56:07.948368180+00:00,0,0
2023-11-22T10:56:08.077258610+00:00,1,0
2023-11-22T10:56:08.077308640+00:00,0,0
2023-11-22T10:56:08.149732360+00:00,0,1
2023-11-22T10:56:08.149733180+00:00,0,0
2023-11-22T10:56:08.277257890+00:00,1,0
2023-11-22T10:56:08.277307920+00:00,0,0
2023-11-22T10:56:08.345584130+00:00,0,1
2023-11-22T10:56:08.345584950+00:00,0,0
2023-11-22T10:56:08.477257180+00:00,1,0
2023-11-22T10:56:08.477307200+00:00,0,0
