Time [s],Channel 0,Channel 1
2023-11-22T10:48:12.609840000+00:00,0,0
2023-11-22T10:48:12.648773500+00:00,1,0
2023-11-22T10:48:12.648823530+00:00,0,0
2023-11-22T10:48:12.650280980+00:00,0,1
2023-11-22T10:48:12.650284670+00:00,0,0
2023-11-22T10:48:12.698773330+00:00,1,0
2023-11-22T10:48:12.698823350+00:00,0,0
2023-11-22T10:48:12.700280860+00:00,0,1
2023-11-22T10:48:12.700284550+00:00,0,0
2023-11-22T10:48:12.748773150+00:00,1,0
2023-11-22T10:48:12.748823170+00:00,0,0
2023-11-22T10:48:12.750280530+00:00,0,1
2023-11-22T10:48:12.750284220+00:00,0,0
2023-11-22T10:48:12.798772970+00:00,1,0
2023-11-22T10:48:12.798822990+00:00,0,0
2023-11-22T10:48:12.800283690+00:00,0,1
2023-11-22T10:48:12.800287380+00:00,0,0
2023-11-22T10:48:12.848772790+00:00,1,0
2023-11-22T10:48:12.848822820+00:00,0,0
2023-11-22T10:48:12.850283860+00:00,0,1
2023-11-22T10:48:12.850287550+00:00,0,0
2023-11-22T10:48:12.898772620+00:00,1,0
2023-11-22T10:48:12.898822640+00:00,0,0
2023-11-22T10:48:12.900280310+00:00,0,1
2023-11-22T10:48:12.900284000+00:00,0,0
2023-11-22T10:48:12.948772440+00:00,1,0
2023-11-22T10:48:12.948822460+00:00,0,0
2023-11-22T10:48:12.950283470+00:00,0,1
2023-11-22T10:48:12.950287170+00:00,0,0
2023-11-22T10:48:12.998772260+00:00,1,0
2023-11-22T10:48:12.998822280+00:00,0,0
2023-11-22T10:48:13.000283350+00:00,0,1
2023-11-22T10:48:13.000287040+00:00,0,0
2023-11-22T10:48:13.048772090+00:00,1,0
2023-11-22T10:48:13.048822110+00:00,0,0
2023-11-22T10:48:13.050279800+00:00,0,1
2023-11-22T10:48:13.050283500+00:00,0,0
2023-11-22T10:48:13.098771910+00:00,1,0
2023-11-22T10:48:13.098821930+00:00,0,0
2023-11-22T10:48:13.100279470+00:00,0,1
2023-11-22T10:48:13.100283160+00:00,0,0
2023-11-22T10:48:13.148771730+00:00,1,0
2023-11-22T10:48:13.148821750+00:00,0,0
2023-11-22T10:48:13.150279120+00:00,0,1
2023-11-22T10:48:13.150282820+00:00,0,0
2023-11-22T10:48:13.198771550+00:00,1,0
2023-11-22T10:48:13.198821580+00:00,0,0
2023-11-22T10:48:13.200279060+00:00,0,1
2023-11-22T10:48:13.200282750+00:00,0,0
2023-11-22T10:48:13.248771370+00:00,1,0
2023-11-22T10:48:13.248821400+00:00,0,0
2023-11-22T10:48:13.250278940+00:00,0,1
2023-11-22T10:48:13.250282630+00:00,0,0
2023-11-22T10:48:13.298771200+00:00,1,0
2023-11-22T10:48:13.298821220+00:00,0,0
2023-11-22T10:48:13.300278890+00:00,0,1
2023-11-22T10:48:13.300282580+00:00,0,0
2023-11-22T10:48:13.348771020+00:00,1,0
2023-11-22T10:48:13.348821040+00:00,0,0
2023-11-22T10:48:13.350278550+00:00,0,1
2023-11-22T10:48:13.350282240+00:00,0,0
2023-11-22T10:48:13.398770840+00:00,1,0
2023-11-22T10:48:13.398820870+00:00,0,0
2023-11-22T10:48:13.400281930+00:00,0,1
2023-11-22T10:48:13.400285620+00:00,0,0
2023-11-22T10:48:13.448770670+00:00,1,0
2023-11-22T10:48:13.448820690+00:00,0,0
2023-11-22T10:48:13.450281590+00:00,0,1
2023-11-22T10:48:13.450285280+00:00,0,0
2023-11-22T10:48:13.498770490+00:00,1,0
2023-11-22T10:48:13.498820510+00:00,0,0
2023-11-22T10:48:13.500281770+00:00,0,1
2023-11-22T10:48:13.500285460+00:00,0,0
2023-11-22T10:48:13.548770310+00:00,1,0
2023-11-22T10:48:13.548820340+00:00,0,0
2023-11-22T10:48:13.550281930+00:00,0,1
2023-11-22T10:48:13.550285630+00:00,0,0
2023-11-22T10:48:13.598770130+00:00,1,0
2023-11-22T10:48:13.598820160+00:00,0,0
2023-11-22T10:48:13.600277100+00:00,0,1
2023-11-22T10:48:13.600280790+00:00,0,0
2023-11-22T10:48:13.648769960+00:00,1,0
2023-11-22T10:48:13.648819980+00:00,0,0
2023-11-22T10:48:13.650281040+00:00,0,1
2023-11-22T10:48:13.650284730+00:00,0,0
2023-11-22T10:48:13.698769780+00:00,1,0
2023-11-22T10:48:13.698819800+00:00,0,0
2023-11-22T10:48:13.700277490+00:00,0,1
2023-11-22T10:48:13.700281180+00:00,0,0
2023-11-22T10:48:13.748769600+00:00,1,0
2023-11-22T10:48:13.748819620+00:00,0,0
2023-11-22T10:48:13.750276870+00:00,0,1
2023-11-22T10:48:13.750280560+00:00,0,0
2023-11-22T10:48:13.798769430+00:00,1,0
2023-11-22T10:48:13.798819450+00:00,0,0
2023-11-22T10:48:13.800280760+00:00,0,1
2023-11-22T10:48:13.800284450+00:00,0,0
2023-11-22T10:48:13.848769250+00:00,1,0
2023-11-22T10:48:13.848819270+00:00,0,0
2023-11-22T10:48:13.850280710+00:00,0,1
2023-11-22T10:48:13.850284410+00:00,0,0
2023-11-22T10:48:13.898769070+00:00,1,0
2023-11-22T10:48:13.898819090+00:00,0,0
2023-11-22T10:48:13.900280090+00:00,0,1
2023-11-22T10:48:13.900283790+00:00,0,0
2023-11-22T10:48:13.948768890+00:00,1,0
2023-11-22T10:48:13.948818920+00:00,0,0
2023-11-22T10:48:13.950276030+00:00,0,1
2023-11-22T10:48:13.950279720+00:00,0,0
2023-11-22T10:48:13.998768720+00:00,1,0
2023-11-22T10:48:13.998818740+00:00,0,0
2023-11-22T10:48:14.000279980+00:00,0,1
2023-11-22T10:48:14.000283680+00:00,0,0
2023-11-22T10:48:14.048768540+00:00,1,0
2023-11-22T10:48:14.048818560+00:00,0,0
2023-11-22T10:48:14.050279870+00:00,0,1
2023-11-22T10:48:14.050283560+00:00,0,0
2023-11-22T10:48:14.098768360+00:00,1,0
2023-11-22T10:48:14.098818380+00:00,0,0
2023-11-22T10:48:14.100275530+00:00,0,1
2023-11-22T10:48:14.100279220+00:00,0,0
2023-11-22T10:48:14.148768180+00:00,1,0
2023-11-22T10:48:14.148818210+00:00,0,0
2023-11-22T10:48:14.150275420+00:00,0,1
2023-11-22T10:48:14.150279110+00:00,0,0
2023-11-22T10:48:14.198768010+00:00,1,0
2023-11-22T10:48:14.198818030+00:00,0,0
2023-11-22T10:48:14.200275370+00:00,0,1
2023-11-22T10:48:14.200279070+00:00,0,0
2023-11-22T10:48:14.248767830+00:00,1,0
2023-11-22T10:48:14.248817850+00:00,0,0
2023-11-22T10:48:14.250279030+00:00,0,1
2023-11-22T10:48:14.250282720+00:00,0,0
2023-11-22T10:48:14.298767650+00:00,1,0
2023-11-22T10:48:14.298817680+00:00,0,0
2023-11-22T10:48:14.300275180+00:00,0,1
2023-11-22T10:48:14.300278870+00:00,0,0
2023-11-22T10:48:14.348767480+00:00,1,0
2023-11-22T10:48:14.348817500+00:00,0,0
2023-11-22T10:48:14.350278850+00:00,0,1
2023-11-22T10:48:14.350282540+00:00,0,0
2023-11-22T10:48:14.398767300+00:00,1,0
2023-11-22T10:48:14.398817320+00:00,0,0
2023-11-22T10:48:14.400278510+00:00,0,1
2023-11-22T10:48:14.400282210+00:00,0,0
2023-11-22T10:48:14.448767120+00:00,1,0
2023-11-22T10:48:14.448817140+00:00,0,0
2023-11-22T10:48:14.450274450+00:00,0,1
2023-11-22T10:48:14.450278140+00:00,0,0
2023-11-22T10:48:14.498766940+00:00,1,0
2023-11-22T10:48:14.498816970+00:00,0,0
2023-11-22T10:48:14.500278610+00:00,0,1
2023-11-22T10:48:14.500282300+00:00,0,0
2023-11-22T10:48:14.548766770+00:00,1,0
2023-11-22T10:48:14.548816790+00:00,0,0
2023-11-22T10:48:14.550278060+00:00,0,1
2023-11-22T10:48:14.550281750+00:00,0,0
2023-11-22T10:48:14.598766590+00:00,1,0
2023-11-22T10:48:14.598816610+00:00,0,0
2023-11-22T10:48:14.600273940+00:00,0,1
2023-11-22T10:48:14.600277630+00:00,0,0
2023-11-22T10:48:14.648766410+00:00,1,0
2023-11-22T10:48:14.648816430+00:00,0,0
2023-11-22T10:48:14.650273880+00:00,0,1
2023-11-22T10:48:14.650277570+00:00,0,0
2023-11-22T10:48:14.698766230+00:00,1,0
2023-11-22T10:48:14.698816260+00:00,0,0
2023-11-22T10:48:14.700277250+00:00,0,1
2023-11-22T10:48:14.700280940+00:00,0,0
2023-11-22T10:48:14.748766060+00:00,1,0
2023-11-22T10:48:14.748816080+00:00,0,0
2023-11-22T10:48:14.750273700+00:00,0,1
2023-11-22T10:48:14.750277390+00:00,0,0
2023-11-22T10:48:14.798765880+00:00,1,0
2023-11-22T10:48:14.798815900+00:00,0,0
2023-11-22T10:48:14.800277080+00:00,0,1
2023-11-22T10:48:14.800280770+00:00,0,0
2023-11-22T10:48:14.848765700+00:00,1,0
2023-11-22T10:48:14.848815730+00:00,0,0
2023-11-22T10:48:14.850272800+00:00,0,1
2023-11-22T10:48:14.850276500+00:00,0,0
2023-11-22T10:48:14.898765520+00:00,1,0
2023-11-22T10:48:14.898815550+00:00,0,0
2023-11-22T10:48:14.900276960+00:00,0,1
2023-11-22T10:48:14.900280650+00:00,0,0
2023-11-22T10:48:14.948765350+00:00,1,0
2023-11-22T10:48:14.948815370+00:00,0,0
2023-11-22T10:48:14.950272840+00:00,0,1
2023-11-22T10:48:14.950276530+00:00,0,0
2023-11-22T10:48:14.998765170+00:00,1,0
2023-11-22T10:48:14.998815190+00:00,0,0
2023-11-22T10:48:15.000276000+00:00,0,1
2023-11-22T10:48:15.000279700+00:00,0,0
2023-11-22T10:48:15.048764990+00:00,1,0
2023-11-22T10:48:15.048815020+00:00,0,0
2023-11-22T10:48:15.050276440+00:00,0,1
2023-11-22T10:48:15.050280140+00:00,0,0
2023-11-22T10:48:15.098764820+00:00,1,0
2023-11-22T10:48:15.098814840+00:00,0,0
2023-11-22T10:48:15.100272110+00:00,0,1
2023-11-22T10:48:15.100275800+00:00,0,0
2023-11-22T10:48:15.148764640+00:00,1,0
2023-11-22T10:48:15.148814660+00:00,0,0
2023-11-22T10:48:15.150272060+00:00,0,1
2023-11-22T10:48:15.150275750+00:00,0,0
2023-11-22T10:48:15.198764460+00:00,1,0
2023-11-22T10:48:15.198814480+00:00,0,0
2023-11-22T10:48:15.200271940+00:00,0,1
2023-11-22T10:48:15.200275630+00:00,0,0
2023-11-22T10:48:15.248764280+00:00,1,0
2023-11-22T10:48:15.248814310+00:00,0,0
2023-11-22T10:48:15.250271610+00:00,0,1
2023-11-22T10:48:15.250275300+00:00,0,0
2023-11-22T10:48:15.298764110+00:00,1,0
2023-11-22T10:48:15.298814130+00:00,0,0
2023-11-22T10:48:15.300275050+00:00,0,1
2023-11-22T10:48:15.300278740+00:00,0,0
2023-11-22T10:48:15.348763930+00:00,1,0
2023-11-22T10:48:15.348813950+00:00,0,0
2023-11-22T10:48:15.350271210+00:00,0,1
2023-11-22T10:48:15.350274910+00:00,0,0
2023-11-22T10:48:15.398763750+00:00,1,0
2023-11-22T10:48:15.398813770+00:00,0,0
2023-11-22T10:48:15.400271380+00:00,0,1
2023-11-22T10:48:15.400275070+00:00,0,0
2023-11-22T10:48:15.448763570+00:00,1,0
2023-11-22T10:48:15.448813600+00:00,0,0
2023-11-22T10:48:15.450270760+00:00,0,1
2023-11-22T10:48:15.450274450+00:00,0,0
2023-11-22T10:48:15.498763400+00:00,1,0
2023-11-22T10:48:15.498813420+00:00,0,0
2023-11-22T10:48:15.500270930+00:00,0,1
2023-11-22T10:48:15.500274620+00:00,0,0
2023-11-22T10:48:15.548763220+00:00,1,0
2023-11-22T10:48:15.548813240+00:00,0,0
2023-11-22T10:48:15.550270580+00:00,0,1
2023-11-22T10:48:15.550274270+00:00,0,0
2023-11-22T10:48:15.598763040+00:00,1,0
2023-11-22T10:48:15.598813060+00:00,0,0
2023-11-22T10:48:15.600274250+00:00,0,1
2023-11-22T10:48:15.600277940+00:00,0,0
2023-11-22T10:48:15.648762870+00:00,1,0
2023-11-22T10:48:15.648812890+00:00,0,0
2023-11-22T10:48:15.650273910+00:00,0,1
2023-11-22T10:48:15.650277600+00:00,0,0
2023-11-22T10:48:15.698762690+00:00,1,0
2023-11-22T10:48:15.698812710+00:00,0,0
2023-11-22T10:48:15.700273860+00:00,0,1
2023-11-22T10:48:15.700277560+00:00,0,0
2023-11-22T10:48:15.748762510+00:00,1,0
2023-11-22T10:48:15.748812530+00:00,0,0
2023-11-22T10:48:15.750273530+00:00,0,1
2023-11-22T10:48:15.750277220+00:00,0,0
2023-11-22T10:48:15.798762330+00:00,1,0
2023-11-22T10:48:15.798812360+00:00,0,0
2023-11-22T10:48:15.800269970+00:00,0,1
2023-11-22T10:48:15.800273660+00:00,0,0
2023-11-22T10:48:15.848762150+00:00,1,0
2023-11-22T10:48:15.848812180+00:00,0,0
2023-11-22T10:48:15.850273340+00:00,0,1
2023-11-22T10:48:15.850277030+00:00,0,0
2023-11-22T10:48:15.898761980+00:00,1,0
2023-11-22T10:48:15.898812000+00:00,0,0
2023-11-22T10:48:15.900273000+00:00,0,1
2023-11-22T10:48:15.900276700+00:00,0,0
2023-11-22T10:48:15.948761800+00:00,1,0
2023-11-22T10:48:15.948811820+00:00,0,0
2023-11-22T10:48:15.950272960+00:00,0,1
2023-11-22T10:48:15.950276650+00:00,0,0
2023-11-22T10:48:15.998761620+00:00,1,0
2023-11-22T10:48:15.998811650+00:00,0,0
2023-11-22T10:48:16.000272830+00:00,0,1
2023-11-22T10:48:16.000276520+00:00,0,0
2023-11-22T10:48:16.048761440+00:00,1,0
2023-11-22T10:48:16.048811470+00:00,0,0
2023-11-22T10:48:16.050268990+00:00,0,1
2023-11-22T10:48:16.050272680+00:00,0,0
2023-11-22T10:48:16.098761270+00:00,1,0
2023-11-22T10:48:16.098811290+00:00,0,0
2023-11-22T10:48:16.100268430+00:00,0,1
2023-11-22T10:48:16.100272120+00:00,0,0
2023-11-22T10:48:16.148761090+00:00,1,0
2023-11-22T10:48:16.148811110+00:00,0,0
2023-11-22T10:48:16.150272600+00:00,0,1
2023-11-22T10:48:16.150276290+00:00,0,0
2023-11-22T10:48:16.198760910+00:00,1,0
2023-11-22T10:48:16.198810940+00:00,0,0
2023-11-22T10:48:16.200268250+00:00,0,1
2023-11-22T10:48:16.200271940+00:00,0,0
2023-11-22T10:48:16.248760740+00:00,1,0
2023-11-22T10:48:16.248810760+00:00,0,0
2023-11-22T10:48:16.250267910+00:00,0,1
2023-11-22T10:48:16.250271600+00:00,0,0
2023-11-22T10:48:16.298760560+00:00,1,0
2023-11-22T10:48:16.298810580+00:00,0,0
2023-11-22T10:48:16.300268070+00:00,0,1
2023-11-22T10:48:16.300271760+00:00,0,0
2023-11-22T10:48:16.348760380+00:00,1,0
2023-11-22T10:48:16.348810400+00:00,0,0
2023-11-22T10:48:16.350267740+00:00,0,1
2023-11-22T10:48:16.350271430+00:00,0,0
2023-11-22T10:48:16.398760200+00:00,1,0
2023-11-22T10:48:16.398810230+00:00,0,0
2023-11-22T10:48:16.400267680+00:00,0,1
2023-11-22T10:48:16.400271370+00:00,0,0
2023-11-22T10:48:16.448760030+00:00,1,0
2023-11-22T10:48:16.448810050+00:00,0,0
2023-11-22T10:48:16.450271330+00:00,0,1
2023-11-22T10:48:16.450275030+00:00,0,0
2023-11-22T10:48:16.498759850+00:00,1,0
2023-11-22T10:48:16.498809870+00:00,0,0
2023-11-22T10:48:16.500267280+00:00,0,1
2023-11-22T10:48:16.500270980+00:00,0,0
2023-11-22T10:48:16.548759670+00:00,1,0
2023-11-22T10:48:16.548809690+00:00,0,0
2023-11-22T10:48:16.550266950+00:00,0,1
2023-11-22T10:48:16.550270640+00:00,0,0
2023-11-22T10:48:16.598759490+00:00,1,0
2023-11-22T10:48:16.598809520+00:00,0,0
2023-11-22T10:48:16.600270600+00:00,0,1
2023-11-22T10:48:16.600274300+00:00,0,0
2023-11-22T10:48:16.648759320+00:00,1,0
2023-11-22T10:48:16.648809340+00:00,0,0
2023-11-22T10:48:16.650270560+00:00,0,1
2023-11-22T10:48:16.650274250+00:00,0,0
2023-11-22T10:48:16.698759140+00:00,1,0
2023-11-22T10:48:16.698809160+00:00,0,0
2023-11-22T10:48:16.700266720+00:00,0,1
2023-11-22T10:48:16.700270420+00:00,0,0
2023-11-22T10:48:16.748758960+00:00,1,0
2023-11-22T10:48:16.748808990+00:00,0,0
2023-11-22T10:48:16.750270100+00:00,0,1
2023-11-22T10:48:16.750273800+00:00,0,0
2023-11-22T10:48:16.798758780+00:00,1,0
2023-11-22T10:48:16.798808810+00:00,0,0
2023-11-22T10:48:16.800270000+00:00,0,1
2023-11-22T10:48:16.800273690+00:00,0,0
2023-11-22T10:48:16.848758610+00:00,1,0
2023-11-22T10:48:16.848808630+00:00,0,0
2023-11-22T10:48:16.850266160+00:00,0,1
2023-11-22T10:48:16.850269860+00:00,0,0
2023-11-22T10:48:16.898758430+00:00,1,0
2023-11-22T10:48:16.898808450+00:00,0,0
2023-11-22T10:48:16.900265830+00:00,0,1
2023-11-22T10:48:16.900269520+00:00,0,0
2023-11-22T10:48:16.948758250+00:00,1,0
2023-11-22T10:48:16.948808270+00:00,0,0
2023-11-22T10:48:16.950265500+00:00,0,1
2023-11-22T10:48:16.950269190+00:00,0,0
2023-11-22T10:48:16.998758070+00:00,1,0
2023-11-22T10:48:16.998808100+00:00,0,0
2023-11-22T10:48:17.000265450+00:00,0,1
2023-11-22T10:48:17.000269140+00:00,0,0
2023-11-22T10:48:17.048757900+00:00,1,0
2023-11-22T10:48:17.048807920+00:00,0,0
2023-11-22T10:48:17.050265110+00:00,0,1
2023-11-22T10:48:17.050268810+00:00,0,0
2023-11-22T10:48:17.098757720+00:00,1,0
2023-11-22T10:48:17.098807740+00:00,0,0
2023-11-22T10:48:17.100265280+00:00,0,1
2023-11-22T10:48:17.100268970+00:00,0,0
2023-11-22T10:48:17.148757540+00:00,1,0
2023-11-22T10:48:17.148807560+00:00,0,0
2023-11-22T10:48:17.150268660+00:00,0,1
2023-11-22T10:48:17.150272350+00:00,0,0
2023-11-22T10:48:17.198757360+00:00,1,0
2023-11-22T10:48:17.198807390+00:00,0,0
2023-11-22T10:48:17.200264600+00:00,0,1
2023-11-22T10:48:17.200268290+00:00,0,0
2023-11-22T10:48:17.248757190+00:00,1,0
2023-11-22T10:48:17.248807210+00:00,0,0
2023-11-22T10:48:17.250264050+00:00,0,1
2023-11-22T10:48:17.250267750+00:00,0,0
2023-11-22T10:48:17.298757010+00:00,1,0
2023-11-22T10:48:17.298807030+00:00,0,0
2023-11-22T10:48:17.300264430+00:00,0,1
2023-11-22T10:48:17.300268130+00:00,0,0
2023-11-22T10:48:17.348756830+00:00,1,0
2023-11-22T10:48:17.348806860+00:00,0,0
2023-11-22T10:48:17.350267890+00:00,0,1
2023-11-22T10:48:17.350271580+00:00,0,0
2023-11-22T10:48:17.398756650+00:00,1,0
2023-11-22T10:48:17.398806680+00:00,0,0
2023-11-22T10:48:17.400264050+00:00,0,1
2023-11-22T10:48:17.400267740+00:00,0,0
2023-11-22T10:48:17.448756480+00:00,1,0
2023-11-22T10:48:17.448806500+00:00,0,0
2023-11-22T10:48:17.450267420+00:00,0,1
2023-11-22T10:48:17.450271110+00:00,0,0
2023-11-22T10:48:17.498756300+00:00,1,0
2023-11-22T10:48:17.498806320+00:00,0,0
2023-11-22T10:48:17.500263860+00:00,0,1
2023-11-22T10:48:17.500267550+00:00,0,0
2023-11-22T10:48:17.548756120+00:00,1,0
2023-11-22T10:48:17.548806140+00:00,0,0
2023-11-22T10:48:17.550267240+00:00,0,1
2023-11-22T10:48:17.550270930+00:00,0,0
2023-11-22T10:48:17.598755940+00:00,1,0
2023-11-22T10:48:17.598805970+00:00,0,0
2023-11-22T10:48:17.600263190+00:00,0,1
2023-11-22T10:48:17.600266890+00:00,0,0
2023-11-22T10:48:17.648755770+00:00,1,0
2023-11-22T10:48:17.648805790+00:00,0,0
2023-11-22T10:48:17.650267350+00:00,0,1
2023-11-22T10:48:17.650271040+00:00,0,0
2023-11-22T10:48:17.698755590+00:00,1,0
2023-11-22T10:48:17.698805610+00:00,0,0
2023-11-22T10:48:17.700266790+00:00,0,1
2023-11-22T10:48:17.700270480+00:00,0,0
2023-11-22T10:48:17.748755410+00:00,1,0
2023-11-22T10:48:17.748805430+00:00,0,0
2023-11-22T10:48:17.750262670+00:00,0,1
2023-11-22T10:48:17.750266360+00:00,0,0
2023-11-22T10:48:17.798755230+00:00,1,0
2023-11-22T10:48:17.798805260+00:00,0,0
2023-11-22T10:48:17.800266340+00:00,0,1
2023-11-22T10:48:17.800270030+00:00,0,0
2023-11-22T10:48:17.848755050+00:00,1,0
2023-11-22T10:48:17.848805080+00:00,0,0
2023-11-22T10:48:17.850262490+00:00,0,1
2023-11-22T10:48:17.850266180+00:00,0,0
2023-11-22T10:48:17.898754880+00:00,1,0
2023-11-22T10:48:17.898804900+00:00,0,0
2023-11-22T10:48:17.900261930+00:00,0,1
2023-11-22T10:48:17.900265620+00:00,0,0
2023-11-22T10:48:17.948754700+00:00,1,0
2023-11-22T10:48:17.948804720+00:00,0,0
2023-11-22T10:48:17.950265600+00:00,0,1
2023-11-22T10:48:17.950269290+00:00,0,0
2023-11-22T10:48:17.998754520+00:00,1,0
2023-11-22T10:48:17.998804540+00:00,0,0
2023-11-22T10:48:18.000262050+00:00,0,1
2023-11-22T10:48:18.000265740+00:00,0,0
2023-11-22T10:48:18.048754350+00:00,1,0
2023-11-22T10:48:18.048804370+00:00,0,0
2023-11-22T10:48:18.050261920+00:00,0,1
2023-11-22T10:48:18.050265610+00:00,0,0
2023-11-22T10:48:18.098754170+00:00,1,0
2023-11-22T10:48:18.098804190+00:00,0,0
2023-11-22T10:48:18.100261360+00:00,0,1
2023-11-22T10:48:18.100265050+00:00,0,0
2023-11-22T10:48:18.148753990+00:00,1,0
2023-11-22T10:48:18.148804010+00:00,0,0
2023-11-22T10:48:18.150265020+00:00,0,1
2023-11-22T10:48:18.150268720+00:00,0,0
2023-11-22T10:48:18.198753810+00:00,1,0
2023-11-22T10:48:18.198803840+00:00,0,0
2023-11-22T10:48:18.200265190+00:00,0,1
2023-11-22T10:48:18.200268880+00:00,0,0
2023-11-22T10:48:18.248753640+00:00,1,0
2023-11-22T10:48:18.248803660+00:00,0,0
2023-11-22T10:48:18.250264850+00:00,0,1
2023-11-22T10:48:18.250268540+00:00,0,0
2023-11-22T10:48:18.298753460+00:00,1,0
2023-11-22T10:48:18.298803480+00:00,0,0
2023-11-22T10:48:18.300264800+00:00,0,1
2023-11-22T10:48:18.300268490+00:00,0,0
2023-11-22T10:48:18.348753280+00:00,1,0
2023-11-22T10:48:18.348803300+00:00,0,0
2023-11-22T10:48:18.350264460+00:00,0,1
2023-11-22T10:48:18.350268160+00:00,0,0
2023-11-22T10:48:18.398753100+00:00,1,0
2023-11-22T10:48:18.398803130+00:00,0,0
2023-11-22T10:48:18.400264350+00:00,0,1
2023-11-22T10:48:18.400268040+00:00,0,0
2023-11-22T10:48:18.448752920+00:00,1,0
2023-11-22T10:48:18.448802950+00:00,0,0
2023-11-22T10:48:18.450264010+00:00,0,1
2023-11-22T10:48:18.450267700+00:00,0,0
2023-11-22T10:48:18.498752750+00:00,1,0
2023-11-22T10:48:18.498802770+00:00,0,0
2023-11-22T10:48:18.500263670+00:00,0,1
2023-11-22T10:48:18.500267360+00:00,0,0
2023-11-22T10:48:18.548752570+00:00,1,0
2023-11-22T10:48:18.548802590+00:00,0,0
2023-11-22T10:48:18.550264120+00:00,0,1
2023-11-22T10:48:18.550267810+00:00,0,0
2023-11-22T10:48:18.598752390+00:00,1,0
2023-11-22T10:48:18.598802410+00:00,0,0
2023-11-22T10:48:18.600263790+00:00,0,1
2023-11-22T10:48:18.600267480+00:00,0,0
2023-11-22T10:48:18.648752210+00:00,1,0
2023-11-22T10:48:18.648802240+00:00,0,0
2023-11-22T10:48:18.650259450+00:00,0,1
2023-11-22T10:48:18.650263140+00:00,0,0
2023-11-22T10:48:18.698752030+00:00,1,0
2023-11-22T10:48:18.698802060+00:00,0,0
2023-11-22T10:48:18.700259620+00:00,0,1
2023-11-22T10:48:18.700263310+00:00,0,0
2023-11-22T10:48:18.748751860+00:00,1,0
2023-11-22T10:48:18.748801880+00:00,0,0
2023-11-22T10:48:18.750263000+00:00,0,1
2023-11-22T10:48:18.750266690+00:00,0,0
2023-11-22T10:48:18.798751680+00:00,1,0
2023-11-22T10:48:18.798801700+00:00,0,0
2023-11-22T10:48:18.800262670+00:00,0,1
2023-11-22T10:48:18.800266360+00:00,0,0
2023-11-22T10:48:18.848751500+00:00,1,0
2023-11-22T10:48:18.848801520+00:00,0,0
