Time [s],Channel 0,Channel 1
2023-11-22T07:26:31.545791000+00:00,0,0
2023-11-22T07:26:31.587706820+00:00,1,0
2023-11-22T07:26:31.587756840+00:00,0,0
2023-11-22T07:26:31.590753860+00:00,0,1
2023-11-22T07:26:31.590754660+00:00,0,0
2023-11-22T07:26:31.637706640+00:00,1,0
2023-11-22T07:26:31.637756660+00:00,0,0
2023-11-22T07:26:31.640755260+00:00,0,1
2023-11-22T07:26:31.640756060+00:00,0,0
2023-11-22T07:26:31.687706450+00:00,1,0
2023-11-22T07:26:31.687756480+00:00,0,0
2023-11-22T07:26:31.689595160+00:00,0,1
2023-11-22T07:26:31.689595960+00:00,0,0
2023-11-22T07:26:31.737706270+00:00,1,0
2023-11-22T07:26:31.737756300+00:00,0,0
2023-11-22T07:26:31.741913620+00:00,0,1
2023-11-22T07:26:31.741914420+00:00,0,0
2023-11-22T07:26:31.787706090+00:00,1,0
2023-11-22T07:26:31.787756110+00:00,0,0
2023-11-22T07:26:31.790754520+00:00,0,1
2023-11-22T07:26:31.790755320+00:00,0,0
2023-11-22T07:26:31.837705910+00:00,1,0
2023-11-22T07:26:31.837755930+00:00,0,0
2023-11-22T07:26:31.839595000+00:00,0,1
2023-11-22T07:26:31.839595800+00:00,0,0
2023-11-22T07:26:31.887705730+00:00,1,0
2023-11-22T07:26:31.887755750+00:00,0,0
2023-11-22T07:26:31.889595780+00:00,0,1
2023-11-22T07:26:31.889596580+00:00,0,0
2023-11-22T07:26:31.937705550+00:00,1,0
2023-11-22T07:26:31.937755570+00:00,0,0
2023-11-22T07:26:31.940753960+00:00,0,1
2023-11-22T07:26:31.940754760+00:00,0,0
2023-11-22T07:26:31.987705360+00:00,1,0
2023-11-22T07:26:31.987755390+00:00,0,0
2023-11-22T07:26:31.990753060+00:00,0,1
2023-11-22T07:26:31.990753860+00:00,0,0
2023-11-22T07:26:32.037705180+00:00,1,0
2023-11-22T07:26:32.037755210+00:00,0,0
2023-11-22T07:26:32.039594630+00:00,0,1
2023-11-22T07:26:32.039595430+00:00,0,0
2023-11-22T07:26:32.087705000+00:00,1,0
2023-11-22T07:26:32.087755030+00:00,0,0
2023-11-22T07:26:32.090754260+00:00,0,1
2023-11-22T07:26:32.090755060+00:00,0,0
2023-11-22T07:26:32.137704820+00:00,1,0
2023-11-22T07:26:32.137754840+00:00,0,0
2023-11-22T07:26:32.140753120+00:00,0,1
2023-11-22T07:26:32.140753920+00:00,0,0
2023-11-22T07:26:32.187704640+00:00,1,0
2023-11-22T07:26:32.187754660+00:00,0,0
2023-11-22T07:26:32.190753310+00:00,0,1
2023-11-22T07:26:32.190754110+00:00,0,0
2023-11-22T07:26:32.237704460+00:00,1,0
2023-11-22T07:26:32.237754480+00:00,0,0
2023-11-22T07:26:32.239593510+00:00,0,1
2023-11-22T07:26:32.239594310+00:00,0,0
2023-11-22T07:26:32.287704270+00:00,1,0
2023-11-22T07:26:32.287754300+00:00,0,0
2023-11-22T07:26:32.289593840+00:00,0,1
2023-11-22T07:26:32.289594640+00:00,0,0
2023-11-22T07:26:32.337704090+00:00,1,0
2023-11-22T07:26:32.337754120+00:00,0,0
2023-11-22T07:26:32.339592690+00:00,0,1
2023-11-22T07:26:32.339593490+00:00,0,0
2023-11-22T07:26:32.387703910+00:00,1,0
2023-11-22T07:26:32.387753940+00:00,0,0
2023-11-22T07:26:32.389593090+00:00,0,1
2023-11-22T07:26:32.389593890+00:00,0,0
2023-11-22T07:26:32.437703730+00:00,1,0
2023-11-22T07:26:32.437753750+00:00,0,0
2023-11-22T07:26:32.440751960+00:00,0,1
2023-11-22T07:26:32.440752760+00:00,0,0
2023-11-22T07:26:32.487703550+00:00,1,0
2023-11-22T07:26:32.487753570+00:00,0,0
2023-11-22T07:26:32.490751830+00:00,0,1
2023-11-22T07:26:32.490752620+00:00,0,0
2023-11-22T07:26:32.537703370+00:00,1,0
2023-11-22T07:26:32.537753390+00:00,0,0
2023-11-22T07:26:32.539593110+00:00,0,1
2023-11-22T07:26:32.539593910+00:00,0,0
2023-11-22T07:26:32.587703190+00:00,1,0
2023-11-22T07:26:32.587753210+00:00,0,0
2023-11-22T07:26:32.590751760+00:00,0,1
2023-11-22T07:26:32.590752560+00:00,0,0
2023-11-22T07:26:32.637703000+00:00,1,0
2023-11-22T07:26:32.637753030+00:00,0,0
2023-11-22T07:26:32.640751820+00:00,0,1
2023-11-22T07:26:32.640752610+00:00,0,0
2023-11-22T07:26:32.687702820+00:00,1,0
2023-11-22T07:26:32.687752850+00:00,0,0
2023-11-22T07:26:32.690750800+00:00,0,1
2023-11-22T07:26:32.690751600+00:00,0,0
2023-11-22T07:26:32.737702640+00:00,1,0
2023-11-22T07:26:32.737752660+00:00,0,0
2023-11-22T07:26:32.740751480+00:00,0,1
2023-11-22T07:26:32.740752280+00:00,0,0
2023-11-22T07:26:32.787702460+00:00,1,0
2023-11-22T07:26:32.787752480+00:00,0,0
2023-11-22T07:26:32.791910180+00:00,0,1
2023-11-22T07:26:32.791910980+00:00,0,0
2023-11-22T07:26:32.837702280+00:00,1,0
2023-11-22T07:26:32.837752300+00:00,0,0
2023-11-22T07:26:32.840751400+00:00,0,1
2023-11-22T07:26:32.840752200+00:00,0,0
2023-11-22T07:26:32.887702100+00:00,1,0
2023-11-22T07:26:32.887752120+00:00,0,0
2023-11-22T07:26:32.889590310+00:00,0,1
2023-11-22T07:26:32.889591110+00:00,0,0
2023-11-22T07:26:32.937701910+00:00,1,0
2023-11-22T07:26:32.937751940+00:00,0,0
2023-11-22T07:26:32.939590930+00:00,0,1
2023-11-22T07:26:32.939591730+00:00,0,0
2023-11-22T07:26:32.987701730+00:00,1,0
2023-11-22T07:26:32.987751760+00:00,0,0
2023-11-22T07:26:32.989590220+00:00,0,1
2023-11-22T07:26:32.989591020+00:00,0,0
2023-11-22T07:26:33.037701550+00:00,1,0
2023-11-22T07:26:33.037751570+00:00,0,0
2023-11-22T07:26:33.040750520+00:00,0,1
2023-11-22T07:26:33.040751320+00:00,0,0
2023-11-22T07:26:33.087701370+00:00,1,0
2023-11-22T07:26:33.087751390+00:00,0,0
2023-11-22T07:26:33.089590170+00:00,0,1
2023-11-22T07:26:33.089590970+00:00,0,0
2023-11-22T07:26:33.137701190+00:00,1,0
2023-11-22T07:26:33.137751210+00:00,0,0
2023-11-22T07:26:33.140749360+00:00,0,1
2023-11-22T07:26:33.140750160+00:00,0,0
2023-11-22T07:26:33.187701010+00:00,1,0
2023-11-22T07:26:33.187751030+00:00,0,0
2023-11-22T07:26:33.189589440+00:00,0,1
2023-11-22T07:26:33.189590240+00:00,0,0
2023-11-22T07:26:33.237700820+00:00,1,0
2023-11-22T07:26:33.237750850+00:00,0,0
2023-11-22T07:26:33.239589340+00:00,0,1
2023-11-22T07:26:33.239590140+00:00,0,0
2023-11-22T07:26:33.287700640+00:00,1,0
2023-11-22T07:26:33.287750670+00:00,0,0
2023-11-22T07:26:33.289589100+00:00,0,1
2023-11-22T07:26:33.289589900+00:00,0,0
2023-11-22T07:26:33.337700460+00:00,1,0
2023-11-22T07:26:33.337750480+00:00,0,0
2023-11-22T07:26:33.339589010+00:00,0,1
2023-11-22T07:26:33.339589810+00:00,0,0
2023-11-22T07:26:33.387700280+00:00,1,0
2023-11-22T07:26:33.387750300+00:00,0,0
2023-11-22T07:26:33.390748160+00:00,0,1
2023-11-22T07:26:33.390748960+00:00,0,0
2023-11-22T07:26:33.437700100+00:00,1,0
2023-11-22T07:26:33.437750120+00:00,0,0
2023-11-22T07:26:33.440748620+00:00,0,1
2023-11-22T07:26:33.440749420+00:00,0,0
2023-11-22T07:26:33.487699920+00:00,1,0
2023-11-22T07:26:33.487749940+00:00,0,0
2023-11-22T07:26:33.490749060+00:00,0,1
2023-11-22T07:26:33.490749860+00:00,0,0
2023-11-22T07:26:33.537699730+00:00,1,0
2023-11-22T07:26:33.537749760+00:00,0,0
2023-11-22T07:26:33.540748190+00:00,0,1
2023-11-22T07:26:33.540748990+00:00,0,0
2023-11-22T07:26:33.587699550+00:00,1,0
2023-11-22T07:26:33.587749580+00:00,0,0
2023-11-22T07:26:33.590747680+00:00,0,1
2023-11-22T07:26:33.590748480+00:00,0,0
2023-11-22T07:26:33.637699370+00:00,1,0
2023-11-22T07:26:33.637749390+00:00,0,0
2023-11-22T07:26:33.639588370+00:00,0,1
2023-11-22T07:26:33.639589170+00:00,0,0
2023-11-22T07:26:33.687699190+00:00,1,0
2023-11-22T07:26:33.687749210+00:00,0,0
2023-11-22T07:26:33.690747920+00:00,0,1
2023-11-22T07:26:33.690748720+00:00,0,0
2023-11-22T07:26:33.737699010+00:00,1,0
2023-11-22T07:26:33.737749030+00:00,0,0
2023-11-22T07:26:33.739588110+00:00,0,1
2023-11-22T07:26:33.739588910+00:00,0,0
2023-11-22T07:26:33.787698830+00:00,1,0
2023-11-22T07:26:33.787748850+00:00,0,0
2023-11-22T07:26:33.789587530+00:00,0,1
2023-11-22T07:26:33.789588330+00:00,0,0
2023-11-22T07:26:33.837698640+00:00,1,0
2023-11-22T07:26:33.837748670+00:00,0,0
2023-11-22T07:26:33.840746960+00:00,0,1
2023-11-22T07:26:33.840747760+00:00,0,0
2023-11-22T07:26:33.887698460+00:00,1,0
2023-11-22T07:26:33.887748490+00:00,0,0
2023-11-22T07:26:33.891906290+00:00,0,1
2023-11-22T07:26:33.891907080+00:00,0,0
2023-11-22T07:26:33.937698280+00:00,1,0
2023-11-22T07:26:33.937748300+00:00,0,0
2023-11-22T07:26:33.939587550+00:00,0,1
2023-11-22T07:26:33.939588350+00:00,0,0
2023-11-22T07:26:33.987698100+00:00,1,0
2023-11-22T07:26:33.987748120+00:00,0,0
2023-11-22T07:26:33.989587250+00:00,0,1
2023-11-22T07:26:33.989588050+00:00,0,0
2023-11-22T07:26:34.037697920+00:00,1,0
2023-11-22T07:26:34.037747940+00:00,0,0
2023-11-22T07:26:34.040746180+00:00,0,1
2023-11-22T07:26:34.040746980+00:00,0,0
2023-11-22T07:26:34.087697740+00:00,1,0
2023-11-22T07:26:34.087747760+00:00,0,0
2023-11-22T07:26:34.090746290+00:00,0,1
2023-11-22T07:26:34.090747090+00:00,0,0
2023-11-22T07:26:34.137697550+00:00,1,0
2023-11-22T07:26:34.137747580+00:00,0,0
2023-11-22T07:26:34.139586920+00:00,0,1
2023-11-22T07:26:34.139587720+00:00,0,0
2023-11-22T07:26:34.187697370+00:00,1,0
2023-11-22T07:26:34.187747400+00:00,0,0
2023-11-22T07:26:34.190746460+00:00,0,1
2023-11-22T07:26:34.190747260+00:00,0,0
2023-11-22T07:26:34.237697190+00:00,1,0
2023-11-22T07:26:34.237747210+00:00,0,0
2023-11-22T07:26:34.240745930+00:00,0,1
2023-11-22T07:26:34.240746730+00:00,0,0
2023-11-22T07:26:34.287697010+00:00,1,0
2023-11-22T07:26:34.287747030+00:00,0,0
2023-11-22T07:26:34.289585480+00:00,0,1
2023-11-22T07:26:34.289586280+00:00,0,0
2023-11-22T07:26:34.337696830+00:00,1,0
2023-11-22T07:26:34.337746850+00:00,0,0
2023-11-22T07:26:34.340746030+00:00,0,1
2023-11-22T07:26:34.340746830+00:00,0,0
2023-11-22T07:26:34.387696650+00:00,1,0
2023-11-22T07:26:34.387746670+00:00,0,0
2023-11-22T07:26:34.389585800+00:00,0,1
2023-11-22T07:26:34.389586600+00:00,0,0
2023-11-22T07:26:34.437696460+00:00,1,0
2023-11-22T07:26:34.437746490+00:00,0,0
2023-11-22T07:26:34.440744990+00:00,0,1
2023-11-22T07:26:34.440745790+00:00,0,0
2023-11-22T07:26:34.487696280+00:00,1,0
2023-11-22T07:26:34.487746310+00:00,0,0
2023-11-22T07:26:34.489585700+00:00,0,1
2023-11-22T07:26:34.489586500+00:00,0,0
2023-11-22T07:26:34.537696100+00:00,1,0
2023-11-22T07:26:34.537746120+00:00,0,0
2023-11-22T07:26:34.539585540+00:00,0,1
2023-11-22T07:26:34.539586340+00:00,0,0
2023-11-22T07:26:34.587695920+00:00,1,0
2023-11-22T07:26:34.587745940+00:00,0,0
2023-11-22T07:26:34.589585380+00:00,0,1
2023-11-22T07:26:34.589586180+00:00,0,0
2023-11-22T07:26:34.637695740+00:00,1,0
2023-11-22T07:26:34.637745760+00:00,0,0
2023-11-22T07:26:34.639585220+00:00,0,1
2023-11-22T07:26:34.639586020+00:00,0,0
2023-11-22T07:26:34.687695550+00:00,1,0
2023-11-22T07:26:34.687745580+00:00,0,0
2023-11-22T07:26:34.689584490+00:00,0,1
2023-11-22T07:26:34.689585280+00:00,0,0
2023-11-22T07:26:34.737695370+00:00,1,0
2023-11-22T07:26:34.737745400+00:00,0,0
2023-11-22T07:26:34.740744040+00:00,0,1
2023-11-22T07:26:34.740744840+00:00,0,0
2023-11-22T07:26:34.787695190+00:00,1,0
2023-11-22T07:26:34.787745220+00:00,0,0
2023-11-22T07:26:34.790743980+00:00,0,1
2023-11-22T07:26:34.790744780+00:00,0,0
2023-11-22T07:26:34.837695010+00:00,1,0
2023-11-22T07:26:34.837745030+00:00,0,0
2023-11-22T07:26:34.839583180+00:00,0,1
2023-11-22T07:26:34.839583980+00:00,0,0
2023-11-22T07:26:34.887694830+00:00,1,0
2023-11-22T07:26:34.887744850+00:00,0,0
2023-11-22T07:26:34.890743000+00:00,0,1
2023-11-22T07:26:34.890743800+00:00,0,0
2023-11-22T07:26:34.937694650+00:00,1,0
2023-11-22T07:26:34.937744670+00:00,0,0
2023-11-22T07:26:34.939583770+00:00,0,1
2023-11-22T07:26:34.939584570+00:00,0,0
2023-11-22T07:26:34.987694460+00:00,1,0
2023-11-22T07:26:34.987744490+00:00,0,0
2023-11-22T07:26:34.989583110+00:00,0,1
2023-11-22T07:26:34.989583900+00:00,0,0
2023-11-22T07:26:35.037694280+00:00,1,0
2023-11-22T07:26:35.037744310+00:00,0,0
2023-11-22T07:26:35.039583020+00:00,0,1
2023-11-22T07:26:35.039583820+00:00,0,0
2023-11-22T07:26:35.087694100+00:00,1,0
2023-11-22T07:26:35.087744120+00:00,0,0
2023-11-22T07:26:35.089583370+00:00,0,1
2023-11-22T07:26:35.089584170+00:00,0,0
2023-11-22T07:26:35.137693920+00:00,1,0
2023-11-22T07:26:35.137743940+00:00,0,0
2023-11-22T07:26:35.139583930+00:00,0,1
2023-11-22T07:26:35.139584730+00:00,0,0
2023-11-22T07:26:35.187693740+00:00,1,0
2023-11-22T07:26:35.187743760+00:00,0,0
2023-11-22T07:26:35.189581760+00:00,0,1
2023-11-22T07:26:35.189582560+00:00,0,0
2023-11-22T07:26:35.237693560+00:00,1,0
2023-11-22T07:26:35.237743580+00:00,0,0
2023-11-22T07:26:35.239582510+00:00,0,1
2023-11-22T07:26:35.239583310+00:00,0,0
2023-11-22T07:26:35.287693370+00:00,1,0
2023-11-22T07:26:35.287743400+00:00,0,0
2023-11-22T07:26:35.289582430+00:00,0,1
2023-11-22T07:26:35.289583230+00:00,0,0
2023-11-22T07:26:35.337693190+00:00,1,0
2023-11-22T07:26:35.337743220+00:00,0,0
2023-11-22T07:26:35.339583410+00:00,0,1
2023-11-22T07:26:35.339584200+00:00,0,0
2023-11-22T07:26:35.387693010+00:00,1,0
2023-11-22T07:26:35.387743030+00:00,0,0
2023-11-22T07:26:35.389582240+00:00,0,1
2023-11-22T07:26:35.389583040+00:00,0,0
2023-11-22T07:26:35.437692830+00:00,1,0
2023-11-22T07:26:35.437742850+00:00,0,0
2023-11-22T07:26:35.439582130+00:00,0,1
2023-11-22T07:26:35.439582930+00:00,0,0
2023-11-22T07:26:35.487692650+00:00,1,0
2023-11-22T07:26:35.487742670+00:00,0,0
2023-11-22T07:26:35.489581330+00:00,0,1
2023-11-22T07:26:35.489582130+00:00,0,0
2023-11-22T07:26:35.537692470+00:00,1,0
2023-11-22T07:26:35.537742490+00:00,0,0
2023-11-22T07:26:35.539581740+00:00,0,1
2023-11-22T07:26:35.539582540+00:00,0,0
2023-11-22T07:26:35.587692280+00:00,1,0
2023-11-22T07:26:35.587742310+00:00,0,0
2023-11-22T07:26:35.590740100+00:00,0,1
2023-11-22T07:26:35.590740900+00:00,0,0
2023-11-22T07:26:35.637692100+00:00,1,0
2023-11-22T07:26:35.637742130+00:00,0,0
2023-11-22T07:26:35.639581940+00:00,0,1
2023-11-22T07:26:35.639582740+00:00,0,0
2023-11-22T07:26:35.687691920+00:00,1,0
2023-11-22T07:26:35.687741940+00:00,0,0
2023-11-22T07:26:35.690741050+00:00,0,1
2023-11-22T07:26:35.690741850+00:00,0,0
2023-11-22T07:26:35.737691740+00:00,1,0
2023-11-22T07:26:35.737741760+00:00,0,0
2023-11-22T07:26:35.739579830+00:00,0,1
2023-11-22T07:26:35.739580630+00:00,0,0
2023-11-22T07:26:35.787691560+00:00,1,0
2023-11-22T07:26:35.787741580+00:00,0,0
2023-11-22T07:26:35.789580740+00:00,0,1
2023-11-22T07:26:35.789581540+00:00,0,0
2023-11-22T07:26:35.837691370+00:00,1,0
2023-11-22T07:26:35.837741400+00:00,0,0
2023-11-22T07:26:35.840739990+00:00,0,1
2023-11-22T07:26:35.840740790+00:00,0,0
2023-11-22T07:26:35.887691190+00:00,1,0
2023-11-22T07:26:35.887741220+00:00,0,0
2023-11-22T07:26:35.890739990+00:00,0,1
2023-11-22T07:26:35.890740790+00:00,0,0
2023-11-22T07:26:35.937691010+00:00,1,0
2023-11-22T07:26:35.937741040+00:00,0,0
2023-11-22T07:26:35.939579040+00:00,0,1
2023-11-22T07:26:35.939579840+00:00,0,0
2023-11-22T07:26:35.987690830+00:00,1,0
2023-11-22T07:26:35.987740850+00:00,0,0
2023-11-22T07:26:35.990738660+00:00,0,1
2023-11-22T07:26:35.990739460+00:00,0,0
2023-11-22T07:26:36.037690650+00:00,1,0
2023-11-22T07:26:36.037740670+00:00,0,0
2023-11-22T07:26:36.039580010+00:00,0,1
2023-11-22T07:26:36.039580810+00:00,0,0
2023-11-22T07:26:36.087690470+00:00,1,0
2023-11-22T07:26:36.087740490+00:00,0,0
2023-11-22T07:26:36.089579830+00:00,0,1
2023-11-22T07:26:36.089580630+00:00,0,0
2023-11-22T07:26:36.137690280+00:00,1,0
2023-11-22T07:26:36.137740310+00:00,0,0
2023-11-22T07:26:36.140739430+00:00,0,1
2023-11-22T07:26:36.140740230+00:00,0,0
2023-11-22T07:26:36.187690100+00:00,1,0
2023-11-22T07:26:36.187740130+00:00,0,0
2023-11-22T07:26:36.189579260+00:00,0,1
2023-11-22T07:26:36.189580060+00:00,0,0
2023-11-22T07:26:36.237689920+00:00,1,0
2023-11-22T07:26:36.237739940+00:00,0,0
2023-11-22T07:26:36.239578600+00:00,0,1
2023-11-22T07:26:36.239579400+00:00,0,0
2023-11-22T07:26:36.287689740+00:00,1,0
2023-11-22T07:26:36.287739760+00:00,0,0
2023-11-22T07:26:36.289578430+00:00,0,1
2023-11-22T07:26:36.289579230+00:00,0,0
2023-11-22T07:26:36.337689560+00:00,1,0
2023-11-22T07:26:36.337739580+00:00,0,0
2023-11-22T07:26:36.340738040+00:00,0,1
2023-11-22T07:26:36.340738840+00:00,0,0
2023-11-22T07:26:36.387689370+00:00,1,0
2023-11-22T07:26:36.387739400+00:00,0,0
2023-11-22T07:26:36.391897280+00:00,0,1
2023-11-22T07:26:36.391898080+00:00,0,0
2023-11-22T07:26:36.437689190+00:00,1,0
2023-11-22T07:26:36.437739220+00:00,0,0
2023-11-22T07:26:36.439578620+00:00,0,1
2023-11-22T07:26:36.439579420+00:00,0,0
2023-11-22T07:26:36.487689010+00:00,1,0
2023-11-22T07:26:36.487739040+00:00,0,0
2023-11-22T07:26:36.489578370+00:00,0,1
2023-11-22T07:26:36.489579170+00:00,0,0
2023-11-22T07:26:36.537688830+00:00,1,0
2023-11-22T07:26:36.537738850+00:00,0,0
2023-11-22T07:26:36.539577860+00:00,0,1
2023-11-22T07:26:36.539578660+00:00,0,0
2023-11-22T07:26:36.587688650+00:00,1,0
2023-11-22T07:26:36.587738670+00:00,0,0
2023-11-22T07:26:36.589577980+00:00,0,1
2023-11-22T07:26:36.589578780+00:00,0,0
2023-11-22T07:26:36.637688470+00:00,1,0
2023-11-22T07:26:36.637738490+00:00,0,0
2023-11-22T07:26:36.639577440+00:00,0,1
2023-11-22T07:26:36.639578240+00:00,0,0
2023-11-22T07:26:36.687688280+00:00,1,0
2023-11-22T07:26:36.687738310+00:00,0,0
2023-11-22T07:26:36.690736870+00:00,0,1
2023-11-22T07:26:36.690737670+00:00,0,0
2023-11-22T07:26:36.737688100+00:00,1,0
2023-11-22T07:26:36.737738130+00:00,0,0
2023-11-22T07:26:36.739577570+00:00,0,1
2023-11-22T07:26:36.739578370+00:00,0,0
2023-11-22T07:26:36.787687920+00:00,1,0
2023-11-22T07:26:36.787737940+00:00,0,0
2023-11-22T07:26:36.790736720+00:00,0,1
2023-11-22T07:26:36.790737520+00:00,0,0
2023-11-22T07:26:36.837687740+00:00,1,0
2023-11-22T07:26:36.837737760+00:00,0,0
2023-11-22T07:26:36.839577140+00:00,0,1
2023-11-22T07:26:36.839577940+00:00,0,0
2023-11-22T07:26:36.887687560+00:00,1,0
2023-11-22T07:26:36.887737580+00:00,0,0
2023-11-22T07:26:36.890736400+00:00,0,1
2023-11-22T07:26:36.890737200+00:00,0,0
2023-11-22T07:26:36.937687370+00:00,1,0
2023-11-22T07:26:36.937737400+00:00,0,0
2023-11-22T07:26:36.939576590+00:00,0,1
2023-11-22T07:26:36.939577390+00:00,0,0
2023-11-22T07:26:36.987687190+00:00,1,0
2023-11-22T07:26:36.987737220+00:00,0,0
2023-11-22T07:26:36.989577430+00:00,0,1
2023-11-22T07:26:36.989578230+00:00,0,0
2023-11-22T07:26:37.037687010+00:00,1,0
2023-11-22T07:26:37.037737030+00:00,0,0
2023-11-22T07:26:37.039576390+00:00,0,1
2023-11-22T07:26:37.039577190+00:00,0,0
2023-11-22T07:26:37.087686830+00:00,1,0
2023-11-22T07:26:37.087736850+00:00,0,0
2023-11-22T07:26:37.089576160+00:00,0,1
2023-11-22T07:26:37.089576960+00:00,0,0
2023-11-22T07:26:37.137686650+00:00,1,0
2023-11-22T07:26:37.137736670+00:00,0,0
2023-11-22T07:26:37.139575630+00:00,0,1
2023-11-22T07:26:37.139576430+00:00,0,0
2023-11-22T07:26:37.187686460+00:00,1,0
2023-11-22T07:26:37.187736490+00:00,0,0
2023-11-22T07:26:37.189575890+00:00,0,1
2023-11-22T07:26:37.189576690+00:00,0,0
2023-11-22T07:26:37.237686280+00:00,1,0
2023-11-22T07:26:37.237736300+00:00,0,0
2023-11-22T07:26:37.240735380+00:00,0,1
2023-11-22T07:26:37.240736180+00:00,0,0
2023-11-22T07:26:37.287686100+00:00,1,0
2023-11-22T07:26:37.287736120+00:00,0,0
2023-11-22T07:26:37.290735000+00:00,0,1
2023-11-22T07:26:37.290735800+00:00,0,0
2023-11-22T07:26:37.337685920+00:00,1,0
2023-11-22T07:26:37.337735940+00:00,0,0
2023-11-22T07:26:37.339575280+00:00,0,1
2023-11-22T07:26:37.339576080+00:00,0,0
2023-11-22T07:26:37.387685730+00:00,1,0
2023-11-22T07:26:37.387735760+00:00,0,0
2023-11-22T07:26:37.390734340+00:00,0,1
2023-11-22T07:26:37.390735130+00:00,0,0
2023-11-22T07:26:37.437685550+00:00,1,0
2023-11-22T07:26:37.437735570+00:00,0,0
2023-11-22T07:26:37.439573540+00:00,0,1
2023-11-22T07:26:37.439574340+00:00,0,0
2023-11-22T07:26:37.487685370+00:00,1,0
2023-11-22T07:26:37.487735390+00:00,0,0
2023-11-22T07:26:37.489574440+00:00,0,1
2023-11-22T07:26:37.489575240+00:00,0,0
2023-11-22T07:26:37.537685190+00:00,1,0
2023-11-22T07:26:37.537735210+00:00,0,0
2023-11-22T07:26:37.540733420+00:00,0,1
2023-11-22T07:26:37.540734220+00:00,0,0
2023-11-22T07:26:37.587685010+00:00,1,0
2023-11-22T07:26:37.587735030+00:00,0,0
2023-11-22T07:26:37.589573760+00:00,0,1
2023-11-22T07:26:37.589574560+00:00,0,0
2023-11-22T07:26:37.637684820+00:00,1,0
2023-11-22T07:26:37.637734850+00:00,0,0
2023-11-22T07:26:37.640733790+00:00,0,1
2023-11-22T07:26:37.640734580+00:00,0,0
2023-11-22T07:26:37.687684640+00:00,1,0
2023-11-22T07:26:37.687734670+00:00,0,0
2023-11-22T07:26:37.690733150+00:00,0,1
2023-11-22T07:26:37.690733950+00:00,0,0
2023-11-22T07:26:37.737684460+00:00,1,0
2023-11-22T07:26:37.737734480+00:00,0,0
2023-11-22T07:26:37.740732670+00:00,0,1
2023-11-22T07:26:37.740733460+00:00,0,0
2023-11-22T07:26:37.787684280+00:00,1,0
2023-11-22T07:26:37.787734300+00:00,0,0
