Time [s],Channel 0,Channel 1
2023-11-13T04:19:58.566653200+00:00,0,0
2023-11-13T04:19:58.574130150+00:00,1,0
2023-11-13T04:19:58.574180160+00:00,0,0
2023-11-13T04:19:58.663007850+00:00,0,1
2023-11-13T04:19:58.663007920+00:00,0,0
2023-11-13T04:19:58.674129920+00:00,1,0
2023-11-13T04:19:58.674179930+00:00,0,0
2023-11-13T04:19:58.763004290+00:00,0,1
2023-11-13T04:19:58.763004360+00:00,0,0
2023-11-13T04:19:58.774129690+00:00,1,0
2023-11-13T04:19:58.774179700+00:00,0,0
2023-11-13T04:19:58.863009360+00:00,0,1
2023-11-13T04:19:58.863009430+00:00,0,0
2023-11-13T04:19:58.874129460+00:00,1,0
2023-11-13T04:19:58.874179470+00:00,0,0
2023-11-13T04:19:58.963005800+00:00,0,1
2023-11-13T04:19:58.963005860+00:00,0,0
2023-11-13T04:19:58.974129230+00:00,1,0
2023-11-13T04:19:58.974179240+00:00,0,0
2023-11-13T04:19:59.063002160+00:00,0,1
2023-11-13T04:19:59.063002230+00:00,0,0
2023-11-13T04:19:59.074129000+00:00,1,0
2023-11-13T04:19:59.074179010+00:00,0,0
2023-11-13T04:19:59.163007260+00:00,0,1
2023-11-13T04:19:59.163007330+00:00,0,0
2023-11-13T04:19:59.174128770+00:00,1,0
2023-11-13T04:19:59.174178780+00:00,0,0
2023-11-13T04:19:59.263003600+00:00,0,1
2023-11-13T04:19:59.263003670+00:00,0,0
2023-11-13T04:19:59.274128540+00:00,1,0
2023-11-13T04:19:59.274178550+00:00,0,0
2023-11-13T04:19:59.363008710+00:00,0,1
2023-11-13T04:19:59.363008770+00:00,0,0
2023-11-13T04:19:59.374128310+00:00,1,0
2023-11-13T04:19:59.374178320+00:00,0,0
2023-11-13T04:19:59.463005040+00:00,0,1
2023-11-13T04:19:59.463005110+00:00,0,0
2023-11-13T04:19:59.474128080+00:00,1,0
2023-11-13T04:19:59.474178090+00:00,0,0
2023-11-13T04:19:59.563001520+00:00,0,1
2023-11-13T04:19:59.563001590+00:00,0,0
2023-11-13T04:19:59.574127850+00:00,1,0
2023-11-13T04:19:59.574177860+00:00,0,0
2023-11-13T04:19:59.663006590+00:00,0,1
2023-11-13T04:19:59.663006660+00:00,0,0
2023-11-13T04:19:59.674127620+00:00,1,0
2023-11-13T04:19:59.674177630+00:00,0,0
2023-11-13T04:19:59.763002940+00:00,0,1
2023-11-13T04:19:59.763003010+00:00,0,0
2023-11-13T04:19:59.774127390+00:00,1,0
2023-11-13T04:19:59.774177400+00:00,0,0
2023-11-13T04:19:59.862999890+00:00,0,1
2023-11-13T04:19:59.862999960+00:00,0,0
2023-11-13T04:19:59.874127160+00:00,1,0
2023-11-13T04:19:59.874177170+00:00,0,0
2023-11-13T04:19:59.963004970+00:00,0,1
2023-11-13T04:19:59.963005040+00:00,0,0
2023-11-13T04:19:59.974126930+00:00,1,0
2023-11-13T04:19:59.974176940+00:00,0,0
2023-11-13T04:20:00.063001360+00:00,0,1
2023-11-13T04:20:00.063001420+00:00,0,0
2023-11-13T04:20:00.074126700+00:00,1,0
2023-11-13T04:20:00.074176710+00:00,0,0
2023-11-13T04:20:00.163006350+00:00,0,1
2023-11-13T04:20:00.163006410+00:00,0,0
2023-11-13T04:20:00.174126470+00:00,1,0
2023-11-13T04:20:00.174176480+00:00,0,0
2023-11-13T04:20:00.263002750+00:00,0,1
2023-11-13T04:20:00.263002820+00:00,0,0
2023-11-13T04:20:00.274126240+00:00,1,0
2023-11-13T04:20:00.274176250+00:00,0,0
2023-11-13T04:20:00.362999210+00:00,0,1
2023-11-13T04:20:00.362999280+00:00,0,0
2023-11-13T04:20:00.374126010+00:00,1,0
2023-11-13T04:20:00.374176020+00:00,0,0
2023-11-13T04:20:00.463004210+00:00,0,1
2023-11-13T04:20:00.463004280+00:00,0,0
2023-11-13T04:20:00.474125780+00:00,1,0
2023-11-13T04:20:00.474175790+00:00,0,0
2023-11-13T04:20:00.563000670+00:00,0,1
2023-11-13T04:20:00.563000740+00:00,0,0
2023-11-13T04:20:00.574125550+00:00,1,0
2023-11-13T04:20:00.574175560+00:00,0,0
2023-11-13T04:20:00.663005740+00:00,0,1
2023-11-13T04:20:00.663005810+00:00,0,0
2023-11-13T04:20:00.674125320+00:00,1,0
2023-11-13T04:20:00.674175330+00:00,0,0
2023-11-13T04:20:00.763002140+00:00,0,1
2023-11-13T04:20:00.763002210+00:00,0,0
2023-11-13T04:20:00.774125090+00:00,1,0
2023-11-13T04:20:00.774175100+00:00,0,0
2023-11-13T04:20:00.862998540+00:00,0,1
2023-11-13T04:20:00.862998610+00:00,0,0
2023-11-13T04:20:00.874124860+00:00,1,0
2023-11-13T04:20:00.874174870+00:00,0,0
2023-11-13T04:20:00.963003600+00:00,0,1
2023-11-13T04:20:00.963003670+00:00,0,0
2023-11-13T04:20:00.974124630+00:00,1,0
2023-11-13T04:20:00.974174640+00:00,0,0
2023-11-13T04:20:01.063000010+00:00,0,1
2023-11-13T04:20:01.063000070+00:00,0,0
2023-11-13T04:20:01.074124400+00:00,1,0
2023-11-13T04:20:01.074174410+00:00,0,0
2023-11-13T04:20:01.162996350+00:00,0,1
2023-11-13T04:20:01.162996420+00:00,0,0
2023-11-13T04:20:01.174124180+00:00,1,0
2023-11-13T04:20:01.174174180+00:00,0,0
2023-11-13T04:20:01.263001990+00:00,0,1
2023-11-13T04:20:01.263002060+00:00,0,0
2023-11-13T04:20:01.274123950+00:00,1,0
2023-11-13T04:20:01.274173950+00:00,0,0
2023-11-13T04:20:01.362998310+00:00,0,1
2023-11-13T04:20:01.362998380+00:00,0,0
2023-11-13T04:20:01.374123720+00:00,1,0
2023-11-13T04:20:01.374173730+00:00,0,0
2023-11-13T04:20:01.463003430+00:00,0,1
2023-11-13T04:20:01.463003500+00:00,0,0
2023-11-13T04:20:01.474123490+00:00,1,0
2023-11-13T04:20:01.474173500+00:00,0,0
2023-11-13T04:20:01.562999850+00:00,0,1
2023-11-13T04:20:01.562999910+00:00,0,0
2023-11-13T04:20:01.574123260+00:00,1,0
2023-11-13T04:20:01.574173270+00:00,0,0
2023-11-13T04:20:01.662996200+00:00,0,1
2023-11-13T04:20:01.662996270+00:00,0,0
2023-11-13T04:20:01.674123030+00:00,1,0
2023-11-13T04:20:01.674173040+00:00,0,0
2023-11-13T04:20:01.763001310+00:00,0,1
2023-11-13T04:20:01.763001380+00:00,0,0
2023-11-13T04:20:01.774122800+00:00,1,0
2023-11-13T04:20:01.774172810+00:00,0,0
2023-11-13T04:20:01.862997710+00:00,0,1
2023-11-13T04:20:01.862997780+00:00,0,0
2023-11-13T04:20:01.874122570+00:00,1,0
2023-11-13T04:20:01.874172580+00:00,0,0
2023-11-13T04:20:01.963002700+00:00,0,1
2023-11-13T04:20:01.963002770+00:00,0,0
2023-11-13T04:20:01.974122340+00:00,1,0
2023-11-13T04:20:01.974172350+00:00,0,0
2023-11-13T04:20:02.062999100+00:00,0,1
2023-11-13T04:20:02.062999170+00:00,0,0
2023-11-13T04:20:02.074122110+00:00,1,0
2023-11-13T04:20:02.074172120+00:00,0,0
2023-11-13T04:20:02.162995520+00:00,0,1
2023-11-13T04:20:02.162995590+00:00,0,0
2023-11-13T04:20:02.174121880+00:00,1,0
2023-11-13T04:20:02.174171890+00:00,0,0
2023-11-13T04:20:02.263000570+00:00,0,1
2023-11-13T04:20:02.263000630+00:00,0,0
2023-11-13T04:20:02.274121650+00:00,1,0
2023-11-13T04:20:02.274171660+00:00,0,0
2023-11-13T04:20:02.362996980+00:00,0,1
2023-11-13T04:20:02.362997050+00:00,0,0
2023-11-13T04:20:02.374121420+00:00,1,0
2023-11-13T04:20:02.374171430+00:00,0,0
2023-11-13T04:20:02.463002100+00:00,0,1
2023-11-13T04:20:02.463002170+00:00,0,0
2023-11-13T04:20:02.474121190+00:00,1,0
2023-11-13T04:20:02.474171200+00:00,0,0
2023-11-13T04:20:02.562998490+00:00,0,1
2023-11-13T04:20:02.562998560+00:00,0,0
2023-11-13T04:20:02.574120960+00:00,1,0
2023-11-13T04:20:02.574170970+00:00,0,0
2023-11-13T04:20:02.662995400+00:00,0,1
2023-11-13T04:20:02.662995460+00:00,0,0
2023-11-13T04:20:02.674120730+00:00,1,0
2023-11-13T04:20:02.674170740+00:00,0,0
2023-11-13T04:20:02.763000450+00:00,0,1
2023-11-13T04:20:02.763000520+00:00,0,0
2023-11-13T04:20:02.774120500+00:00,1,0
2023-11-13T04:20:02.774170510+00:00,0,0
2023-11-13T04:20:02.862996860+00:00,0,1
2023-11-13T04:20:02.862996920+00:00,0,0
2023-11-13T04:20:02.874120270+00:00,1,0
2023-11-13T04:20:02.874170280+00:00,0,0
2023-11-13T04:20:02.962993270+00:00,0,1
2023-11-13T04:20:02.962993340+00:00,0,0
2023-11-13T04:20:02.974120040+00:00,1,0
2023-11-13T04:20:02.974170050+00:00,0,0
2023-11-13T04:20:03.062998270+00:00,0,1
2023-11-13T04:20:03.062998340+00:00,0,0
2023-11-13T04:20:03.074119810+00:00,1,0
2023-11-13T04:20:03.074169820+00:00,0,0
2023-11-13T04:20:03.162994710+00:00,0,1
2023-11-13T04:20:03.162994780+00:00,0,0
2023-11-13T04:20:03.174119580+00:00,1,0
2023-11-13T04:20:03.174169590+00:00,0,0
2023-11-13T04:20:03.262999780+00:00,0,1
2023-11-13T04:20:03.262999850+00:00,0,0
2023-11-13T04:20:03.274119350+00:00,1,0
2023-11-13T04:20:03.274169360+00:00,0,0
2023-11-13T04:20:03.362996210+00:00,0,1
2023-11-13T04:20:03.362996280+00:00,0,0
2023-11-13T04:20:03.374119120+00:00,1,0
2023-11-13T04:20:03.374169130+00:00,0,0
2023-11-13T04:20:03.462992550+00:00,0,1
2023-11-13T04:20:03.462992620+00:00,0,0
2023-11-13T04:20:03.474118890+00:00,1,0
2023-11-13T04:20:03.474168900+00:00,0,0
2023-11-13T04:20:03.562997590+00:00,0,1
2023-11-13T04:20:03.562997650+00:00,0,0
2023-11-13T04:20:03.574118660+00:00,1,0
2023-11-13T04:20:03.574168670+00:00,0,0
2023-11-13T04:20:03.662994060+00:00,0,1
2023-11-13T04:20:03.662994130+00:00,0,0
2023-11-13T04:20:03.674118430+00:00,1,0
2023-11-13T04:20:03.674168440+00:00,0,0
2023-11-13T04:20:03.762999050+00:00,0,1
2023-11-13T04:20:03.762999110+00:00,0,0
2023-11-13T04:20:03.774118200+00:00,1,0
2023-11-13T04:20:03.774168210+00:00,0,0
2023-11-13T04:20:03.862995450+00:00,0,1
2023-11-13T04:20:03.862995520+00:00,0,0
2023-11-13T04:20:03.874117970+00:00,1,0
2023-11-13T04:20:03.874167980+00:00,0,0
2023-11-13T04:20:03.962991890+00:00,0,1
2023-11-13T04:20:03.962991960+00:00,0,0
2023-11-13T04:20:03.974117740+00:00,1,0
2023-11-13T04:20:03.974167750+00:00,0,0
2023-11-13T04:20:04.062997510+00:00,0,1
2023-11-13T04:20:04.062997570+00:00,0,0
2023-11-13T04:20:04.074117510+00:00,1,0
2023-11-13T04:20:04.074167520+00:00,0,0
2023-11-13T04:20:04.162993830+00:00,0,1
2023-11-13T04:20:04.162993890+00:00,0,0
2023-11-13T04:20:04.174117280+00:00,1,0
2023-11-13T04:20:04.174167290+00:00,0,0
2023-11-13T04:20:04.262990250+00:00,0,1
2023-11-13T04:20:04.262990320+00:00,0,0
2023-11-13T04:20:04.274117050+00:00,1,0
2023-11-13T04:20:04.274167060+00:00,0,0
2023-11-13T04:20:04.362995310+00:00,0,1
2023-11-13T04:20:04.362995380+00:00,0,0
2023-11-13T04:20:04.374116820+00:00,1,0
2023-11-13T04:20:04.374166830+00:00,0,0
2023-11-13T04:20:04.462991760+00:00,0,1
2023-11-13T04:20:04.462991830+00:00,0,0
2023-11-13T04:20:04.474116590+00:00,1,0
2023-11-13T04:20:04.474166600+00:00,0,0
2023-11-13T04:20:04.562996750+00:00,0,1
2023-11-13T04:20:04.562996810+00:00,0,0
2023-11-13T04:20:04.574116360+00:00,1,0
2023-11-13T04:20:04.574166370+00:00,0,0
2023-11-13T04:20:04.662993200+00:00,0,1
2023-11-13T04:20:04.662993260+00:00,0,0
2023-11-13T04:20:04.674116130+00:00,1,0
2023-11-13T04:20:04.674166140+00:00,0,0
2023-11-13T04:20:04.762989610+00:00,0,1
2023-11-13T04:20:04.762989680+00:00,0,0
2023-11-13T04:20:04.774115900+00:00,1,0
2023-11-13T04:20:04.774165910+00:00,0,0
2023-11-13T04:20:04.862994680+00:00,0,1
2023-11-13T04:20:04.862994750+00:00,0,0
2023-11-13T04:20:04.874115670+00:00,1,0
2023-11-13T04:20:04.874165680+00:00,0,0
2023-11-13T04:20:04.962991000+00:00,0,1
2023-11-13T04:20:04.962991070+00:00,0,0
2023-11-13T04:20:04.974115440+00:00,1,0
2023-11-13T04:20:04.974165450+00:00,0,0
2023-11-13T04:20:05.062996090+00:00,0,1
2023-11-13T04:20:05.062996160+00:00,0,0
2023-11-13T04:20:05.074115210+00:00,1,0
2023-11-13T04:20:05.074165220+00:00,0,0
2023-11-13T04:20:05.162992530+00:00,0,1
2023-11-13T04:20:05.162992600+00:00,0,0
2023-11-13T04:20:05.174114980+00:00,1,0
2023-11-13T04:20:05.174164990+00:00,0,0
2023-11-13T04:20:05.262988860+00:00,0,1
2023-11-13T04:20:05.262988930+00:00,0,0
2023-11-13T04:20:05.274114750+00:00,1,0
2023-11-13T04:20:05.274164760+00:00,0,0
2023-11-13T04:20:05.362993970+00:00,0,1
2023-11-13T04:20:05.362994040+00:00,0,0
2023-11-13T04:20:05.374114520+00:00,1,0
2023-11-13T04:20:05.374164530+00:00,0,0
2023-11-13T04:20:05.462990940+00:00,0,1
2023-11-13T04:20:05.462991000+00:00,0,0
2023-11-13T04:20:05.474114290+00:00,1,0
2023-11-13T04:20:05.474164300+00:00,0,0
2023-11-13T04:20:05.562987260+00:00,0,1
2023-11-13T04:20:05.562987330+00:00,0,0
2023-11-13T04:20:05.574114060+00:00,1,0
2023-11-13T04:20:05.574164070+00:00,0,0
2023-11-13T04:20:05.662992350+00:00,0,1
2023-11-13T04:20:05.662992420+00:00,0,0
2023-11-13T04:20:05.674113830+00:00,1,0
2023-11-13T04:20:05.674163840+00:00,0,0
2023-11-13T04:20:05.762988700+00:00,0,1
2023-11-13T04:20:05.762988760+00:00,0,0
2023-11-13T04:20:05.774113600+00:00,1,0
2023-11-13T04:20:05.774163610+00:00,0,0
2023-11-13T04:20:05.862993860+00:00,0,1
2023-11-13T04:20:05.862993920+00:00,0,0
2023-11-13T04:20:05.874113370+00:00,1,0
2023-11-13T04:20:05.874163380+00:00,0,0
2023-11-13T04:20:05.962990200+00:00,0,1
2023-11-13T04:20:05.962990270+00:00,0,0
2023-11-13T04:20:05.974113140+00:00,1,0
2023-11-13T04:20:05.974163150+00:00,0,0
2023-11-13T04:20:06.062986650+00:00,0,1
2023-11-13T04:20:06.062986710+00:00,0,0
2023-11-13T04:20:06.074112910+00:00,1,0
2023-11-13T04:20:06.074162920+00:00,0,0
2023-11-13T04:20:06.162991640+00:00,0,1
2023-11-13T04:20:06.162991710+00:00,0,0
2023-11-13T04:20:06.174112680+00:00,1,0
2023-11-13T04:20:06.174162690+00:00,0,0
2023-11-13T04:20:06.262988110+00:00,0,1
2023-11-13T04:20:06.262988170+00:00,0,0
2023-11-13T04:20:06.274112450+00:00,1,0
2023-11-13T04:20:06.274162460+00:00,0,0
2023-11-13T04:20:06.362993070+00:00,0,1
2023-11-13T04:20:06.362993140+00:00,0,0
2023-11-13T04:20:06.374112220+00:00,1,0
2023-11-13T04:20:06.374162230+00:00,0,0
2023-11-13T04:20:06.462989530+00:00,0,1
2023-11-13T04:20:06.462989590+00:00,0,0
2023-11-13T04:20:06.474111990+00:00,1,0
2023-11-13T04:20:06.474161990+00:00,0,0
2023-11-13T04:20:06.562985910+00:00,0,1
2023-11-13T04:20:06.562985980+00:00,0,0
2023-11-13T04:20:06.574111760+00:00,1,0
2023-11-13T04:20:06.574161760+00:00,0,0
2023-11-13T04:20:06.662991020+00:00,0,1
2023-11-13T04:20:06.662991090+00:00,0,0
2023-11-13T04:20:06.674111520+00:00,1,0
2023-11-13T04:20:06.674161530+00:00,0,0
2023-11-13T04:20:06.762987920+00:00,0,1
2023-11-13T04:20:06.762987990+00:00,0,0
2023-11-13T04:20:06.774111290+00:00,1,0
2023-11-13T04:20:06.774161300+00:00,0,0
2023-11-13T04:20:06.862984300+00:00,0,1
2023-11-13T04:20:06.862984360+00:00,0,0
2023-11-13T04:20:06.874111060+00:00,1,0
2023-11-13T04:20:06.874161070+00:00,0,0
2023-11-13T04:20:06.962989310+00:00,0,1
2023-11-13T04:20:06.962989370+00:00,0,0
2023-11-13T04:20:06.974110830+00:00,1,0
2023-11-13T04:20:06.974160840+00:00,0,0
2023-11-13T04:20:07.062985710+00:00,0,1
2023-11-13T04:20:07.062985780+00:00,0,0
2023-11-13T04:20:07.074110600+00:00,1,0
2023-11-13T04:20:07.074160610+00:00,0,0
2023-11-13T04:20:07.162990790+00:00,0,1
2023-11-13T04:20:07.162990860+00:00,0,0
2023-11-13T04:20:07.174110370+00:00,1,0
2023-11-13T04:20:07.174160380+00:00,0,0
2023-11-13T04:20:07.262987210+00:00,0,1
2023-11-13T04:20:07.262987280+00:00,0,0
2023-11-13T04:20:07.274110140+00:00,1,0
2023-11-13T04:20:07.274160150+00:00,0,0
2023-11-13T04:20:07.362983580+00:00,0,1
2023-11-13T04:20:07.362983650+00:00,0,0
2023-11-13T04:20:07.374109910+00:00,1,0
2023-11-13T04:20:07.374159920+00:00,0,0
2023-11-13T04:20:07.462988700+00:00,0,1
2023-11-13T04:20:07.462988760+00:00,0,0
2023-11-13T04:20:07.474109680+00:00,1,0
2023-11-13T04:20:07.474159690+00:00,0,0
2023-11-13T04:20:07.562985060+00:00,0,1
2023-11-13T04:20:07.562985130+00:00,0,0
2023-11-13T04:20:07.574109450+00:00,1,0
2023-11-13T04:20:07.574159460+00:00,0,0
2023-11-13T04:20:07.662990080+00:00,0,1
2023-11-13T04:20:07.662990150+00:00,0,0
2023-11-13T04:20:07.674109220+00:00,1,0
2023-11-13T04:20:07.674159230+00:00,0,0
2023-11-13T04:20:07.762986470+00:00,0,1
2023-11-13T04:20:07.762986540+00:00,0,0
2023-11-13T04:20:07.774108990+00:00,1,0
2023-11-13T04:20:07.774159000+00:00,0,0
2023-11-13T04:20:07.862982870+00:00,0,1
2023-11-13T04:20:07.862982940+00:00,0,0
2023-11-13T04:20:07.874108760+00:00,1,0
2023-11-13T04:20:07.874158770+00:00,0,0
2023-11-13T04:20:07.962987980+00:00,0,1
2023-11-13T04:20:07.962988040+00:00,0,0
2023-11-13T04:20:07.974108530+00:00,1,0
2023-11-13T04:20:07.974158540+00:00,0,0
2023-11-13T04:20:08.062984940+00:00,0,1
2023-11-13T04:20:08.062985010+00:00,0,0
2023-11-13T04:20:08.074108300+00:00,1,0
2023-11-13T04:20:08.074158310+00:00,0,0
2023-11-13T04:20:08.162981310+00:00,0,1
2023-11-13T04:20:08.162981380+00:00,0,0
2023-11-13T04:20:08.174108070+00:00,1,0
2023-11-13T04:20:08.174158070+00:00,0,0
2023-11-13T04:20:08.262986400+00:00,0,1
2023-11-13T04:20:08.262986470+00:00,0,0
2023-11-13T04:20:08.274107830+00:00,1,0
2023-11-13T04:20:08.274157840+00:00,0,0
2023-11-13T04:20:08.362982720+00:00,0,1
2023-11-13T04:20:08.362982790+00:00,0,0
2023-11-13T04:20:08.374107600+00:00,1,0
2023-11-13T04:20:08.374157610+00:00,0,0
2023-11-13T04:20:08.462987860+00:00,0,1
2023-11-13T04:20:08.462987920+00:00,0,0
2023-11-13T04:20:08.474107370+00:00,1,0
2023-11-13T04:20:08.474157380+00:00,0,0
2023-11-13T04:20:08.562984180+00:00,0,1
2023-11-13T04:20:08.562984250+00:00,0,0
2023-11-13T04:20:08.574107140+00:00,1,0
2023-11-13T04:20:08.574157150+00:00,0,0
2023-11-13T04:20:08.662980620+00:00,0,1
2023-11-13T04:20:08.662980690+00:00,0,0
2023-11-13T04:20:08.674106910+00:00,1,0
2023-11-13T04:20:08.674156920+00:00,0,0
2023-11-13T04:20:08.762985700+00:00,0,1
2023-11-13T04:20:08.762985770+00:00,0,0
2023-11-13T04:20:08.774106680+00:00,1,0
2023-11-13T04:20:08.774156690+00:00,0,0
2023-11-13T04:20:08.862982080+00:00,0,1
2023-11-13T04:20:08.862982150+00:00,0,0
2023-11-13T04:20:08.874106450+00:00,1,0
2023-11-13T04:20:08.874156460+00:00,0,0
2023-11-13T04:20:08.962987160+00:00,0,1
2023-11-13T04:20:08.962987230+00:00,0,0
2023-11-13T04:20:08.974106220+00:00,1,0
2023-11-13T04:20:08.974156230+00:00,0,0
2023-11-13T04:20:09.062983520+00:00,0,1
2023-11-13T04:20:09.062983590+00:00,0,0
2023-11-13T04:20:09.074105990+00:00,1,0
2023-11-13T04:20:09.074156000+00:00,0,0
2023-11-13T04:20:09.162979950+00:00,0,1
2023-11-13T04:20:09.162980020+00:00,0,0
2023-11-13T04:20:09.174105760+00:00,1,0
2023-11-13T04:20:09.174155770+00:00,0,0
2023-11-13T04:20:09.262984930+00:00,0,1
2023-11-13T04:20:09.262984990+00:00,0,0
2023-11-13T04:20:09.274105530+00:00,1,0
2023-11-13T04:20:09.274155530+00:00,0,0
2023-11-13T04:20:09.362981890+00:00,0,1
2023-11-13T04:20:09.362981950+00:00,0,0
2023-11-13T04:20:09.374105290+00:00,1,0
2023-11-13T04:20:09.374155300+00:00,0,0
2023-11-13T04:20:09.462978330+00:00,0,1
2023-11-13T04:20:09.462978400+00:00,0,0
2023-11-13T04:20:09.474105060+00:00,1,0
2023-11-13T04:20:09.474155070+00:00,0,0
2023-11-13T04:20:09.562983300+00:00,0,1
2023-11-13T04:20:09.562983360+00:00,0,0
2023-11-13T04:20:09.574104830+00:00,1,0
2023-11-13T04:20:09.574154840+00:00,0,0
2023-11-13T04:20:09.662979760+00:00,0,1
2023-11-13T04:20:09.662979830+00:00,0,0
2023-11-13T04:20:09.674104600+00:00,1,0
2023-11-13T04:20:09.674154610+00:00,0,0
2023-11-13T04:20:09.762984840+00:00,0,1
2023-11-13T04:20:09.762984910+00:00,0,0
2023-11-13T04:20:09.774104370+00:00,1,0
2023-11-13T04:20:09.774154380+00:00,0,0
2023-11-13T04:20:09.862981150+00:00,0,1
2023-11-13T04:20:09.862981220+00:00,0,0
2023-11-13T04:20:09.874104140+00:00,1,0
2023-11-13T04:20:09.874154150+00:00,0,0
2023-11-13T04:20:09.962977540+00:00,0,1
2023-11-13T04:20:09.962977610+00:00,0,0
2023-11-13T04:20:09.974103910+00:00,1,0
2023-11-13T04:20:09.974153920+00:00,0,0
2023-11-13T04:20:10.062982700+00:00,0,1
2023-11-13T04:20:10.062982760+00:00,0,0
2023-11-13T04:20:10.074103680+00:00,1,0
2023-11-13T04:20:10.074153690+00:00,0,0
2023-11-13T04:20:10.162979020+00:00,0,1
2023-11-13T04:20:10.162979090+00:00,0,0
2023-11-13T04:20:10.174103450+00:00,1,0
2023-11-13T04:20:10.174153450+00:00,0,0
2023-11-13T04:20:10.262984070+00:00,0,1
2023-11-13T04:20:10.262984130+00:00,0,0
2023-11-13T04:20:10.274103210+00:00,1,0
2023-11-13T04:20:10.274153220+00:00,0,0
2023-11-13T04:20:10.362980520+00:00,0,1
2023-11-13T04:20:10.362980580+00:00,0,0
2023-11-13T04:20:10.374102980+00:00,1,0
2023-11-13T04:20:10.374152990+00:00,0,0
2023-11-13T04:20:10.462976930+00:00,0,1
2023-11-13T04:20:10.462976990+00:00,0,0
2023-11-13T04:20:10.474102750+00:00,1,0
2023-11-13T04:20:10.474152760+00:00,0,0
2023-11-13T04:20:10.562981910+00:00,0,1
2023-11-13T04:20:10.562981970+00:00,0,0
2023-11-13T04:20:10.574102520+00:00,1,0
2023-11-13T04:20:10.574152530+00:00,0,0
2023-11-13T04:20:10.662978860+00:00,0,1
2023-11-13T04:20:10.662978930+00:00,0,0
2023-11-13T04:20:10.674102290+00:00,1,0
2023-11-13T04:20:10.674152300+00:00,0,0
2023-11-13T04:20:10.762975300+00:00,0,1
2023-11-13T04:20:10.762975370+00:00,0,0
2023-11-13T04:20:10.774102060+00:00,1,0
2023-11-13T04:20:10.774152070+00:00,0,0
2023-11-13T04:20:10.862980350+00:00,0,1
2023-11-13T04:20:10.862980420+00:00,0,0
2023-11-13T04:20:10.874101830+00:00,1,0
2023-11-13T04:20:10.874151840+00:00,0,0
2023-11-13T04:20:10.962976690+00:00,0,1
2023-11-13T04:20:10.962976760+00:00,0,0
2023-11-13T04:20:10.974101600+00:00,1,0
2023-11-13T04:20:10.974151600+00:00,0,0
