Time [s],Channel 0,Channel 1
2023-12-06T08:43:30.537220000+00:00,0,0
2023-12-06T08:43:30.592829060+00:00,1,0
2023-12-06T08:43:30.592879080+00:00,0,0
2023-12-06T08:43:30.632582260+00:00,0,1
2023-12-06T08:43:30.632582730+00:00,0,0
2023-12-06T08:43:30.692828690+00:00,1,0
2023-12-06T08:43:30.692878710+00:00,0,0
2023-12-06T08:43:30.723884900+00:00,0,1
2023-12-06T08:43:30.723885370+00:00,0,0
2023-12-06T08:43:30.792828320+00:00,1,0
2023-12-06T08:43:30.792878340+00:00,0,0
2023-12-06T08:43:30.829008050+00:00,0,1
2023-12-06T08:43:30.829008520+00:00,0,0
2023-12-06T08:43:30.892827950+00:00,1,0
2023-12-06T08:43:30.892877960+00:00,0,0
2023-12-06T08:43:30.944816520+00:00,0,1
2023-12-06T08:43:30.944816980+00:00,0,0
2023-12-06T08:43:30.992827570+00:00,1,0
2023-12-06T08:43:30.992877590+00:00,0,0
2023-12-06T08:43:31.023912090+00:00,0,1
2023-12-06T08:43:31.023912550+00:00,0,0
2023-12-06T08:43:31.092827200+00:00,1,0
2023-12-06T08:43:31.092877220+00:00,0,0
2023-12-06T08:43:31.129034080+00:00,0,1
2023-12-06T08:43:31.129034540+00:00,0,0
2023-12-06T08:43:31.192826830+00:00,1,0
2023-12-06T08:43:31.192876850+00:00,0,0
2023-12-06T08:43:31.232638530+00:00,0,1
2023-12-06T08:43:31.232638990+00:00,0,0
2023-12-06T08:43:31.292826460+00:00,1,0
2023-12-06T08:43:31.292876480+00:00,0,0
2023-12-06T08:43:31.323940270+00:00,0,1
2023-12-06T08:43:31.323940720+00:00,0,0
2023-12-06T08:43:31.392826090+00:00,1,0
2023-12-06T08:43:31.392876110+00:00,0,0
2023-12-06T08:43:31.439946110+00:00,0,1
2023-12-06T08:43:31.439946580+00:00,0,0
2023-12-06T08:43:31.492825720+00:00,1,0
2023-12-06T08:43:31.492875730+00:00,0,0
2023-12-06T08:43:31.532658790+00:00,0,1
2023-12-06T08:43:31.532659260+00:00,0,0
2023-12-06T08:43:31.592825340+00:00,1,0
2023-12-06T08:43:31.592875360+00:00,0,0
2023-12-06T08:43:31.650114590+00:00,0,1
2023-12-06T08:43:31.650115060+00:00,0,0
2023-12-06T08:43:31.692824970+00:00,1,0
2023-12-06T08:43:31.692874990+00:00,0,0
2023-12-06T08:43:31.729071130+00:00,0,1
2023-12-06T08:43:31.729071590+00:00,0,0
2023-12-06T08:43:31.792824600+00:00,1,0
2023-12-06T08:43:31.792874620+00:00,0,0
2023-12-06T08:43:31.832660930+00:00,0,1
2023-12-06T08:43:31.832661390+00:00,0,0
2023-12-06T08:43:31.892824230+00:00,1,0
2023-12-06T08:43:31.892874250+00:00,0,0
2023-12-06T08:43:31.923979750+00:00,0,1
2023-12-06T08:43:31.923980200+00:00,0,0
2023-12-06T08:43:31.992823860+00:00,1,0
2023-12-06T08:43:31.992873870+00:00,0,0
2023-12-06T08:43:32.029078350+00:00,0,1
2023-12-06T08:43:32.029078820+00:00,0,0
2023-12-06T08:43:32.092823490+00:00,1,0
2023-12-06T08:43:32.092873500+00:00,0,0
2023-12-06T08:43:32.132684080+00:00,0,1
2023-12-06T08:43:32.132684550+00:00,0,0
2023-12-06T08:43:32.192823110+00:00,1,0
2023-12-06T08:43:32.192873130+00:00,0,0
2023-12-06T08:43:32.223999550+00:00,0,1
2023-12-06T08:43:32.224000000+00:00,0,0
2023-12-06T08:43:32.292822740+00:00,1,0
2023-12-06T08:43:32.292872760+00:00,0,0
2023-12-06T08:43:32.332893930+00:00,0,1
2023-12-06T08:43:32.332894390+00:00,0,0
2023-12-06T08:43:32.392822370+00:00,1,0
2023-12-06T08:43:32.392872390+00:00,0,0
2023-12-06T08:43:32.432696780+00:00,0,1
2023-12-06T08:43:32.432697250+00:00,0,0
2023-12-06T08:43:32.492822000+00:00,1,0
2023-12-06T08:43:32.492872020+00:00,0,0
2023-12-06T08:43:32.524019790+00:00,0,1
2023-12-06T08:43:32.524020240+00:00,0,0
2023-12-06T08:43:32.592821630+00:00,1,0
2023-12-06T08:43:32.592871650+00:00,0,0
2023-12-06T08:43:32.629121640+00:00,0,1
2023-12-06T08:43:32.629122110+00:00,0,0
2023-12-06T08:43:32.692821260+00:00,1,0
2023-12-06T08:43:32.692871270+00:00,0,0
2023-12-06T08:43:32.732733940+00:00,0,1
2023-12-06T08:43:32.732734410+00:00,0,0
2023-12-06T08:43:32.792820880+00:00,1,0
2023-12-06T08:43:32.792870900+00:00,0,0
2023-12-06T08:43:32.824039560+00:00,0,1
2023-12-06T08:43:32.824040020+00:00,0,0
2023-12-06T08:43:32.892820510+00:00,1,0
2023-12-06T08:43:32.892870530+00:00,0,0
2023-12-06T08:43:32.929141660+00:00,0,1
2023-12-06T08:43:32.929142120+00:00,0,0
2023-12-06T08:43:32.992820140+00:00,1,0
2023-12-06T08:43:32.992870160+00:00,0,0
2023-12-06T08:43:33.032754190+00:00,0,1
2023-12-06T08:43:33.032754660+00:00,0,0
2023-12-06T08:43:33.092819770+00:00,1,0
2023-12-06T08:43:33.092869790+00:00,0,0
2023-12-06T08:43:33.124041150+00:00,0,1
2023-12-06T08:43:33.124041600+00:00,0,0
2023-12-06T08:43:33.192819400+00:00,1,0
2023-12-06T08:43:33.192869420+00:00,0,0
2023-12-06T08:43:33.232954090+00:00,0,1
2023-12-06T08:43:33.232954540+00:00,0,0
2023-12-06T08:43:33.292819030+00:00,1,0
2023-12-06T08:43:33.292869040+00:00,0,0
2023-12-06T08:43:33.332766440+00:00,0,1
2023-12-06T08:43:33.332766910+00:00,0,0
2023-12-06T08:43:33.392818650+00:00,1,0
2023-12-06T08:43:33.392868670+00:00,0,0
2023-12-06T08:43:33.427956970+00:00,0,1
2023-12-06T08:43:33.427957420+00:00,0,0
2023-12-06T08:43:33.492818280+00:00,1,0
2023-12-06T08:43:33.492868300+00:00,0,0
2023-12-06T08:43:33.529188250+00:00,0,1
2023-12-06T08:43:33.529188710+00:00,0,0
2023-12-06T08:43:33.592817910+00:00,1,0
2023-12-06T08:43:33.592867930+00:00,0,0
2023-12-06T08:43:33.644996750+00:00,0,1
2023-12-06T08:43:33.644997220+00:00,0,0
2023-12-06T08:43:33.692817540+00:00,1,0
2023-12-06T08:43:33.692867560+00:00,0,0
2023-12-06T08:43:33.724084560+00:00,0,1
2023-12-06T08:43:33.724085030+00:00,0,0
2023-12-06T08:43:33.792817170+00:00,1,0
2023-12-06T08:43:33.792867190+00:00,0,0
2023-12-06T08:43:33.829202580+00:00,0,1
2023-12-06T08:43:33.829203050+00:00,0,0
2023-12-06T08:43:33.892816800+00:00,1,0
2023-12-06T08:43:33.892866810+00:00,0,0
2023-12-06T08:43:33.934088670+00:00,0,1
2023-12-06T08:43:33.934089130+00:00,0,0
2023-12-06T08:43:33.992816420+00:00,1,0
2023-12-06T08:43:33.992866440+00:00,0,0
2023-12-06T08:43:34.024099320+00:00,0,1
2023-12-06T08:43:34.024099780+00:00,0,0
2023-12-06T08:43:34.092816050+00:00,1,0
2023-12-06T08:43:34.092866070+00:00,0,0
2023-12-06T08:43:34.144102460+00:00,0,1
2023-12-06T08:43:34.144102930+00:00,0,0
2023-12-06T08:43:34.192815680+00:00,1,0
2023-12-06T08:43:34.192865700+00:00,0,0
2023-12-06T08:43:34.232691830+00:00,0,1
2023-12-06T08:43:34.232692290+00:00,0,0
2023-12-06T08:43:34.292815310+00:00,1,0
2023-12-06T08:43:34.292865330+00:00,0,0
2023-12-06T08:43:34.324118850+00:00,0,1
2023-12-06T08:43:34.324119320+00:00,0,0
2023-12-06T08:43:34.392814940+00:00,1,0
2023-12-06T08:43:34.392864950+00:00,0,0
2023-12-06T08:43:34.429258780+00:00,0,1
2023-12-06T08:43:34.429259250+00:00,0,0
2023-12-06T08:43:34.492814560+00:00,1,0
2023-12-06T08:43:34.492864580+00:00,0,0
2023-12-06T08:43:34.532717470+00:00,0,1
2023-12-06T08:43:34.532717920+00:00,0,0
2023-12-06T08:43:34.592814190+00:00,1,0
2023-12-06T08:43:34.592864210+00:00,0,0
2023-12-06T08:43:34.624141930+00:00,0,1
2023-12-06T08:43:34.624142390+00:00,0,0
2023-12-06T08:43:34.692813820+00:00,1,0
2023-12-06T08:43:34.692863840+00:00,0,0
2023-12-06T08:43:34.729278660+00:00,0,1
2023-12-06T08:43:34.729279130+00:00,0,0
2023-12-06T08:43:34.792813450+00:00,1,0
2023-12-06T08:43:34.792863470+00:00,0,0
2023-12-06T08:43:34.832735700+00:00,0,1
2023-12-06T08:43:34.832736150+00:00,0,0
2023-12-06T08:43:34.892813080+00:00,1,0
2023-12-06T08:43:34.892863100+00:00,0,0
2023-12-06T08:43:34.924157680+00:00,0,1
2023-12-06T08:43:34.924158140+00:00,0,0
2023-12-06T08:43:34.992812710+00:00,1,0
2023-12-06T08:43:34.992862720+00:00,0,0
2023-12-06T08:43:35.033078340+00:00,0,1
2023-12-06T08:43:35.033078790+00:00,0,0
2023-12-06T08:43:35.092812330+00:00,1,0
2023-12-06T08:43:35.092862350+00:00,0,0
2023-12-06T08:43:35.134184460+00:00,0,1
2023-12-06T08:43:35.134184930+00:00,0,0
2023-12-06T08:43:35.192811960+00:00,1,0
2023-12-06T08:43:35.192861980+00:00,0,0
2023-12-06T08:43:35.252763830+00:00,0,1
2023-12-06T08:43:35.252764290+00:00,0,0
2023-12-06T08:43:35.292811590+00:00,1,0
2023-12-06T08:43:35.292861610+00:00,0,0
2023-12-06T08:43:35.329307570+00:00,0,1
2023-12-06T08:43:35.329308040+00:00,0,0
2023-12-06T08:43:35.392811220+00:00,1,0
2023-12-06T08:43:35.392861240+00:00,0,0
2023-12-06T08:43:35.432775430+00:00,0,1
2023-12-06T08:43:35.432775890+00:00,0,0
2023-12-06T08:43:35.492810850+00:00,1,0
2023-12-06T08:43:35.492860860+00:00,0,0
2023-12-06T08:43:35.539302710+00:00,0,1
2023-12-06T08:43:35.539303180+00:00,0,0
2023-12-06T08:43:35.592810480+00:00,1,0
2023-12-06T08:43:35.592860490+00:00,0,0
2023-12-06T08:43:35.629318150+00:00,0,1
2023-12-06T08:43:35.629318610+00:00,0,0
2023-12-06T08:43:35.692810100+00:00,1,0
2023-12-06T08:43:35.692860120+00:00,0,0
2023-12-06T08:43:35.734209440+00:00,0,1
2023-12-06T08:43:35.734209910+00:00,0,0
2023-12-06T08:43:35.792809730+00:00,1,0
2023-12-06T08:43:35.792859750+00:00,0,0
2023-12-06T08:43:35.824210090+00:00,0,1
2023-12-06T08:43:35.824210560+00:00,0,0
2023-12-06T08:43:35.892809360+00:00,1,0
2023-12-06T08:43:35.892859380+00:00,0,0
2023-12-06T08:43:35.933120480+00:00,0,1
2023-12-06T08:43:35.933120930+00:00,0,0
2023-12-06T08:43:35.992808990+00:00,1,0
2023-12-06T08:43:35.992859000+00:00,0,0
2023-12-06T08:43:36.032818880+00:00,0,1
2023-12-06T08:43:36.032819340+00:00,0,0
2023-12-06T08:43:36.092808610+00:00,1,0
2023-12-06T08:43:36.092858630+00:00,0,0
2023-12-06T08:43:36.124234250+00:00,0,1
2023-12-06T08:43:36.124234720+00:00,0,0
2023-12-06T08:43:36.192808240+00:00,1,0
2023-12-06T08:43:36.192858260+00:00,0,0
2023-12-06T08:43:36.229359930+00:00,0,1
2023-12-06T08:43:36.229360400+00:00,0,0
2023-12-06T08:43:36.292807870+00:00,1,0
2023-12-06T08:43:36.292857890+00:00,0,0
2023-12-06T08:43:36.345298680+00:00,0,1
2023-12-06T08:43:36.345299130+00:00,0,0
2023-12-06T08:43:36.392807500+00:00,1,0
2023-12-06T08:43:36.392857520+00:00,0,0
2023-12-06T08:43:36.424250030+00:00,0,1
2023-12-06T08:43:36.424250490+00:00,0,0
2023-12-06T08:43:36.492807130+00:00,1,0
2023-12-06T08:43:36.492857140+00:00,0,0
2023-12-06T08:43:36.529380560+00:00,0,1
2023-12-06T08:43:36.529381020+00:00,0,0
2023-12-06T08:43:36.592806750+00:00,1,0
2023-12-06T08:43:36.592856770+00:00,0,0
2023-12-06T08:43:36.634272300+00:00,0,1
2023-12-06T08:43:36.634272770+00:00,0,0
2023-12-06T08:43:36.692806380+00:00,1,0
2023-12-06T08:43:36.692856400+00:00,0,0
2023-12-06T08:43:36.724272000+00:00,0,1
2023-12-06T08:43:36.724272470+00:00,0,0
2023-12-06T08:43:36.792806010+00:00,1,0
2023-12-06T08:43:36.792856030+00:00,0,0
2023-12-06T08:43:36.829391390+00:00,0,1
2023-12-06T08:43:36.829391860+00:00,0,0
2023-12-06T08:43:36.892805640+00:00,1,0
2023-12-06T08:43:36.892855660+00:00,0,0
2023-12-06T08:43:36.932868890+00:00,0,1
2023-12-06T08:43:36.932869350+00:00,0,0
2023-12-06T08:43:36.992805270+00:00,1,0
2023-12-06T08:43:36.992855280+00:00,0,0
2023-12-06T08:43:37.024287910+00:00,0,1
2023-12-06T08:43:37.024288380+00:00,0,0
2023-12-06T08:43:37.092804890+00:00,1,0
2023-12-06T08:43:37.092854910+00:00,0,0
2023-12-06T08:43:37.129417310+00:00,0,1
2023-12-06T08:43:37.129417770+00:00,0,0
2023-12-06T08:43:37.192804520+00:00,1,0
2023-12-06T08:43:37.192854540+00:00,0,0
2023-12-06T08:43:37.232888650+00:00,0,1
2023-12-06T08:43:37.232889110+00:00,0,0
2023-12-06T08:43:37.292804150+00:00,1,0
2023-12-06T08:43:37.292854170+00:00,0,0
2023-12-06T08:43:37.324316320+00:00,0,1
2023-12-06T08:43:37.324316780+00:00,0,0
2023-12-06T08:43:37.392803780+00:00,1,0
2023-12-06T08:43:37.392853790+00:00,0,0
2023-12-06T08:43:37.429441370+00:00,0,1
2023-12-06T08:43:37.429441830+00:00,0,0
2023-12-06T08:43:37.492803400+00:00,1,0
2023-12-06T08:43:37.492853420+00:00,0,0
2023-12-06T08:43:37.532905730+00:00,0,1
2023-12-06T08:43:37.532906180+00:00,0,0
2023-12-06T08:43:37.592803030+00:00,1,0
2023-12-06T08:43:37.592853050+00:00,0,0
2023-12-06T08:43:37.624344960+00:00,0,1
2023-12-06T08:43:37.624345410+00:00,0,0
2023-12-06T08:43:37.692802660+00:00,1,0
2023-12-06T08:43:37.692852680+00:00,0,0
2023-12-06T08:43:37.729459440+00:00,0,1
2023-12-06T08:43:37.729459910+00:00,0,0
2023-12-06T08:43:37.792802290+00:00,1,0
2023-12-06T08:43:37.792852300+00:00,0,0
2023-12-06T08:43:37.832927580+00:00,0,1
2023-12-06T08:43:37.832928030+00:00,0,0
2023-12-06T08:43:37.892801910+00:00,1,0
2023-12-06T08:43:37.892851930+00:00,0,0
2023-12-06T08:43:37.924370470+00:00,0,1
2023-12-06T08:43:37.924370920+00:00,0,0
2023-12-06T08:43:37.992801540+00:00,1,0
2023-12-06T08:43:37.992851560+00:00,0,0
2023-12-06T08:43:38.029477000+00:00,0,1
2023-12-06T08:43:38.029477470+00:00,0,0
2023-12-06T08:43:38.092801170+00:00,1,0
2023-12-06T08:43:38.092851190+00:00,0,0
2023-12-06T08:43:38.132944350+00:00,0,1
2023-12-06T08:43:38.132944800+00:00,0,0
2023-12-06T08:43:38.192800800+00:00,1,0
2023-12-06T08:43:38.192850810+00:00,0,0
2023-12-06T08:43:38.235348160+00:00,0,1
2023-12-06T08:43:38.235348610+00:00,0,0
2023-12-06T08:43:38.292800420+00:00,1,0
2023-12-06T08:43:38.292850440+00:00,0,0
2023-12-06T08:43:38.329488710+00:00,0,1
2023-12-06T08:43:38.329489180+00:00,0,0
2023-12-06T08:43:38.392800050+00:00,1,0
2023-12-06T08:43:38.392850070+00:00,0,0
2023-12-06T08:43:38.432968770+00:00,0,1
2023-12-06T08:43:38.432969230+00:00,0,0
2023-12-06T08:43:38.492799680+00:00,1,0
2023-12-06T08:43:38.492849700+00:00,0,0
2023-12-06T08:43:38.524409420+00:00,0,1
2023-12-06T08:43:38.524409870+00:00,0,0
2023-12-06T08:43:38.592799310+00:00,1,0
2023-12-06T08:43:38.592849320+00:00,0,0
2023-12-06T08:43:38.633304710+00:00,0,1
2023-12-06T08:43:38.633305170+00:00,0,0
2023-12-06T08:43:38.692798930+00:00,1,0
2023-12-06T08:43:38.692848950+00:00,0,0
2023-12-06T08:43:38.732985430+00:00,0,1
2023-12-06T08:43:38.732985900+00:00,0,0
2023-12-06T08:43:38.792798560+00:00,1,0
2023-12-06T08:43:38.792848580+00:00,0,0
2023-12-06T08:43:38.824419740+00:00,0,1
2023-12-06T08:43:38.824420200+00:00,0,0
2023-12-06T08:43:38.892798190+00:00,1,0
2023-12-06T08:43:38.892848210+00:00,0,0
2023-12-06T08:43:38.929533380+00:00,0,1
2023-12-06T08:43:38.929533850+00:00,0,0
2023-12-06T08:43:38.992797820+00:00,1,0
2023-12-06T08:43:38.992847830+00:00,0,0
2023-12-06T08:43:39.033011540+00:00,0,1
2023-12-06T08:43:39.033012000+00:00,0,0
2023-12-06T08:43:39.092797440+00:00,1,0
2023-12-06T08:43:39.092847460+00:00,0,0
2023-12-06T08:43:39.138022560+00:00,0,1
2023-12-06T08:43:39.138023030+00:00,0,0
2023-12-06T08:43:39.192797070+00:00,1,0
2023-12-06T08:43:39.192847090+00:00,0,0
2023-12-06T08:43:39.229555400+00:00,0,1
2023-12-06T08:43:39.229555870+00:00,0,0
2023-12-06T08:43:39.292796700+00:00,1,0
2023-12-06T08:43:39.292846720+00:00,0,0
2023-12-06T08:43:39.333028340+00:00,0,1
2023-12-06T08:43:39.333028790+00:00,0,0
2023-12-06T08:43:39.392796330+00:00,1,0
2023-12-06T08:43:39.392846340+00:00,0,0
2023-12-06T08:43:39.424449380+00:00,0,1
2023-12-06T08:43:39.424449850+00:00,0,0
2023-12-06T08:43:39.492795950+00:00,1,0
2023-12-06T08:43:39.492845970+00:00,0,0
2023-12-06T08:43:39.529591360+00:00,0,1
2023-12-06T08:43:39.529591830+00:00,0,0
2023-12-06T08:43:39.592795580+00:00,1,0
2023-12-06T08:43:39.592845600+00:00,0,0
2023-12-06T08:43:39.633051740+00:00,0,1
2023-12-06T08:43:39.633052190+00:00,0,0
2023-12-06T08:43:39.692795210+00:00,1,0
2023-12-06T08:43:39.692845230+00:00,0,0
2023-12-06T08:43:39.724469570+00:00,0,1
2023-12-06T08:43:39.724470030+00:00,0,0
2023-12-06T08:43:39.792794830+00:00,1,0
2023-12-06T08:43:39.792844850+00:00,0,0
2023-12-06T08:43:39.829608290+00:00,0,1
2023-12-06T08:43:39.829608750+00:00,0,0
2023-12-06T08:43:39.892794460+00:00,1,0
2023-12-06T08:43:39.892844480+00:00,0,0
2023-12-06T08:43:39.933067110+00:00,0,1
2023-12-06T08:43:39.933067560+00:00,0,0
2023-12-06T08:43:39.992794090+00:00,1,0
2023-12-06T08:43:39.992844110+00:00,0,0
2023-12-06T08:43:40.038072850+00:00,0,1
2023-12-06T08:43:40.038073310+00:00,0,0
2023-12-06T08:43:40.092793720+00:00,1,0
2023-12-06T08:43:40.092843730+00:00,0,0
2023-12-06T08:43:40.129618620+00:00,0,1
2023-12-06T08:43:40.129619090+00:00,0,0
2023-12-06T08:43:40.192793340+00:00,1,0
2023-12-06T08:43:40.192843360+00:00,0,0
2023-12-06T08:43:40.245427200+00:00,0,1
2023-12-06T08:43:40.245427670+00:00,0,0
2023-12-06T08:43:40.292792970+00:00,1,0
2023-12-06T08:43:40.292842990+00:00,0,0
2023-12-06T08:43:40.323089830+00:00,0,1
2023-12-06T08:43:40.323090300+00:00,0,0
2023-12-06T08:43:40.392792600+00:00,1,0
2023-12-06T08:43:40.392842620+00:00,0,0
2023-12-06T08:43:40.429625870+00:00,0,1
2023-12-06T08:43:40.429626340+00:00,0,0
2023-12-06T08:43:40.492792220+00:00,1,0
2023-12-06T08:43:40.492842240+00:00,0,0
2023-12-06T08:43:40.533109480+00:00,0,1
2023-12-06T08:43:40.533109930+00:00,0,0
2023-12-06T08:43:40.592791850+00:00,1,0
2023-12-06T08:43:40.592841870+00:00,0,0
2023-12-06T08:43:40.623111940+00:00,0,1
2023-12-06T08:43:40.623112400+00:00,0,0
2023-12-06T08:43:40.692791480+00:00,1,0
2023-12-06T08:43:40.692841500+00:00,0,0
2023-12-06T08:43:40.729649030+00:00,0,1
2023-12-06T08:43:40.729649490+00:00,0,0
2023-12-06T08:43:40.792791100+00:00,1,0
2023-12-06T08:43:40.792841120+00:00,0,0
2023-12-06T08:43:40.833124650+00:00,0,1
2023-12-06T08:43:40.833125110+00:00,0,0
2023-12-06T08:43:40.892790730+00:00,1,0
2023-12-06T08:43:40.892840750+00:00,0,0
2023-12-06T08:43:40.938135960+00:00,0,1
2023-12-06T08:43:40.938136410+00:00,0,0
2023-12-06T08:43:40.992790360+00:00,1,0
2023-12-06T08:43:40.992840380+00:00,0,0
2023-12-06T08:43:41.029670210+00:00,0,1
2023-12-06T08:43:41.029670680+00:00,0,0
2023-12-06T08:43:41.092789990+00:00,1,0
2023-12-06T08:43:41.092840000+00:00,0,0
2023-12-06T08:43:41.145555090+00:00,0,1
2023-12-06T08:43:41.145555550+00:00,0,0
2023-12-06T08:43:41.192789610+00:00,1,0
2023-12-06T08:43:41.192839630+00:00,0,0
2023-12-06T08:43:41.224566730+00:00,0,1
2023-12-06T08:43:41.224567200+00:00,0,0
2023-12-06T08:43:41.292789240+00:00,1,0
2023-12-06T08:43:41.292839260+00:00,0,0
2023-12-06T08:43:41.329694090+00:00,0,1
2023-12-06T08:43:41.329694550+00:00,0,0
2023-12-06T08:43:41.392788870+00:00,1,0
2023-12-06T08:43:41.392838880+00:00,0,0
2023-12-06T08:43:41.434575870+00:00,0,1
2023-12-06T08:43:41.434576330+00:00,0,0
2023-12-06T08:43:41.492788490+00:00,1,0
2023-12-06T08:43:41.492838510+00:00,0,0
2023-12-06T08:43:41.535638990+00:00,0,1
2023-12-06T08:43:41.535639440+00:00,0,0
2023-12-06T08:43:41.592788120+00:00,1,0
2023-12-06T08:43:41.592838140+00:00,0,0
2023-12-06T08:43:41.629706580+00:00,0,1
2023-12-06T08:43:41.629707050+00:00,0,0
2023-12-06T08:43:41.692787750+00:00,1,0
2023-12-06T08:43:41.692837770+00:00,0,0
2023-12-06T08:43:41.733184260+00:00,0,1
2023-12-06T08:43:41.733184710+00:00,0,0
2023-12-06T08:43:41.792787380+00:00,1,0
2023-12-06T08:43:41.792837390+00:00,0,0
2023-12-06T08:43:41.823197840+00:00,0,1
2023-12-06T08:43:41.823198300+00:00,0,0
2023-12-06T08:43:41.892787000+00:00,1,0
2023-12-06T08:43:41.892837020+00:00,0,0
2023-12-06T08:43:41.929728300+00:00,0,1
2023-12-06T08:43:41.929728770+00:00,0,0
2023-12-06T08:43:41.992786630+00:00,1,0
2023-12-06T08:43:41.992836650+00:00,0,0
2023-12-06T08:43:42.045548310+00:00,0,1
2023-12-06T08:43:42.045548780+00:00,0,0
2023-12-06T08:43:42.092786260+00:00,1,0
2023-12-06T08:43:42.092836280+00:00,0,0
2023-12-06T08:43:42.123218250+00:00,0,1
2023-12-06T08:43:42.123218700+00:00,0,0
2023-12-06T08:43:42.192785880+00:00,1,0
2023-12-06T08:43:42.192835900+00:00,0,0
2023-12-06T08:43:42.229742580+00:00,0,1
2023-12-06T08:43:42.229743040+00:00,0,0
2023-12-06T08:43:42.292785510+00:00,1,0
2023-12-06T08:43:42.292835530+00:00,0,0
2023-12-06T08:43:42.333232060+00:00,0,1
2023-12-06T08:43:42.333232520+00:00,0,0
2023-12-06T08:43:42.392785140+00:00,1,0
2023-12-06T08:43:42.392835160+00:00,0,0
2023-12-06T08:43:42.423237100+00:00,0,1
2023-12-06T08:43:42.423237550+00:00,0,0
2023-12-06T08:43:42.492784770+00:00,1,0
2023-12-06T08:43:42.492834780+00:00,0,0
2023-12-06T08:43:42.529783910+00:00,0,1
2023-12-06T08:43:42.529784380+00:00,0,0
2023-12-06T08:43:42.592784390+00:00,1,0
2023-12-06T08:43:42.592834410+00:00,0,0
2023-12-06T08:43:42.633250480+00:00,0,1
2023-12-06T08:43:42.633250940+00:00,0,0
2023-12-06T08:43:42.692784020+00:00,1,0
2023-12-06T08:43:42.692834040+00:00,0,0
2023-12-06T08:43:42.723259010+00:00,0,1
2023-12-06T08:43:42.723259470+00:00,0,0
2023-12-06T08:43:42.792783650+00:00,1,0
2023-12-06T08:43:42.792833660+00:00,0,0
2023-12-06T08:43:42.829786060+00:00,0,1
2023-12-06T08:43:42.829786520+00:00,0,0
2023-12-06T08:43:42.892783270+00:00,1,0
2023-12-06T08:43:42.892833290+00:00,0,0
2023-12-06T08:43:42.934697320+00:00,0,1
2023-12-06T08:43:42.934697790+00:00,0,0
2023-12-06T08:43:42.992782900+00:00,1,0
2023-12-06T08:43:42.992832920+00:00,0,0
