Time [s],Channel 0,Channel 1
2023-12-06T08:38:22.432369000+00:00,0,0
2023-12-06T08:38:22.504462600+00:00,1,0
2023-12-06T08:38:22.504512610+00:00,0,0
2023-12-06T08:38:22.530177860+00:00,0,1
2023-12-06T08:38:22.530178310+00:00,0,0
2023-12-06T08:38:22.604462230+00:00,1,0
2023-12-06T08:38:22.604512240+00:00,0,0
2023-12-06T08:38:22.620186240+00:00,0,1
2023-12-06T08:38:22.620186690+00:00,0,0
2023-12-06T08:38:22.704461860+00:00,1,0
2023-12-06T08:38:22.704511880+00:00,0,0
2023-12-06T08:38:22.725190770+00:00,0,1
2023-12-06T08:38:22.725191230+00:00,0,0
2023-12-06T08:38:22.804461490+00:00,1,0
2023-12-06T08:38:22.804511510+00:00,0,0
2023-12-06T08:38:22.830203260+00:00,0,1
2023-12-06T08:38:22.830203710+00:00,0,0
2023-12-06T08:38:22.904461120+00:00,1,0
2023-12-06T08:38:22.904511140+00:00,0,0
2023-12-06T08:38:22.920201710+00:00,0,1
2023-12-06T08:38:22.920202160+00:00,0,0
2023-12-06T08:38:23.004460750+00:00,1,0
2023-12-06T08:38:23.004510770+00:00,0,0
2023-12-06T08:38:23.025216150+00:00,0,1
2023-12-06T08:38:23.025216600+00:00,0,0
2023-12-06T08:38:23.104460380+00:00,1,0
2023-12-06T08:38:23.104510400+00:00,0,0
2023-12-06T08:38:23.130226630+00:00,0,1
2023-12-06T08:38:23.130227080+00:00,0,0
2023-12-06T08:38:23.204460020+00:00,1,0
2023-12-06T08:38:23.204510030+00:00,0,0
2023-12-06T08:38:23.220235000+00:00,0,1
2023-12-06T08:38:23.220235450+00:00,0,0
2023-12-06T08:38:23.304459650+00:00,1,0
2023-12-06T08:38:23.304509660+00:00,0,0
2023-12-06T08:38:23.325239470+00:00,0,1
2023-12-06T08:38:23.325239920+00:00,0,0
2023-12-06T08:38:23.404459280+00:00,1,0
2023-12-06T08:38:23.404509300+00:00,0,0
2023-12-06T08:38:23.430251980+00:00,0,1
2023-12-06T08:38:23.430252430+00:00,0,0
2023-12-06T08:38:23.504458910+00:00,1,0
2023-12-06T08:38:23.504508930+00:00,0,0
2023-12-06T08:38:23.520250450+00:00,0,1
2023-12-06T08:38:23.520250900+00:00,0,0
2023-12-06T08:38:23.604458540+00:00,1,0
2023-12-06T08:38:23.604508560+00:00,0,0
2023-12-06T08:38:23.625262930+00:00,0,1
2023-12-06T08:38:23.625263390+00:00,0,0
2023-12-06T08:38:23.704458170+00:00,1,0
2023-12-06T08:38:23.704508190+00:00,0,0
2023-12-06T08:38:23.730275400+00:00,0,1
2023-12-06T08:38:23.730275860+00:00,0,0
2023-12-06T08:38:23.804457800+00:00,1,0
2023-12-06T08:38:23.804507820+00:00,0,0
2023-12-06T08:38:23.820283830+00:00,0,1
2023-12-06T08:38:23.820284290+00:00,0,0
2023-12-06T08:38:23.904457430+00:00,1,0
2023-12-06T08:38:23.904507450+00:00,0,0
2023-12-06T08:38:23.925288290+00:00,0,1
2023-12-06T08:38:23.925288750+00:00,0,0
2023-12-06T08:38:24.004457060+00:00,1,0
2023-12-06T08:38:24.004507080+00:00,0,0
2023-12-06T08:38:24.030300750+00:00,0,1
2023-12-06T08:38:24.030301210+00:00,0,0
2023-12-06T08:38:24.104456690+00:00,1,0
2023-12-06T08:38:24.104506710+00:00,0,0
2023-12-06T08:38:24.120299270+00:00,0,1
2023-12-06T08:38:24.120299720+00:00,0,0
2023-12-06T08:38:24.204456330+00:00,1,0
2023-12-06T08:38:24.204506340+00:00,0,0
2023-12-06T08:38:24.225311620+00:00,0,1
2023-12-06T08:38:24.225312070+00:00,0,0
2023-12-06T08:38:24.304455960+00:00,1,0
2023-12-06T08:38:24.304505970+00:00,0,0
2023-12-06T08:38:24.345326260+00:00,0,1
2023-12-06T08:38:24.345326710+00:00,0,0
2023-12-06T08:38:24.404455590+00:00,1,0
2023-12-06T08:38:24.404505610+00:00,0,0
2023-12-06T08:38:24.420328610+00:00,0,1
2023-12-06T08:38:24.420329060+00:00,0,0
2023-12-06T08:38:24.504455220+00:00,1,0
2023-12-06T08:38:24.504505240+00:00,0,0
2023-12-06T08:38:24.525333080+00:00,0,1
2023-12-06T08:38:24.525333530+00:00,0,0
2023-12-06T08:38:24.604454850+00:00,1,0
2023-12-06T08:38:24.604504870+00:00,0,0
2023-12-06T08:38:24.630353580+00:00,0,1
2023-12-06T08:38:24.630354030+00:00,0,0
2023-12-06T08:38:24.704454480+00:00,1,0
2023-12-06T08:38:24.704504500+00:00,0,0
2023-12-06T08:38:24.720351980+00:00,0,1
2023-12-06T08:38:24.720352430+00:00,0,0
2023-12-06T08:38:24.804454110+00:00,1,0
2023-12-06T08:38:24.804504130+00:00,0,0
2023-12-06T08:38:24.825364430+00:00,0,1
2023-12-06T08:38:24.825364880+00:00,0,0
2023-12-06T08:38:24.904453740+00:00,1,0
2023-12-06T08:38:24.904503760+00:00,0,0
2023-12-06T08:38:24.930369010+00:00,0,1
2023-12-06T08:38:24.930369470+00:00,0,0
2023-12-06T08:38:25.004453380+00:00,1,0
2023-12-06T08:38:25.004503390+00:00,0,0
2023-12-06T08:38:25.020377320+00:00,0,1
2023-12-06T08:38:25.020377770+00:00,0,0
2023-12-06T08:38:25.104453010+00:00,1,0
2023-12-06T08:38:25.104503020+00:00,0,0
2023-12-06T08:38:25.125381830+00:00,0,1
2023-12-06T08:38:25.125382280+00:00,0,0
2023-12-06T08:38:25.204452640+00:00,1,0
2023-12-06T08:38:25.204502660+00:00,0,0
2023-12-06T08:38:25.230402260+00:00,0,1
2023-12-06T08:38:25.230402720+00:00,0,0
2023-12-06T08:38:25.304452270+00:00,1,0
2023-12-06T08:38:25.304502290+00:00,0,0
2023-12-06T08:38:25.320400820+00:00,0,1
2023-12-06T08:38:25.320401270+00:00,0,0
2023-12-06T08:38:25.404451900+00:00,1,0
2023-12-06T08:38:25.404501920+00:00,0,0
2023-12-06T08:38:25.425413240+00:00,0,1
2023-12-06T08:38:25.425413690+00:00,0,0
2023-12-06T08:38:25.504451530+00:00,1,0
2023-12-06T08:38:25.504501550+00:00,0,0
2023-12-06T08:38:25.530417720+00:00,0,1
2023-12-06T08:38:25.530418180+00:00,0,0
2023-12-06T08:38:25.604451160+00:00,1,0
2023-12-06T08:38:25.604501180+00:00,0,0
2023-12-06T08:38:25.620426150+00:00,0,1
2023-12-06T08:38:25.620426610+00:00,0,0
2023-12-06T08:38:25.704450790+00:00,1,0
2023-12-06T08:38:25.704500810+00:00,0,0
2023-12-06T08:38:25.725430640+00:00,0,1
2023-12-06T08:38:25.725431090+00:00,0,0
2023-12-06T08:38:25.804450420+00:00,1,0
2023-12-06T08:38:25.804500440+00:00,0,0
2023-12-06T08:38:25.830451070+00:00,0,1
2023-12-06T08:38:25.830451530+00:00,0,0
2023-12-06T08:38:25.904450050+00:00,1,0
2023-12-06T08:38:25.904500070+00:00,0,0
2023-12-06T08:38:25.920449540+00:00,0,1
2023-12-06T08:38:25.920449990+00:00,0,0
2023-12-06T08:38:26.004449690+00:00,1,0
2023-12-06T08:38:26.004499700+00:00,0,0
2023-12-06T08:38:26.025461990+00:00,0,1
2023-12-06T08:38:26.025462440+00:00,0,0
2023-12-06T08:38:26.104449320+00:00,1,0
2023-12-06T08:38:26.104499330+00:00,0,0
2023-12-06T08:38:26.130466500+00:00,0,1
2023-12-06T08:38:26.130466950+00:00,0,0
2023-12-06T08:38:26.204448950+00:00,1,0
2023-12-06T08:38:26.204498970+00:00,0,0
2023-12-06T08:38:26.220474930+00:00,0,1
2023-12-06T08:38:26.220475380+00:00,0,0
2023-12-06T08:38:26.304448580+00:00,1,0
2023-12-06T08:38:26.304498600+00:00,0,0
2023-12-06T08:38:26.325479440+00:00,0,1
2023-12-06T08:38:26.325479890+00:00,0,0
2023-12-06T08:38:26.404448210+00:00,1,0
2023-12-06T08:38:26.404498230+00:00,0,0
2023-12-06T08:38:26.430499830+00:00,0,1
2023-12-06T08:38:26.430500290+00:00,0,0
2023-12-06T08:38:26.504447840+00:00,1,0
2023-12-06T08:38:26.504497860+00:00,0,0
2023-12-06T08:38:26.520498270+00:00,0,1
2023-12-06T08:38:26.520498730+00:00,0,0
2023-12-06T08:38:26.604447470+00:00,1,0
2023-12-06T08:38:26.604497490+00:00,0,0
2023-12-06T08:38:26.625510800+00:00,0,1
2023-12-06T08:38:26.625511250+00:00,0,0
2023-12-06T08:38:26.704447100+00:00,1,0
2023-12-06T08:38:26.704497120+00:00,0,0
2023-12-06T08:38:26.730515270+00:00,0,1
2023-12-06T08:38:26.730515720+00:00,0,0
2023-12-06T08:38:26.804446740+00:00,1,0
2023-12-06T08:38:26.804496750+00:00,0,0
2023-12-06T08:38:26.820523650+00:00,0,1
2023-12-06T08:38:26.820524100+00:00,0,0
2023-12-06T08:38:26.904446370+00:00,1,0
2023-12-06T08:38:26.904496380+00:00,0,0
2023-12-06T08:38:26.925528150+00:00,0,1
2023-12-06T08:38:26.925528600+00:00,0,0
2023-12-06T08:38:27.004446000+00:00,1,0
2023-12-06T08:38:27.004496020+00:00,0,0
2023-12-06T08:38:27.030548670+00:00,0,1
2023-12-06T08:38:27.030549120+00:00,0,0
2023-12-06T08:38:27.104445630+00:00,1,0
2023-12-06T08:38:27.104495650+00:00,0,0
2023-12-06T08:38:27.120547070+00:00,0,1
2023-12-06T08:38:27.120547530+00:00,0,0
2023-12-06T08:38:27.204445260+00:00,1,0
2023-12-06T08:38:27.204495280+00:00,0,0
2023-12-06T08:38:27.225559520+00:00,0,1
2023-12-06T08:38:27.225559970+00:00,0,0
2023-12-06T08:38:27.304444890+00:00,1,0
2023-12-06T08:38:27.304494910+00:00,0,0
2023-12-06T08:38:27.330564050+00:00,0,1
2023-12-06T08:38:27.330564510+00:00,0,0
2023-12-06T08:38:27.404444520+00:00,1,0
2023-12-06T08:38:27.404494540+00:00,0,0
2023-12-06T08:38:27.420572420+00:00,0,1
2023-12-06T08:38:27.420572870+00:00,0,0
2023-12-06T08:38:27.504444150+00:00,1,0
2023-12-06T08:38:27.504494170+00:00,0,0
2023-12-06T08:38:27.525577000+00:00,0,1
2023-12-06T08:38:27.525577460+00:00,0,0
2023-12-06T08:38:27.604443780+00:00,1,0
2023-12-06T08:38:27.604493800+00:00,0,0
2023-12-06T08:38:27.630597380+00:00,0,1
2023-12-06T08:38:27.630597830+00:00,0,0
2023-12-06T08:38:27.704443410+00:00,1,0
2023-12-06T08:38:27.704493430+00:00,0,0
2023-12-06T08:38:27.720595860+00:00,0,1
2023-12-06T08:38:27.720596310+00:00,0,0
2023-12-06T08:38:27.804443040+00:00,1,0
2023-12-06T08:38:27.804493060+00:00,0,0
2023-12-06T08:38:27.825608300+00:00,0,1
2023-12-06T08:38:27.825608760+00:00,0,0
2023-12-06T08:38:27.904442670+00:00,1,0
2023-12-06T08:38:27.904492690+00:00,0,0
2023-12-06T08:38:27.930612810+00:00,0,1
2023-12-06T08:38:27.930613270+00:00,0,0
2023-12-06T08:38:28.004442310+00:00,1,0
2023-12-06T08:38:28.004492320+00:00,0,0
2023-12-06T08:38:28.020625240+00:00,0,1
2023-12-06T08:38:28.020625690+00:00,0,0
2023-12-06T08:38:28.104441940+00:00,1,0
2023-12-06T08:38:28.104491950+00:00,0,0
2023-12-06T08:38:28.125629720+00:00,0,1
2023-12-06T08:38:28.125630180+00:00,0,0
2023-12-06T08:38:28.204441570+00:00,1,0
2023-12-06T08:38:28.204491580+00:00,0,0
2023-12-06T08:38:28.230642210+00:00,0,1
2023-12-06T08:38:28.230642660+00:00,0,0
2023-12-06T08:38:28.304441200+00:00,1,0
2023-12-06T08:38:28.304491220+00:00,0,0
2023-12-06T08:38:28.320644620+00:00,0,1
2023-12-06T08:38:28.320645080+00:00,0,0
2023-12-06T08:38:28.404440830+00:00,1,0
2023-12-06T08:38:28.404490850+00:00,0,0
2023-12-06T08:38:28.425657020+00:00,0,1
2023-12-06T08:38:28.425657480+00:00,0,0
2023-12-06T08:38:28.504440460+00:00,1,0
2023-12-06T08:38:28.504490480+00:00,0,0
2023-12-06T08:38:28.530661590+00:00,0,1
2023-12-06T08:38:28.530662050+00:00,0,0
2023-12-06T08:38:28.604440090+00:00,1,0
2023-12-06T08:38:28.604490110+00:00,0,0
2023-12-06T08:38:28.620674010+00:00,0,1
2023-12-06T08:38:28.620674460+00:00,0,0
2023-12-06T08:38:28.704439720+00:00,1,0
2023-12-06T08:38:28.704489740+00:00,0,0
2023-12-06T08:38:28.725678430+00:00,0,1
2023-12-06T08:38:28.725678890+00:00,0,0
2023-12-06T08:38:28.804439350+00:00,1,0
2023-12-06T08:38:28.804489370+00:00,0,0
2023-12-06T08:38:28.830690980+00:00,0,1
2023-12-06T08:38:28.830691430+00:00,0,0
2023-12-06T08:38:28.904438980+00:00,1,0
2023-12-06T08:38:28.904489000+00:00,0,0
2023-12-06T08:38:28.920693390+00:00,0,1
2023-12-06T08:38:28.920693850+00:00,0,0
2023-12-06T08:38:29.004438610+00:00,1,0
2023-12-06T08:38:29.004488630+00:00,0,0
2023-12-06T08:38:29.025705830+00:00,0,1
2023-12-06T08:38:29.025706280+00:00,0,0
2023-12-06T08:38:29.104438240+00:00,1,0
2023-12-06T08:38:29.104488260+00:00,0,0
2023-12-06T08:38:29.130710360+00:00,0,1
2023-12-06T08:38:29.130710820+00:00,0,0
2023-12-06T08:38:29.204437870+00:00,1,0
2023-12-06T08:38:29.204487890+00:00,0,0
2023-12-06T08:38:29.220722730+00:00,0,1
2023-12-06T08:38:29.220723180+00:00,0,0
2023-12-06T08:38:29.304437500+00:00,1,0
2023-12-06T08:38:29.304487520+00:00,0,0
2023-12-06T08:38:29.340727330+00:00,0,1
2023-12-06T08:38:29.340727790+00:00,0,0
2023-12-06T08:38:29.404437130+00:00,1,0
2023-12-06T08:38:29.404487150+00:00,0,0
2023-12-06T08:38:29.430739800+00:00,0,1
2023-12-06T08:38:29.430740250+00:00,0,0
2023-12-06T08:38:29.504436760+00:00,1,0
2023-12-06T08:38:29.504486780+00:00,0,0
2023-12-06T08:38:29.520742140+00:00,0,1
2023-12-06T08:38:29.520742590+00:00,0,0
2023-12-06T08:38:29.604436390+00:00,1,0
2023-12-06T08:38:29.604486410+00:00,0,0
2023-12-06T08:38:29.625754610+00:00,0,1
2023-12-06T08:38:29.625755070+00:00,0,0
2023-12-06T08:38:29.704436030+00:00,1,0
2023-12-06T08:38:29.704486040+00:00,0,0
2023-12-06T08:38:29.730759120+00:00,0,1
2023-12-06T08:38:29.730759570+00:00,0,0
2023-12-06T08:38:29.804435660+00:00,1,0
2023-12-06T08:38:29.804485670+00:00,0,0
2023-12-06T08:38:29.820771500+00:00,0,1
2023-12-06T08:38:29.820771950+00:00,0,0
2023-12-06T08:38:29.904435290+00:00,1,0
2023-12-06T08:38:29.904485300+00:00,0,0
2023-12-06T08:38:29.925776080+00:00,0,1
2023-12-06T08:38:29.925776540+00:00,0,0
2023-12-06T08:38:30.004434920+00:00,1,0
2023-12-06T08:38:30.004484930+00:00,0,0
2023-12-06T08:38:30.030788460+00:00,0,1
2023-12-06T08:38:30.030788910+00:00,0,0
2023-12-06T08:38:30.104434550+00:00,1,0
2023-12-06T08:38:30.104484560+00:00,0,0
2023-12-06T08:38:30.120790980+00:00,0,1
2023-12-06T08:38:30.120791440+00:00,0,0
2023-12-06T08:38:30.204434180+00:00,1,0
2023-12-06T08:38:30.204484190+00:00,0,0
2023-12-06T08:38:30.225803410+00:00,0,1
2023-12-06T08:38:30.225803860+00:00,0,0
2023-12-06T08:38:30.304433810+00:00,1,0
2023-12-06T08:38:30.304483820+00:00,0,0
2023-12-06T08:38:30.330807850+00:00,0,1
2023-12-06T08:38:30.330808310+00:00,0,0
2023-12-06T08:38:30.404433440+00:00,1,0
2023-12-06T08:38:30.404483460+00:00,0,0
2023-12-06T08:38:30.420820320+00:00,0,1
2023-12-06T08:38:30.420820770+00:00,0,0
2023-12-06T08:38:30.504433070+00:00,1,0
2023-12-06T08:38:30.504483080+00:00,0,0
2023-12-06T08:38:30.525824750+00:00,0,1
2023-12-06T08:38:30.525825210+00:00,0,0
2023-12-06T08:38:30.604432700+00:00,1,0
2023-12-06T08:38:30.604482710+00:00,0,0
2023-12-06T08:38:30.630837240+00:00,0,1
2023-12-06T08:38:30.630837690+00:00,0,0
2023-12-06T08:38:30.704432330+00:00,1,0
2023-12-06T08:38:30.704482340+00:00,0,0
2023-12-06T08:38:30.720839700+00:00,0,1
2023-12-06T08:38:30.720840160+00:00,0,0
2023-12-06T08:38:30.804431960+00:00,1,0
2023-12-06T08:38:30.804481970+00:00,0,0
2023-12-06T08:38:30.825852140+00:00,0,1
2023-12-06T08:38:30.825852590+00:00,0,0
2023-12-06T08:38:30.904431590+00:00,1,0
2023-12-06T08:38:30.904481610+00:00,0,0
2023-12-06T08:38:30.930856720+00:00,0,1
2023-12-06T08:38:30.930857170+00:00,0,0
2023-12-06T08:38:31.004431220+00:00,1,0
2023-12-06T08:38:31.004481240+00:00,0,0
2023-12-06T08:38:31.020869070+00:00,0,1
2023-12-06T08:38:31.020869530+00:00,0,0
2023-12-06T08:38:31.104430850+00:00,1,0
2023-12-06T08:38:31.104480870+00:00,0,0
2023-12-06T08:38:31.125873600+00:00,0,1
2023-12-06T08:38:31.125874050+00:00,0,0
2023-12-06T08:38:31.204430480+00:00,1,0
2023-12-06T08:38:31.204480500+00:00,0,0
2023-12-06T08:38:31.230885990+00:00,0,1
2023-12-06T08:38:31.230886450+00:00,0,0
2023-12-06T08:38:31.304430110+00:00,1,0
2023-12-06T08:38:31.304480130+00:00,0,0
2023-12-06T08:38:31.320888470+00:00,0,1
2023-12-06T08:38:31.320888920+00:00,0,0
2023-12-06T08:38:31.404429740+00:00,1,0
2023-12-06T08:38:31.404479760+00:00,0,0
2023-12-06T08:38:31.425900870+00:00,0,1
2023-12-06T08:38:31.425901320+00:00,0,0
2023-12-06T08:38:31.504429370+00:00,1,0
2023-12-06T08:38:31.504479390+00:00,0,0
2023-12-06T08:38:31.530905440+00:00,0,1
2023-12-06T08:38:31.530905890+00:00,0,0
2023-12-06T08:38:31.604429000+00:00,1,0
2023-12-06T08:38:31.604479010+00:00,0,0
2023-12-06T08:38:31.620917820+00:00,0,1
2023-12-06T08:38:31.620918270+00:00,0,0
2023-12-06T08:38:31.704428630+00:00,1,0
2023-12-06T08:38:31.704478640+00:00,0,0
2023-12-06T08:38:31.725922320+00:00,0,1
2023-12-06T08:38:31.725922780+00:00,0,0
2023-12-06T08:38:31.804428260+00:00,1,0
2023-12-06T08:38:31.804478270+00:00,0,0
2023-12-06T08:38:31.830934820+00:00,0,1
2023-12-06T08:38:31.830935280+00:00,0,0
2023-12-06T08:38:31.904427890+00:00,1,0
2023-12-06T08:38:31.904477900+00:00,0,0
2023-12-06T08:38:31.920937220+00:00,0,1
2023-12-06T08:38:31.920937680+00:00,0,0
2023-12-06T08:38:32.004427520+00:00,1,0
2023-12-06T08:38:32.004477530+00:00,0,0
2023-12-06T08:38:32.025949670+00:00,0,1
2023-12-06T08:38:32.025950120+00:00,0,0
2023-12-06T08:38:32.104427150+00:00,1,0
2023-12-06T08:38:32.104477160+00:00,0,0
2023-12-06T08:38:32.130954200+00:00,0,1
2023-12-06T08:38:32.130954660+00:00,0,0
2023-12-06T08:38:32.204426780+00:00,1,0
2023-12-06T08:38:32.204476790+00:00,0,0
2023-12-06T08:38:32.220966570+00:00,0,1
2023-12-06T08:38:32.220967020+00:00,0,0
2023-12-06T08:38:32.304426410+00:00,1,0
2023-12-06T08:38:32.304476420+00:00,0,0
2023-12-06T08:38:32.325971120+00:00,0,1
2023-12-06T08:38:32.325971570+00:00,0,0
2023-12-06T08:38:32.404426040+00:00,1,0
2023-12-06T08:38:32.404476050+00:00,0,0
2023-12-06T08:38:32.430983530+00:00,0,1
2023-12-06T08:38:32.430983980+00:00,0,0
2023-12-06T08:38:32.504425670+00:00,1,0
2023-12-06T08:38:32.504475690+00:00,0,0
2023-12-06T08:38:32.520986000+00:00,0,1
2023-12-06T08:38:32.520986460+00:00,0,0
2023-12-06T08:38:32.604425300+00:00,1,0
2023-12-06T08:38:32.604475310+00:00,0,0
2023-12-06T08:38:32.625998490+00:00,0,1
2023-12-06T08:38:32.625998940+00:00,0,0
2023-12-06T08:38:32.704424930+00:00,1,0
2023-12-06T08:38:32.704474950+00:00,0,0
2023-12-06T08:38:32.746005000+00:00,0,1
2023-12-06T08:38:32.746005460+00:00,0,0
2023-12-06T08:38:32.804424560+00:00,1,0
2023-12-06T08:38:32.804474580+00:00,0,0
2023-12-06T08:38:32.821015380+00:00,0,1
2023-12-06T08:38:32.821015840+00:00,0,0
2023-12-06T08:38:32.904424190+00:00,1,0
2023-12-06T08:38:32.904474210+00:00,0,0
2023-12-06T08:38:32.926019860+00:00,0,1
2023-12-06T08:38:32.926020310+00:00,0,0
2023-12-06T08:38:33.004423820+00:00,1,0
2023-12-06T08:38:33.004473840+00:00,0,0
2023-12-06T08:38:33.031032300+00:00,0,1
2023-12-06T08:38:33.031032760+00:00,0,0
2023-12-06T08:38:33.104423450+00:00,1,0
2023-12-06T08:38:33.104473470+00:00,0,0
2023-12-06T08:38:33.121034770+00:00,0,1
2023-12-06T08:38:33.121035220+00:00,0,0
2023-12-06T08:38:33.204423080+00:00,1,0
2023-12-06T08:38:33.204473100+00:00,0,0
2023-12-06T08:38:33.226047160+00:00,0,1
2023-12-06T08:38:33.226047620+00:00,0,0
2023-12-06T08:38:33.304422710+00:00,1,0
2023-12-06T08:38:33.304472730+00:00,0,0
2023-12-06T08:38:33.331051720+00:00,0,1
2023-12-06T08:38:33.331052180+00:00,0,0
2023-12-06T08:38:33.404422340+00:00,1,0
2023-12-06T08:38:33.404472360+00:00,0,0
2023-12-06T08:38:33.421064150+00:00,0,1
2023-12-06T08:38:33.421064600+00:00,0,0
2023-12-06T08:38:33.504421970+00:00,1,0
2023-12-06T08:38:33.504471990+00:00,0,0
2023-12-06T08:38:33.526068570+00:00,0,1
2023-12-06T08:38:33.526069020+00:00,0,0
2023-12-06T08:38:33.604421600+00:00,1,0
2023-12-06T08:38:33.604471620+00:00,0,0
2023-12-06T08:38:33.631081070+00:00,0,1
2023-12-06T08:38:33.631081520+00:00,0,0
2023-12-06T08:38:33.704421230+00:00,1,0
2023-12-06T08:38:33.704471250+00:00,0,0
2023-12-06T08:38:33.721083580+00:00,0,1
2023-12-06T08:38:33.721084040+00:00,0,0
2023-12-06T08:38:33.804420860+00:00,1,0
2023-12-06T08:38:33.804470870+00:00,0,0
2023-12-06T08:38:33.826095950+00:00,0,1
2023-12-06T08:38:33.826096410+00:00,0,0
2023-12-06T08:38:33.904420490+00:00,1,0
2023-12-06T08:38:33.904470500+00:00,0,0
2023-12-06T08:38:33.931100550+00:00,0,1
2023-12-06T08:38:33.931101000+00:00,0,0
2023-12-06T08:38:34.004420120+00:00,1,0
2023-12-06T08:38:34.004470130+00:00,0,0
2023-12-06T08:38:34.021112850+00:00,0,1
2023-12-06T08:38:34.021113300+00:00,0,0
2023-12-06T08:38:34.104419750+00:00,1,0
2023-12-06T08:38:34.104469760+00:00,0,0
2023-12-06T08:38:34.126117410+00:00,0,1
2023-12-06T08:38:34.126117860+00:00,0,0
2023-12-06T08:38:34.204419380+00:00,1,0
2023-12-06T08:38:34.204469390+00:00,0,0
2023-12-06T08:38:34.231129870+00:00,0,1
2023-12-06T08:38:34.231130320+00:00,0,0
2023-12-06T08:38:34.304419010+00:00,1,0
2023-12-06T08:38:34.304469020+00:00,0,0
2023-12-06T08:38:34.321132280+00:00,0,1
2023-12-06T08:38:34.321132740+00:00,0,0
2023-12-06T08:38:34.404418640+00:00,1,0
2023-12-06T08:38:34.404468650+00:00,0,0
2023-12-06T08:38:34.426144730+00:00,0,1
2023-12-06T08:38:34.426145180+00:00,0,0
2023-12-06T08:38:34.504418270+00:00,1,0
2023-12-06T08:38:34.504468280+00:00,0,0
2023-12-06T08:38:34.531149260+00:00,0,1
2023-12-06T08:38:34.531149720+00:00,0,0
2023-12-06T08:38:34.604417890+00:00,1,0
2023-12-06T08:38:34.604467910+00:00,0,0
2023-12-06T08:38:34.621161680+00:00,0,1
2023-12-06T08:38:34.621162130+00:00,0,0
2023-12-06T08:38:34.704417520+00:00,1,0
2023-12-06T08:38:34.704467540+00:00,0,0
2023-12-06T08:38:34.726166150+00:00,0,1
2023-12-06T08:38:34.726166600+00:00,0,0
2023-12-06T08:38:34.804417150+00:00,1,0
2023-12-06T08:38:34.804467170+00:00,0,0
2023-12-06T08:38:34.831176590+00:00,0,1
2023-12-06T08:38:34.831177050+00:00,0,0
2023-12-06T08:38:34.904416780+00:00,1,0
2023-12-06T08:38:34.904466800+00:00,0,0
