Time [s],Channel 0,Channel 1
2023-12-06T07:43:08.528037000+00:00,0,0
2023-12-06T07:43:08.571461180+00:00,1,0
2023-12-06T07:43:08.571511190+00:00,0,0
2023-12-06T07:43:08.601626370+00:00,0,1
2023-12-06T07:43:08.601626820+00:00,0,0
2023-12-06T07:43:08.671460820+00:00,1,0
2023-12-06T07:43:08.671510840+00:00,0,0
2023-12-06T07:43:08.691637100+00:00,0,1
2023-12-06T07:43:08.691637550+00:00,0,0
2023-12-06T07:43:08.771460460+00:00,1,0
2023-12-06T07:43:08.771510480+00:00,0,0
2023-12-06T07:43:08.796640040+00:00,0,1
2023-12-06T07:43:08.796640500+00:00,0,0
2023-12-06T07:43:08.871460110+00:00,1,0
2023-12-06T07:43:08.871510130+00:00,0,0
2023-12-06T07:43:08.901656890+00:00,0,1
2023-12-06T07:43:08.901657340+00:00,0,0
2023-12-06T07:43:08.971459750+00:00,1,0
2023-12-06T07:43:08.971509770+00:00,0,0
2023-12-06T07:43:08.991659730+00:00,0,1
2023-12-06T07:43:08.991660180+00:00,0,0
2023-12-06T07:43:09.071459400+00:00,1,0
2023-12-06T07:43:09.071509410+00:00,0,0
2023-12-06T07:43:09.096670550+00:00,0,1
2023-12-06T07:43:09.096671000+00:00,0,0
2023-12-06T07:43:09.171459040+00:00,1,0
2023-12-06T07:43:09.171509060+00:00,0,0
2023-12-06T07:43:09.201677490+00:00,0,1
2023-12-06T07:43:09.201677950+00:00,0,0
2023-12-06T07:43:09.271458680+00:00,1,0
2023-12-06T07:43:09.271508700+00:00,0,0
2023-12-06T07:43:09.291690260+00:00,0,1
2023-12-06T07:43:09.291690710+00:00,0,0
2023-12-06T07:43:09.371458330+00:00,1,0
2023-12-06T07:43:09.371508340+00:00,0,0
2023-12-06T07:43:09.396695200+00:00,0,1
2023-12-06T07:43:09.396695660+00:00,0,0
2023-12-06T07:43:09.471457970+00:00,1,0
2023-12-06T07:43:09.471507990+00:00,0,0
2023-12-06T07:43:09.501708000+00:00,0,1
2023-12-06T07:43:09.501708450+00:00,0,0
2023-12-06T07:43:09.571457610+00:00,1,0
2023-12-06T07:43:09.571507630+00:00,0,0
2023-12-06T07:43:09.591710810+00:00,0,1
2023-12-06T07:43:09.591711270+00:00,0,0
2023-12-06T07:43:09.671457260+00:00,1,0
2023-12-06T07:43:09.671507270+00:00,0,0
2023-12-06T07:43:09.696725660+00:00,0,1
2023-12-06T07:43:09.696726110+00:00,0,0
2023-12-06T07:43:09.771456900+00:00,1,0
2023-12-06T07:43:09.771506920+00:00,0,0
2023-12-06T07:43:09.801728560+00:00,0,1
2023-12-06T07:43:09.801729020+00:00,0,0
2023-12-06T07:43:09.871456540+00:00,1,0
2023-12-06T07:43:09.871506560+00:00,0,0
2023-12-06T07:43:09.891741370+00:00,0,1
2023-12-06T07:43:09.891741820+00:00,0,0
2023-12-06T07:43:09.971456190+00:00,1,0
2023-12-06T07:43:09.971506200+00:00,0,0
2023-12-06T07:43:09.996746260+00:00,0,1
2023-12-06T07:43:09.996746720+00:00,0,0
2023-12-06T07:43:10.071455830+00:00,1,0
2023-12-06T07:43:10.071505850+00:00,0,0
2023-12-06T07:43:10.116761210+00:00,0,1
2023-12-06T07:43:10.116761660+00:00,0,0
2023-12-06T07:43:10.171455470+00:00,1,0
2023-12-06T07:43:10.171505490+00:00,0,0
2023-12-06T07:43:10.191761970+00:00,0,1
2023-12-06T07:43:10.191762430+00:00,0,0
2023-12-06T07:43:10.271455120+00:00,1,0
2023-12-06T07:43:10.271505140+00:00,0,0
2023-12-06T07:43:10.296776690+00:00,0,1
2023-12-06T07:43:10.296777150+00:00,0,0
2023-12-06T07:43:10.371454760+00:00,1,0
2023-12-06T07:43:10.371504780+00:00,0,0
2023-12-06T07:43:10.401779710+00:00,0,1
2023-12-06T07:43:10.401780170+00:00,0,0
2023-12-06T07:43:10.471454410+00:00,1,0
2023-12-06T07:43:10.471504420+00:00,0,0
2023-12-06T07:43:10.491792480+00:00,0,1
2023-12-06T07:43:10.491792930+00:00,0,0
2023-12-06T07:43:10.571454050+00:00,1,0
2023-12-06T07:43:10.571504070+00:00,0,0
2023-12-06T07:43:10.596797370+00:00,0,1
2023-12-06T07:43:10.596797830+00:00,0,0
2023-12-06T07:43:10.671453690+00:00,1,0
2023-12-06T07:43:10.671503710+00:00,0,0
2023-12-06T07:43:10.701814220+00:00,0,1
2023-12-06T07:43:10.701814670+00:00,0,0
2023-12-06T07:43:10.771453340+00:00,1,0
2023-12-06T07:43:10.771503350+00:00,0,0
2023-12-06T07:43:10.791813060+00:00,0,1
2023-12-06T07:43:10.791813510+00:00,0,0
2023-12-06T07:43:10.871452980+00:00,1,0
2023-12-06T07:43:10.871503000+00:00,0,0
2023-12-06T07:43:10.896827930+00:00,0,1
2023-12-06T07:43:10.896828380+00:00,0,0
2023-12-06T07:43:10.971452620+00:00,1,0
2023-12-06T07:43:10.971502640+00:00,0,0
2023-12-06T07:43:11.001834810+00:00,0,1
2023-12-06T07:43:11.001835260+00:00,0,0
2023-12-06T07:43:11.071452270+00:00,1,0
2023-12-06T07:43:11.071502280+00:00,0,0
2023-12-06T07:43:11.091847540+00:00,0,1
2023-12-06T07:43:11.091847990+00:00,0,0
2023-12-06T07:43:11.171451910+00:00,1,0
2023-12-06T07:43:11.171501930+00:00,0,0
2023-12-06T07:43:11.226854800+00:00,0,1
2023-12-06T07:43:11.226855260+00:00,0,0
2023-12-06T07:43:11.271451550+00:00,1,0
2023-12-06T07:43:11.271501570+00:00,0,0
2023-12-06T07:43:11.301865320+00:00,0,1
2023-12-06T07:43:11.301865770+00:00,0,0
2023-12-06T07:43:11.371451200+00:00,1,0
2023-12-06T07:43:11.371501210+00:00,0,0
2023-12-06T07:43:11.391868140+00:00,0,1
2023-12-06T07:43:11.391868600+00:00,0,0
2023-12-06T07:43:11.471450840+00:00,1,0
2023-12-06T07:43:11.471500860+00:00,0,0
2023-12-06T07:43:11.496882980+00:00,0,1
2023-12-06T07:43:11.496883430+00:00,0,0
2023-12-06T07:43:11.571450480+00:00,1,0
2023-12-06T07:43:11.571500500+00:00,0,0
2023-12-06T07:43:11.601891960+00:00,0,1
2023-12-06T07:43:11.601892410+00:00,0,0
2023-12-06T07:43:11.671450130+00:00,1,0
2023-12-06T07:43:11.671500140+00:00,0,0
2023-12-06T07:43:11.691894690+00:00,0,1
2023-12-06T07:43:11.691895140+00:00,0,0
2023-12-06T07:43:11.771449770+00:00,1,0
2023-12-06T07:43:11.771499790+00:00,0,0
2023-12-06T07:43:11.796903640+00:00,0,1
2023-12-06T07:43:11.796904100+00:00,0,0
2023-12-06T07:43:11.871449410+00:00,1,0
2023-12-06T07:43:11.871499430+00:00,0,0
2023-12-06T07:43:11.901906430+00:00,0,1
2023-12-06T07:43:11.901906880+00:00,0,0
2023-12-06T07:43:11.971449060+00:00,1,0
2023-12-06T07:43:11.971499070+00:00,0,0
2023-12-06T07:43:11.991925260+00:00,0,1
2023-12-06T07:43:11.991925710+00:00,0,0
2023-12-06T07:43:12.071448700+00:00,1,0
2023-12-06T07:43:12.071498720+00:00,0,0
2023-12-06T07:43:12.096934060+00:00,0,1
2023-12-06T07:43:12.096934520+00:00,0,0
2023-12-06T07:43:12.171448340+00:00,1,0
2023-12-06T07:43:12.171498360+00:00,0,0
2023-12-06T07:43:12.201937110+00:00,0,1
2023-12-06T07:43:12.201937560+00:00,0,0
2023-12-06T07:43:12.271447990+00:00,1,0
2023-12-06T07:43:12.271498000+00:00,0,0
2023-12-06T07:43:12.291939740+00:00,0,1
2023-12-06T07:43:12.291940190+00:00,0,0
2023-12-06T07:43:12.371447630+00:00,1,0
2023-12-06T07:43:12.371497650+00:00,0,0
2023-12-06T07:43:12.396942700+00:00,0,1
2023-12-06T07:43:12.396943160+00:00,0,0
2023-12-06T07:43:12.471447270+00:00,1,0
2023-12-06T07:43:12.471497290+00:00,0,0
2023-12-06T07:43:12.501955600+00:00,0,1
2023-12-06T07:43:12.501956050+00:00,0,0
2023-12-06T07:43:12.571446920+00:00,1,0
2023-12-06T07:43:12.571496930+00:00,0,0
2023-12-06T07:43:12.591960380+00:00,0,1
2023-12-06T07:43:12.591960830+00:00,0,0
2023-12-06T07:43:12.671446560+00:00,1,0
2023-12-06T07:43:12.671496580+00:00,0,0
2023-12-06T07:43:12.696975200+00:00,0,1
2023-12-06T07:43:12.696975650+00:00,0,0
2023-12-06T07:43:12.771446200+00:00,1,0
2023-12-06T07:43:12.771496220+00:00,0,0
2023-12-06T07:43:12.801980120+00:00,0,1
2023-12-06T07:43:12.801980570+00:00,0,0
2023-12-06T07:43:12.871445850+00:00,1,0
2023-12-06T07:43:12.871495860+00:00,0,0
2023-12-06T07:43:12.891990830+00:00,0,1
2023-12-06T07:43:12.891991290+00:00,0,0
2023-12-06T07:43:12.971445490+00:00,1,0
2023-12-06T07:43:12.971495510+00:00,0,0
2023-12-06T07:43:12.996995880+00:00,0,1
2023-12-06T07:43:12.996996330+00:00,0,0
2023-12-06T07:43:13.071445130+00:00,1,0
2023-12-06T07:43:13.071495150+00:00,0,0
2023-12-06T07:43:13.117012790+00:00,0,1
2023-12-06T07:43:13.117013240+00:00,0,0
2023-12-06T07:43:13.171444770+00:00,1,0
2023-12-06T07:43:13.171494790+00:00,0,0
2023-12-06T07:43:13.192015470+00:00,0,1
2023-12-06T07:43:13.192015930+00:00,0,0
2023-12-06T07:43:13.271444420+00:00,1,0
2023-12-06T07:43:13.271494430+00:00,0,0
2023-12-06T07:43:13.297028370+00:00,0,1
2023-12-06T07:43:13.297028820+00:00,0,0
2023-12-06T07:43:13.371444060+00:00,1,0
2023-12-06T07:43:13.371494080+00:00,0,0
2023-12-06T07:43:13.402033210+00:00,0,1
2023-12-06T07:43:13.402033670+00:00,0,0
2023-12-06T07:43:13.471443700+00:00,1,0
2023-12-06T07:43:13.471493720+00:00,0,0
2023-12-06T07:43:13.492045980+00:00,0,1
2023-12-06T07:43:13.492046430+00:00,0,0
2023-12-06T07:43:13.571443350+00:00,1,0
2023-12-06T07:43:13.571493360+00:00,0,0
2023-12-06T07:43:13.597050920+00:00,0,1
2023-12-06T07:43:13.597051380+00:00,0,0
2023-12-06T07:43:13.671442990+00:00,1,0
2023-12-06T07:43:13.671493010+00:00,0,0
2023-12-06T07:43:13.702059770+00:00,0,1
2023-12-06T07:43:13.702060220+00:00,0,0
2023-12-06T07:43:13.771442630+00:00,1,0
2023-12-06T07:43:13.771492650+00:00,0,0
2023-12-06T07:43:13.792066580+00:00,0,1
2023-12-06T07:43:13.792067040+00:00,0,0
2023-12-06T07:43:13.871442280+00:00,1,0
2023-12-06T07:43:13.871492290+00:00,0,0
2023-12-06T07:43:13.897083390+00:00,0,1
2023-12-06T07:43:13.897083840+00:00,0,0
2023-12-06T07:43:13.971441920+00:00,1,0
2023-12-06T07:43:13.971491940+00:00,0,0
2023-12-06T07:43:14.002082370+00:00,0,1
2023-12-06T07:43:14.002082820+00:00,0,0
2023-12-06T07:43:14.071441560+00:00,1,0
2023-12-06T07:43:14.071491580+00:00,0,0
2023-12-06T07:43:14.092101130+00:00,0,1
2023-12-06T07:43:14.092101580+00:00,0,0
2023-12-06T07:43:14.171441200+00:00,1,0
2023-12-06T07:43:14.171491220+00:00,0,0
2023-12-06T07:43:14.197102020+00:00,0,1
2023-12-06T07:43:14.197102470+00:00,0,0
2023-12-06T07:43:14.271440850+00:00,1,0
2023-12-06T07:43:14.271490860+00:00,0,0
2023-12-06T07:43:14.302116860+00:00,0,1
2023-12-06T07:43:14.302117320+00:00,0,0
2023-12-06T07:43:14.371440490+00:00,1,0
2023-12-06T07:43:14.371490510+00:00,0,0
2023-12-06T07:43:14.392117720+00:00,0,1
2023-12-06T07:43:14.392118170+00:00,0,0
2023-12-06T07:43:14.471440130+00:00,1,0
2023-12-06T07:43:14.471490150+00:00,0,0
2023-12-06T07:43:14.497134580+00:00,0,1
2023-12-06T07:43:14.497135040+00:00,0,0
2023-12-06T07:43:14.571439780+00:00,1,0
2023-12-06T07:43:14.571489790+00:00,0,0
2023-12-06T07:43:14.602135480+00:00,0,1
2023-12-06T07:43:14.602135930+00:00,0,0
2023-12-06T07:43:14.671439420+00:00,1,0
2023-12-06T07:43:14.671489440+00:00,0,0
2023-12-06T07:43:14.692150240+00:00,0,1
2023-12-06T07:43:14.692150700+00:00,0,0
2023-12-06T07:43:14.771439060+00:00,1,0
2023-12-06T07:43:14.771489080+00:00,0,0
2023-12-06T07:43:14.797153140+00:00,0,1
2023-12-06T07:43:14.797153590+00:00,0,0
2023-12-06T07:43:14.871438710+00:00,1,0
2023-12-06T07:43:14.871488720+00:00,0,0
2023-12-06T07:43:14.902168020+00:00,0,1
2023-12-06T07:43:14.902168470+00:00,0,0
2023-12-06T07:43:14.971438350+00:00,1,0
2023-12-06T07:43:14.971488360+00:00,0,0
2023-12-06T07:43:14.992170790+00:00,0,1
2023-12-06T07:43:14.992171240+00:00,0,0
2023-12-06T07:43:15.071437990+00:00,1,0
2023-12-06T07:43:15.071488010+00:00,0,0
2023-12-06T07:43:15.112185770+00:00,0,1
2023-12-06T07:43:15.112186220+00:00,0,0
2023-12-06T07:43:15.171437630+00:00,1,0
2023-12-06T07:43:15.171487650+00:00,0,0
2023-12-06T07:43:15.202188550+00:00,0,1
2023-12-06T07:43:15.202189000+00:00,0,0
2023-12-06T07:43:15.271437280+00:00,1,0
2023-12-06T07:43:15.271487290+00:00,0,0
2023-12-06T07:43:15.292201290+00:00,0,1
2023-12-06T07:43:15.292201740+00:00,0,0
2023-12-06T07:43:15.371436920+00:00,1,0
2023-12-06T07:43:15.371486940+00:00,0,0
2023-12-06T07:43:15.397206210+00:00,0,1
2023-12-06T07:43:15.397206660+00:00,0,0
2023-12-06T07:43:15.471436560+00:00,1,0
2023-12-06T07:43:15.471486580+00:00,0,0
2023-12-06T07:43:15.502219090+00:00,0,1
2023-12-06T07:43:15.502219540+00:00,0,0
2023-12-06T07:43:15.571436200+00:00,1,0
2023-12-06T07:43:15.571486220+00:00,0,0
2023-12-06T07:43:15.592221900+00:00,0,1
2023-12-06T07:43:15.592222360+00:00,0,0
2023-12-06T07:43:15.671435850+00:00,1,0
2023-12-06T07:43:15.671485860+00:00,0,0
2023-12-06T07:43:15.697236760+00:00,0,1
2023-12-06T07:43:15.697237210+00:00,0,0
2023-12-06T07:43:15.771435490+00:00,1,0
2023-12-06T07:43:15.771485510+00:00,0,0
2023-12-06T07:43:15.802239680+00:00,0,1
2023-12-06T07:43:15.802240130+00:00,0,0
2023-12-06T07:43:15.871435130+00:00,1,0
2023-12-06T07:43:15.871485150+00:00,0,0
2023-12-06T07:43:15.892252400+00:00,0,1
2023-12-06T07:43:15.892252860+00:00,0,0
2023-12-06T07:43:15.971434770+00:00,1,0
2023-12-06T07:43:15.971484790+00:00,0,0
2023-12-06T07:43:15.997261350+00:00,0,1
2023-12-06T07:43:15.997261800+00:00,0,0
2023-12-06T07:43:16.071434420+00:00,1,0
2023-12-06T07:43:16.071484430+00:00,0,0
2023-12-06T07:43:16.102270190+00:00,0,1
2023-12-06T07:43:16.102270640+00:00,0,0
2023-12-06T07:43:16.171434060+00:00,1,0
2023-12-06T07:43:16.171484080+00:00,0,0
2023-12-06T07:43:16.192276970+00:00,0,1
2023-12-06T07:43:16.192277420+00:00,0,0
2023-12-06T07:43:16.271433700+00:00,1,0
2023-12-06T07:43:16.271483720+00:00,0,0
2023-12-06T07:43:16.297287850+00:00,0,1
2023-12-06T07:43:16.297288300+00:00,0,0
2023-12-06T07:43:16.371433340+00:00,1,0
2023-12-06T07:43:16.371483360+00:00,0,0
2023-12-06T07:43:16.402294790+00:00,0,1
2023-12-06T07:43:16.402295250+00:00,0,0
2023-12-06T07:43:16.471432990+00:00,1,0
2023-12-06T07:43:16.471483000+00:00,0,0
2023-12-06T07:43:16.492303550+00:00,0,1
2023-12-06T07:43:16.492304000+00:00,0,0
2023-12-06T07:43:16.571432630+00:00,1,0
2023-12-06T07:43:16.571482650+00:00,0,0
2023-12-06T07:43:16.597312440+00:00,0,1
2023-12-06T07:43:16.597312890+00:00,0,0
2023-12-06T07:43:16.671432270+00:00,1,0
2023-12-06T07:43:16.671482290+00:00,0,0
2023-12-06T07:43:16.702325300+00:00,0,1
2023-12-06T07:43:16.702325750+00:00,0,0
2023-12-06T07:43:16.771431910+00:00,1,0
2023-12-06T07:43:16.771481930+00:00,0,0
2023-12-06T07:43:16.792328110+00:00,0,1
2023-12-06T07:43:16.792328560+00:00,0,0
2023-12-06T07:43:16.871431560+00:00,1,0
2023-12-06T07:43:16.871481570+00:00,0,0
2023-12-06T07:43:16.897338950+00:00,0,1
2023-12-06T07:43:16.897339410+00:00,0,0
2023-12-06T07:43:16.971431200+00:00,1,0
2023-12-06T07:43:16.971481220+00:00,0,0
2023-12-06T07:43:17.002345860+00:00,0,1
2023-12-06T07:43:17.002346310+00:00,0,0
2023-12-06T07:43:17.071430840+00:00,1,0
2023-12-06T07:43:17.071480860+00:00,0,0
2023-12-06T07:43:17.092364610+00:00,0,1
2023-12-06T07:43:17.092365070+00:00,0,0
2023-12-06T07:43:17.171430480+00:00,1,0
2023-12-06T07:43:17.171480500+00:00,0,0
2023-12-06T07:43:17.197367550+00:00,0,1
2023-12-06T07:43:17.197368010+00:00,0,0
2023-12-06T07:43:17.271430120+00:00,1,0
2023-12-06T07:43:17.271480140+00:00,0,0
2023-12-06T07:43:17.302382450+00:00,0,1
2023-12-06T07:43:17.302382900+00:00,0,0
2023-12-06T07:43:17.371429770+00:00,1,0
2023-12-06T07:43:17.371479780+00:00,0,0
2023-12-06T07:43:17.392385200+00:00,0,1
2023-12-06T07:43:17.392385650+00:00,0,0
2023-12-06T07:43:17.471429410+00:00,1,0
2023-12-06T07:43:17.471479430+00:00,0,0
2023-12-06T07:43:17.497374070+00:00,0,1
2023-12-06T07:43:17.497374520+00:00,0,0
2023-12-06T07:43:17.571429050+00:00,1,0
2023-12-06T07:43:17.571479070+00:00,0,0
2023-12-06T07:43:17.602387000+00:00,0,1
2023-12-06T07:43:17.602387450+00:00,0,0
2023-12-06T07:43:17.671428690+00:00,1,0
2023-12-06T07:43:17.671478710+00:00,0,0
2023-12-06T07:43:17.692399700+00:00,0,1
2023-12-06T07:43:17.692400160+00:00,0,0
2023-12-06T07:43:17.771428340+00:00,1,0
2023-12-06T07:43:17.771478350+00:00,0,0
2023-12-06T07:43:17.797404720+00:00,0,1
2023-12-06T07:43:17.797405170+00:00,0,0
2023-12-06T07:43:17.871427980+00:00,1,0
2023-12-06T07:43:17.871478000+00:00,0,0
2023-12-06T07:43:17.902417460+00:00,0,1
2023-12-06T07:43:17.902417920+00:00,0,0
2023-12-06T07:43:17.971427620+00:00,1,0
2023-12-06T07:43:17.971477640+00:00,0,0
2023-12-06T07:43:17.992420240+00:00,0,1
2023-12-06T07:43:17.992420690+00:00,0,0
2023-12-06T07:43:18.071427260+00:00,1,0
2023-12-06T07:43:18.071477280+00:00,0,0
2023-12-06T07:43:18.097437210+00:00,0,1
2023-12-06T07:43:18.097437660+00:00,0,0
2023-12-06T07:43:18.171426900+00:00,1,0
2023-12-06T07:43:18.171476920+00:00,0,0
2023-12-06T07:43:18.202440090+00:00,0,1
2023-12-06T07:43:18.202440540+00:00,0,0
2023-12-06T07:43:18.271426550+00:00,1,0
2023-12-06T07:43:18.271476560+00:00,0,0
2023-12-06T07:43:18.292454860+00:00,0,1
2023-12-06T07:43:18.292455320+00:00,0,0
2023-12-06T07:43:18.371426190+00:00,1,0
2023-12-06T07:43:18.371476210+00:00,0,0
2023-12-06T07:43:18.397457760+00:00,0,1
2023-12-06T07:43:18.397458210+00:00,0,0
2023-12-06T07:43:18.471425830+00:00,1,0
2023-12-06T07:43:18.471475850+00:00,0,0
2023-12-06T07:43:18.502472590+00:00,0,1
2023-12-06T07:43:18.502473040+00:00,0,0
2023-12-06T07:43:18.571425470+00:00,1,0
2023-12-06T07:43:18.571475490+00:00,0,0
2023-12-06T07:43:18.592475410+00:00,0,1
2023-12-06T07:43:18.592475870+00:00,0,0
2023-12-06T07:43:18.671425110+00:00,1,0
2023-12-06T07:43:18.671475130+00:00,0,0
2023-12-06T07:43:18.697490260+00:00,0,1
2023-12-06T07:43:18.697490710+00:00,0,0
2023-12-06T07:43:18.771424760+00:00,1,0
2023-12-06T07:43:18.771474770+00:00,0,0
2023-12-06T07:43:18.802495160+00:00,0,1
2023-12-06T07:43:18.802495620+00:00,0,0
2023-12-06T07:43:18.871424400+00:00,1,0
2023-12-06T07:43:18.871474420+00:00,0,0
2023-12-06T07:43:18.892507970+00:00,0,1
2023-12-06T07:43:18.892508420+00:00,0,0
2023-12-06T07:43:18.971424040+00:00,1,0
2023-12-06T07:43:18.971474060+00:00,0,0
2023-12-06T07:43:18.997510850+00:00,0,1
2023-12-06T07:43:18.997511300+00:00,0,0
2023-12-06T07:43:19.071423680+00:00,1,0
2023-12-06T07:43:19.071473700+00:00,0,0
2023-12-06T07:43:19.102525750+00:00,0,1
2023-12-06T07:43:19.102526200+00:00,0,0
2023-12-06T07:43:19.171423320+00:00,1,0
2023-12-06T07:43:19.171473340+00:00,0,0
2023-12-06T07:43:19.222530830+00:00,0,1
2023-12-06T07:43:19.222531290+00:00,0,0
2023-12-06T07:43:19.271422970+00:00,1,0
2023-12-06T07:43:19.271472980+00:00,0,0
2023-12-06T07:43:19.297543310+00:00,0,1
2023-12-06T07:43:19.297543760+00:00,0,0
2023-12-06T07:43:19.371422610+00:00,1,0
2023-12-06T07:43:19.371472630+00:00,0,0
2023-12-06T07:43:19.402546300+00:00,0,1
2023-12-06T07:43:19.402546750+00:00,0,0
2023-12-06T07:43:19.471422250+00:00,1,0
2023-12-06T07:43:19.471472270+00:00,0,0
2023-12-06T07:43:19.492559020+00:00,0,1
2023-12-06T07:43:19.492559470+00:00,0,0
2023-12-06T07:43:19.571421890+00:00,1,0
2023-12-06T07:43:19.571471910+00:00,0,0
2023-12-06T07:43:19.597563960+00:00,0,1
2023-12-06T07:43:19.597564410+00:00,0,0
2023-12-06T07:43:19.671421530+00:00,1,0
2023-12-06T07:43:19.671471550+00:00,0,0
2023-12-06T07:43:19.702578850+00:00,0,1
2023-12-06T07:43:19.702579300+00:00,0,0
2023-12-06T07:43:19.771421170+00:00,1,0
2023-12-06T07:43:19.771471190+00:00,0,0
2023-12-06T07:43:19.792579550+00:00,0,1
2023-12-06T07:43:19.792580010+00:00,0,0
2023-12-06T07:43:19.871420820+00:00,1,0
2023-12-06T07:43:19.871470830+00:00,0,0
2023-12-06T07:43:19.897594460+00:00,0,1
2023-12-06T07:43:19.897594910+00:00,0,0
2023-12-06T07:43:19.971420460+00:00,1,0
2023-12-06T07:43:19.971470480+00:00,0,0
2023-12-06T07:43:20.002598920+00:00,0,1
2023-12-06T07:43:20.002599380+00:00,0,0
2023-12-06T07:43:20.071420100+00:00,1,0
2023-12-06T07:43:20.071470120+00:00,0,0
2023-12-06T07:43:20.092694130+00:00,0,1
2023-12-06T07:43:20.092702530+00:00,0,0
2023-12-06T07:43:20.171419740+00:00,1,0
2023-12-06T07:43:20.171469760+00:00,0,0
2023-12-06T07:43:20.198249020+00:00,0,1
2023-12-06T07:43:20.198249480+00:00,0,0
2023-12-06T07:43:20.271419380+00:00,1,0
2023-12-06T07:43:20.271469400+00:00,0,0
2023-12-06T07:43:20.302702670+00:00,0,1
2023-12-06T07:43:20.302711080+00:00,0,0
2023-12-06T07:43:20.371419020+00:00,1,0
2023-12-06T07:43:20.371469040+00:00,0,0
2023-12-06T07:43:20.392727330+00:00,0,1
2023-12-06T07:43:20.392731730+00:00,0,0
2023-12-06T07:43:20.471418670+00:00,1,0
2023-12-06T07:43:20.471468680+00:00,0,0
2023-12-06T07:43:20.497657560+00:00,0,1
2023-12-06T07:43:20.497658010+00:00,0,0
2023-12-06T07:43:20.571418310+00:00,1,0
2023-12-06T07:43:20.571468320+00:00,0,0
2023-12-06T07:43:20.602721060+00:00,0,1
2023-12-06T07:43:20.602729470+00:00,0,0
2023-12-06T07:43:20.671417950+00:00,1,0
2023-12-06T07:43:20.671467970+00:00,0,0
2023-12-06T07:43:20.692762630+00:00,0,1
2023-12-06T07:43:20.692767030+00:00,0,0
2023-12-06T07:43:20.771417590+00:00,1,0
2023-12-06T07:43:20.771467610+00:00,0,0
2023-12-06T07:43:20.797676070+00:00,0,1
2023-12-06T07:43:20.797676520+00:00,0,0
2023-12-06T07:43:20.871417230+00:00,1,0
2023-12-06T07:43:20.871467250+00:00,0,0
2023-12-06T07:43:20.902752320+00:00,0,1
2023-12-06T07:43:20.902760730+00:00,0,0
2023-12-06T07:43:20.971416870+00:00,1,0
2023-12-06T07:43:20.971466890+00:00,0,0
