Time [s],Channel 0,Channel 1
2024-02-03T01:52:23.411594000+00:00,0,0
2024-02-03T01:52:23.652922420+00:00,1,0
2024-02-03T01:52:23.652972430+00:00,0,0
2024-02-03T01:52:23.680165680+00:00,0,1
2024-02-03T01:52:23.680166130+00:00,0,0
2024-02-03T01:52:24.152920650+00:00,1,0
2024-02-03T01:52:24.152970660+00:00,0,0
2024-02-03T01:52:24.184095140+00:00,0,1
2024-02-03T01:52:24.184111490+00:00,0,0
2024-02-03T01:52:24.652918880+00:00,1,0
2024-02-03T01:52:24.652968890+00:00,0,0
2024-02-03T01:52:24.688697100+00:00,0,1
2024-02-03T01:52:24.688697560+00:00,0,0
2024-02-03T01:52:25.152917110+00:00,1,0
2024-02-03T01:52:25.152967120+00:00,0,0
2024-02-03T01:52:25.181358340+00:00,0,1
2024-02-03T01:52:25.181358790+00:00,0,0
2024-02-03T01:52:25.652915340+00:00,1,0
2024-02-03T01:52:25.652965340+00:00,0,0
2024-02-03T01:52:25.683354060+00:00,0,1
2024-02-03T01:52:25.683354520+00:00,0,0
2024-02-03T01:52:26.152913560+00:00,1,0
2024-02-03T01:52:26.152963570+00:00,0,0
2024-02-03T01:52:26.185804710+00:00,0,1
2024-02-03T01:52:26.185805160+00:00,0,0
2024-02-03T01:52:26.652911790+00:00,1,0
2024-02-03T01:52:26.652961800+00:00,0,0
2024-02-03T01:52:26.680573260+00:00,0,1
2024-02-03T01:52:26.680573720+00:00,0,0
2024-02-03T01:52:27.152910020+00:00,1,0
2024-02-03T01:52:27.152960030+00:00,0,0
2024-02-03T01:52:27.181168790+00:00,0,1
2024-02-03T01:52:27.181169240+00:00,0,0
2024-02-03T01:52:27.652908240+00:00,1,0
2024-02-03T01:52:27.652958250+00:00,0,0
2024-02-03T01:52:27.680499470+00:00,0,1
2024-02-03T01:52:27.680499930+00:00,0,0
2024-02-03T01:52:28.152906470+00:00,1,0
2024-02-03T01:52:28.152956480+00:00,0,0
2024-02-03T01:52:28.183533180+00:00,0,1
2024-02-03T01:52:28.183533640+00:00,0,0
2024-02-03T01:52:28.652904700+00:00,1,0
2024-02-03T01:52:28.652954700+00:00,0,0
2024-02-03T01:52:28.684842250+00:00,0,1
2024-02-03T01:52:28.684842710+00:00,0,0
2024-02-03T01:52:29.152902920+00:00,1,0
2024-02-03T01:52:29.152952930+00:00,0,0
2024-02-03T01:52:29.189319730+00:00,0,1
2024-02-03T01:52:29.189320180+00:00,0,0
2024-02-03T01:52:29.652901140+00:00,1,0
2024-02-03T01:52:29.652951150+00:00,0,0
2024-02-03T01:52:29.681854930+00:00,0,1
2024-02-03T01:52:29.681855380+00:00,0,0
2024-02-03T01:52:30.152899370+00:00,1,0
2024-02-03T01:52:30.152949380+00:00,0,0
2024-02-03T01:52:30.182401350+00:00,0,1
2024-02-03T01:52:30.182417710+00:00,0,0
2024-02-03T01:52:30.652897590+00:00,1,0
2024-02-03T01:52:30.652947600+00:00,0,0
2024-02-03T01:52:30.686233320+00:00,0,1
2024-02-03T01:52:30.686233770+00:00,0,0
2024-02-03T01:52:31.152895820+00:00,1,0
2024-02-03T01:52:31.152945830+00:00,0,0
2024-02-03T01:52:31.182197010+00:00,0,1
2024-02-03T01:52:31.182197460+00:00,0,0
2024-02-03T01:52:31.652894040+00:00,1,0
2024-02-03T01:52:31.652944050+00:00,0,0
2024-02-03T01:52:31.679916580+00:00,0,1
2024-02-03T01:52:31.679917040+00:00,0,0
2024-02-03T01:52:32.152892260+00:00,1,0
2024-02-03T01:52:32.152942270+00:00,0,0
2024-02-03T01:52:32.180409200+00:00,0,1
2024-02-03T01:52:32.180409660+00:00,0,0
2024-02-03T01:52:32.652890480+00:00,1,0
2024-02-03T01:52:32.652940490+00:00,0,0
2024-02-03T01:52:32.685205290+00:00,0,1
2024-02-03T01:52:32.685205740+00:00,0,0
2024-02-03T01:52:33.152888710+00:00,1,0
2024-02-03T01:52:33.152938720+00:00,0,0
2024-02-03T01:52:33.192060490+00:00,0,1
2024-02-03T01:52:33.192060950+00:00,0,0
2024-02-03T01:52:33.652886930+00:00,1,0
2024-02-03T01:52:33.652936940+00:00,0,0
2024-02-03T01:52:33.681152100+00:00,0,1
2024-02-03T01:52:33.681152550+00:00,0,0
2024-02-03T01:52:34.152885150+00:00,1,0
2024-02-03T01:52:34.152935160+00:00,0,0
2024-02-03T01:52:34.180405620+00:00,0,1
2024-02-03T01:52:34.180406070+00:00,0,0
2024-02-03T01:52:34.652883370+00:00,1,0
2024-02-03T01:52:34.652933380+00:00,0,0
2024-02-03T01:52:34.682254210+00:00,0,1
2024-02-03T01:52:34.682254660+00:00,0,0
2024-02-03T01:52:35.152881590+00:00,1,0
2024-02-03T01:52:35.152931600+00:00,0,0
2024-02-03T01:52:35.179816870+00:00,0,1
2024-02-03T01:52:35.179817330+00:00,0,0
2024-02-03T01:52:35.652879810+00:00,1,0
2024-02-03T01:52:35.652929820+00:00,0,0
2024-02-03T01:52:35.682317530+00:00,0,1
2024-02-03T01:52:35.682317990+00:00,0,0
2024-02-03T01:52:36.152878030+00:00,1,0
2024-02-03T01:52:36.152928040+00:00,0,0
2024-02-03T01:52:36.181824110+00:00,0,1
2024-02-03T01:52:36.181824570+00:00,0,0
2024-02-03T01:52:36.652876250+00:00,1,0
2024-02-03T01:52:36.652926260+00:00,0,0
2024-02-03T01:52:36.683841820+00:00,0,1
2024-02-03T01:52:36.683842270+00:00,0,0
2024-02-03T01:52:37.152874470+00:00,1,0
2024-02-03T01:52:37.152924480+00:00,0,0
2024-02-03T01:52:37.181339740+00:00,0,1
2024-02-03T01:52:37.181340190+00:00,0,0
2024-02-03T01:52:37.652872690+00:00,1,0
2024-02-03T01:52:37.652922690+00:00,0,0
2024-02-03T01:52:37.695848040+00:00,0,1
2024-02-03T01:52:37.695848500+00:00,0,0
2024-02-03T01:52:38.152870900+00:00,1,0
2024-02-03T01:52:38.152920910+00:00,0,0
2024-02-03T01:52:38.185454630+00:00,0,1
2024-02-03T01:52:38.185455080+00:00,0,0
2024-02-03T01:52:38.652869120+00:00,1,0
2024-02-03T01:52:38.652919130+00:00,0,0
2024-02-03T01:52:38.681606100+00:00,0,1
2024-02-03T01:52:38.681606550+00:00,0,0
2024-02-03T01:52:39.152867340+00:00,1,0
2024-02-03T01:52:39.152917350+00:00,0,0
2024-02-03T01:52:39.183060300+00:00,0,1
2024-02-03T01:52:39.183060750+00:00,0,0
2024-02-03T01:52:39.652865550+00:00,1,0
2024-02-03T01:52:39.652915560+00:00,0,0
2024-02-03T01:52:39.686398460+00:00,0,1
2024-02-03T01:52:39.686398920+00:00,0,0
2024-02-03T01:52:40.152863770+00:00,1,0
2024-02-03T01:52:40.152913780+00:00,0,0
2024-02-03T01:52:40.180627010+00:00,0,1
2024-02-03T01:52:40.180627470+00:00,0,0
2024-02-03T01:52:40.652861990+00:00,1,0
2024-02-03T01:52:40.652912000+00:00,0,0
2024-02-03T01:52:40.680247640+00:00,0,1
2024-02-03T01:52:40.680248100+00:00,0,0
2024-02-03T01:52:41.152860200+00:00,1,0
2024-02-03T01:52:41.152910210+00:00,0,0
2024-02-03T01:52:41.181384600+00:00,0,1
2024-02-03T01:52:41.181400950+00:00,0,0
2024-02-03T01:52:41.652858420+00:00,1,0
2024-02-03T01:52:41.652908430+00:00,0,0
2024-02-03T01:52:41.689752760+00:00,0,1
2024-02-03T01:52:41.689753220+00:00,0,0
2024-02-03T01:52:42.152856640+00:00,1,0
2024-02-03T01:52:42.152906640+00:00,0,0
2024-02-03T01:52:42.182799520+00:00,0,1
2024-02-03T01:52:42.182799970+00:00,0,0
2024-02-03T01:52:42.652854850+00:00,1,0
2024-02-03T01:52:42.652904860+00:00,0,0
2024-02-03T01:52:42.687489510+00:00,0,1
2024-02-03T01:52:42.687501880+00:00,0,0
2024-02-03T01:52:43.152853070+00:00,1,0
2024-02-03T01:52:43.152903070+00:00,0,0
2024-02-03T01:52:43.183434750+00:00,0,1
2024-02-03T01:52:43.183435200+00:00,0,0
2024-02-03T01:52:43.652851280+00:00,1,0
2024-02-03T01:52:43.652901290+00:00,0,0
2024-02-03T01:52:43.686528200+00:00,0,1
2024-02-03T01:52:43.686528650+00:00,0,0
2024-02-03T01:52:44.152849500+00:00,1,0
2024-02-03T01:52:44.152899500+00:00,0,0
2024-02-03T01:52:44.182293890+00:00,0,1
2024-02-03T01:52:44.182294340+00:00,0,0
2024-02-03T01:52:44.652847710+00:00,1,0
2024-02-03T01:52:44.652897720+00:00,0,0
2024-02-03T01:52:44.681779200+00:00,0,1
2024-02-03T01:52:44.681795560+00:00,0,0
2024-02-03T01:52:45.152845920+00:00,1,0
2024-02-03T01:52:45.152895930+00:00,0,0
2024-02-03T01:52:45.214757350+00:00,0,1
2024-02-03T01:52:45.214757800+00:00,0,0
2024-02-03T01:52:45.652844140+00:00,1,0
2024-02-03T01:52:45.652894150+00:00,0,0
2024-02-03T01:52:45.681950220+00:00,0,1
2024-02-03T01:52:45.681950670+00:00,0,0
2024-02-03T01:52:46.152842350+00:00,1,0
2024-02-03T01:52:46.152892360+00:00,0,0
2024-02-03T01:52:46.218346640+00:00,0,1
2024-02-03T01:52:46.218347100+00:00,0,0
2024-02-03T01:52:46.652840560+00:00,1,0
2024-02-03T01:52:46.652890570+00:00,0,0
2024-02-03T01:52:46.691518990+00:00,0,1
2024-02-03T01:52:46.691519460+00:00,0,0
2024-02-03T01:52:47.152838780+00:00,1,0
2024-02-03T01:52:47.152888790+00:00,0,0
2024-02-03T01:52:47.179896250+00:00,0,1
2024-02-03T01:52:47.179912610+00:00,0,0
2024-02-03T01:52:47.652836990+00:00,1,0
2024-02-03T01:52:47.652887000+00:00,0,0
2024-02-03T01:52:47.680625380+00:00,0,1
2024-02-03T01:52:47.680625830+00:00,0,0
2024-02-03T01:52:48.152835210+00:00,1,0
2024-02-03T01:52:48.152885210+00:00,0,0
2024-02-03T01:52:48.181776940+00:00,0,1
2024-02-03T01:52:48.181777400+00:00,0,0
2024-02-03T01:52:48.652833420+00:00,1,0
2024-02-03T01:52:48.652883430+00:00,0,0
2024-02-03T01:52:48.681829600+00:00,0,1
2024-02-03T01:52:48.681830050+00:00,0,0
2024-02-03T01:52:49.152831630+00:00,1,0
2024-02-03T01:52:49.152881640+00:00,0,0
2024-02-03T01:52:49.181323110+00:00,0,1
2024-02-03T01:52:49.181323560+00:00,0,0
2024-02-03T01:52:49.652829840+00:00,1,0
2024-02-03T01:52:49.652879850+00:00,0,0
2024-02-03T01:52:49.687604240+00:00,0,1
2024-02-03T01:52:49.687616620+00:00,0,0
2024-02-03T01:52:50.152828060+00:00,1,0
2024-02-03T01:52:50.152878060+00:00,0,0
2024-02-03T01:52:50.432007990+00:00,0,1
2024-02-03T01:52:50.432008440+00:00,0,0
2024-02-03T01:52:50.652826270+00:00,1,0
2024-02-03T01:52:50.652876280+00:00,0,0
2024-02-03T01:52:50.685143700+00:00,0,1
2024-02-03T01:52:50.685144150+00:00,0,0
2024-02-03T01:52:51.152824480+00:00,1,0
2024-02-03T01:52:51.152874490+00:00,0,0
2024-02-03T01:52:51.183573320+00:00,0,1
2024-02-03T01:52:51.183589670+00:00,0,0
2024-02-03T01:52:51.652822690+00:00,1,0
2024-02-03T01:52:51.652872700+00:00,0,0
2024-02-03T01:52:51.682286460+00:00,0,1
2024-02-03T01:52:51.682286920+00:00,0,0
2024-02-03T01:52:52.152820900+00:00,1,0
2024-02-03T01:52:52.152870910+00:00,0,0
2024-02-03T01:52:52.181380130+00:00,0,1
2024-02-03T01:52:52.181380580+00:00,0,0
2024-02-03T01:52:52.652819110+00:00,1,0
2024-02-03T01:52:52.652869120+00:00,0,0
2024-02-03T01:52:52.680533640+00:00,0,1
2024-02-03T01:52:52.680534090+00:00,0,0
2024-02-03T01:52:53.152817330+00:00,1,0
2024-02-03T01:52:53.152867330+00:00,0,0
2024-02-03T01:52:53.181807180+00:00,0,1
2024-02-03T01:52:53.181807630+00:00,0,0
2024-02-03T01:52:53.652815540+00:00,1,0
2024-02-03T01:52:53.652865550+00:00,0,0
2024-02-03T01:52:53.680410920+00:00,0,1
2024-02-03T01:52:53.680411370+00:00,0,0
2024-02-03T01:52:54.152813750+00:00,1,0
2024-02-03T01:52:54.152863760+00:00,0,0
2024-02-03T01:52:54.182107670+00:00,0,1
2024-02-03T01:52:54.182108120+00:00,0,0
2024-02-03T01:52:54.652811960+00:00,1,0
2024-02-03T01:52:54.652861970+00:00,0,0
2024-02-03T01:52:54.695784330+00:00,0,1
2024-02-03T01:52:54.695784790+00:00,0,0
2024-02-03T01:52:55.152810170+00:00,1,0
2024-02-03T01:52:55.152860180+00:00,0,0
2024-02-03T01:52:55.180117780+00:00,0,1
2024-02-03T01:52:55.180118240+00:00,0,0
2024-02-03T01:52:55.652808380+00:00,1,0
2024-02-03T01:52:55.652858390+00:00,0,0
2024-02-03T01:52:55.682651350+00:00,0,1
2024-02-03T01:52:55.682651800+00:00,0,0
2024-02-03T01:52:56.152806590+00:00,1,0
2024-02-03T01:52:56.152856600+00:00,0,0
2024-02-03T01:52:56.182501660+00:00,0,1
2024-02-03T01:52:56.182518010+00:00,0,0
2024-02-03T01:52:56.652804800+00:00,1,0
2024-02-03T01:52:56.652854810+00:00,0,0
2024-02-03T01:52:56.680965660+00:00,0,1
2024-02-03T01:52:56.680966110+00:00,0,0
2024-02-03T01:52:57.152803010+00:00,1,0
2024-02-03T01:52:57.152853020+00:00,0,0
2024-02-03T01:52:57.181899140+00:00,0,1
2024-02-03T01:52:57.181899600+00:00,0,0
2024-02-03T01:52:57.652801220+00:00,1,0
2024-02-03T01:52:57.652851230+00:00,0,0
2024-02-03T01:52:57.684882900+00:00,0,1
2024-02-03T01:52:57.684883350+00:00,0,0
2024-02-03T01:52:58.152799430+00:00,1,0
2024-02-03T01:52:58.152849440+00:00,0,0
2024-02-03T01:52:58.183499460+00:00,0,1
2024-02-03T01:52:58.183499910+00:00,0,0
2024-02-03T01:52:58.652797640+00:00,1,0
2024-02-03T01:52:58.652847650+00:00,0,0
2024-02-03T01:52:58.699473320+00:00,0,1
2024-02-03T01:52:58.699473770+00:00,0,0
2024-02-03T01:52:59.152795850+00:00,1,0
2024-02-03T01:52:59.152845860+00:00,0,0
2024-02-03T01:52:59.182198740+00:00,0,1
2024-02-03T01:52:59.182199190+00:00,0,0
2024-02-03T01:52:59.652794060+00:00,1,0
2024-02-03T01:52:59.652844070+00:00,0,0
2024-02-03T01:52:59.680559280+00:00,0,1
2024-02-03T01:52:59.680559740+00:00,0,0
2024-02-03T01:53:00.152792270+00:00,1,0
2024-02-03T01:53:00.152842280+00:00,0,0
2024-02-03T01:53:00.181209900+00:00,0,1
2024-02-03T01:53:00.181210360+00:00,0,0
2024-02-03T01:53:00.652790480+00:00,1,0
2024-02-03T01:53:00.652840490+00:00,0,0
2024-02-03T01:53:00.680376560+00:00,0,1
2024-02-03T01:53:00.680377010+00:00,0,0
2024-02-03T01:53:01.152788690+00:00,1,0
2024-02-03T01:53:01.152838700+00:00,0,0
2024-02-03T01:53:01.180174080+00:00,0,1
2024-02-03T01:53:01.180174530+00:00,0,0
2024-02-03T01:53:01.652786900+00:00,1,0
2024-02-03T01:53:01.652836910+00:00,0,0
2024-02-03T01:53:01.680205740+00:00,0,1
2024-02-03T01:53:01.680206200+00:00,0,0
2024-02-03T01:53:02.152785110+00:00,1,0
2024-02-03T01:53:02.152835110+00:00,0,0
2024-02-03T01:53:02.184313380+00:00,0,1
2024-02-03T01:53:02.184313840+00:00,0,0
2024-02-03T01:53:02.652783310+00:00,1,0
2024-02-03T01:53:02.652833320+00:00,0,0
2024-02-03T01:53:02.682277350+00:00,0,1
2024-02-03T01:53:02.682277810+00:00,0,0
2024-02-03T01:53:03.152781520+00:00,1,0
2024-02-03T01:53:03.152831530+00:00,0,0
2024-02-03T01:53:03.186301130+00:00,0,1
2024-02-03T01:53:03.186301580+00:00,0,0
2024-02-03T01:53:03.652779730+00:00,1,0
2024-02-03T01:53:03.652829740+00:00,0,0
2024-02-03T01:53:03.684666250+00:00,0,1
2024-02-03T01:53:03.684666700+00:00,0,0
2024-02-03T01:53:04.152777940+00:00,1,0
2024-02-03T01:53:04.152827950+00:00,0,0
2024-02-03T01:53:04.180536750+00:00,0,1
2024-02-03T01:53:04.180537200+00:00,0,0
2024-02-03T01:53:04.652776150+00:00,1,0
2024-02-03T01:53:04.652826160+00:00,0,0
2024-02-03T01:53:04.683906430+00:00,0,1
2024-02-03T01:53:04.683906890+00:00,0,0
2024-02-03T01:53:05.152774360+00:00,1,0
2024-02-03T01:53:05.152824370+00:00,0,0
2024-02-03T01:53:05.204809020+00:00,0,1
2024-02-03T01:53:05.204809480+00:00,0,0
2024-02-03T01:53:05.652772560+00:00,1,0
2024-02-03T01:53:05.652822570+00:00,0,0
2024-02-03T01:53:05.681011490+00:00,0,1
2024-02-03T01:53:05.681011950+00:00,0,0
2024-02-03T01:53:06.152770770+00:00,1,0
2024-02-03T01:53:06.152820780+00:00,0,0
2024-02-03T01:53:06.181669240+00:00,0,1
2024-02-03T01:53:06.181669690+00:00,0,0
2024-02-03T01:53:06.652768980+00:00,1,0
2024-02-03T01:53:06.652818990+00:00,0,0
2024-02-03T01:53:06.684429810+00:00,0,1
2024-02-03T01:53:06.684430270+00:00,0,0
2024-02-03T01:53:07.152767190+00:00,1,0
2024-02-03T01:53:07.152817200+00:00,0,0
2024-02-03T01:53:07.184292250+00:00,0,1
2024-02-03T01:53:07.184292700+00:00,0,0
2024-02-03T01:53:07.652765400+00:00,1,0
2024-02-03T01:53:07.652815410+00:00,0,0
2024-02-03T01:53:07.681343910+00:00,0,1
2024-02-03T01:53:07.681344360+00:00,0,0
2024-02-03T01:53:08.152763600+00:00,1,0
2024-02-03T01:53:08.152813610+00:00,0,0
2024-02-03T01:53:08.186440830+00:00,0,1
2024-02-03T01:53:08.186441290+00:00,0,0
2024-02-03T01:53:08.652761810+00:00,1,0
2024-02-03T01:53:08.652811820+00:00,0,0
2024-02-03T01:53:08.682410270+00:00,0,1
2024-02-03T01:53:08.682410720+00:00,0,0
2024-02-03T01:53:09.152760020+00:00,1,0
2024-02-03T01:53:09.152810030+00:00,0,0
2024-02-03T01:53:09.184132810+00:00,0,1
2024-02-03T01:53:09.184133260+00:00,0,0
2024-02-03T01:53:09.652758230+00:00,1,0
2024-02-03T01:53:09.652808240+00:00,0,0
2024-02-03T01:53:09.680775540+00:00,0,1
2024-02-03T01:53:09.680775990+00:00,0,0
2024-02-03T01:53:10.152756430+00:00,1,0
2024-02-03T01:53:10.152806440+00:00,0,0
2024-02-03T01:53:10.180545090+00:00,0,1
2024-02-03T01:53:10.180545540+00:00,0,0
2024-02-03T01:53:10.652754640+00:00,1,0
2024-02-03T01:53:10.652804650+00:00,0,0
2024-02-03T01:53:10.686715810+00:00,0,1
2024-02-03T01:53:10.686716260+00:00,0,0
2024-02-03T01:53:11.152752850+00:00,1,0
2024-02-03T01:53:11.152802860+00:00,0,0
2024-02-03T01:53:11.181846270+00:00,0,1
2024-02-03T01:53:11.181862630+00:00,0,0
2024-02-03T01:53:11.652751050+00:00,1,0
2024-02-03T01:53:11.652801060+00:00,0,0
2024-02-03T01:53:11.697875600+00:00,0,1
2024-02-03T01:53:11.697876060+00:00,0,0
2024-02-03T01:53:12.152749260+00:00,1,0
2024-02-03T01:53:12.152799270+00:00,0,0
2024-02-03T01:53:12.184076580+00:00,0,1
2024-02-03T01:53:12.184077030+00:00,0,0
2024-02-03T01:53:12.652747470+00:00,1,0
2024-02-03T01:53:12.652797480+00:00,0,0
2024-02-03T01:53:12.680382080+00:00,0,1
2024-02-03T01:53:12.680382530+00:00,0,0
2024-02-03T01:53:13.152745680+00:00,1,0
2024-02-03T01:53:13.152795680+00:00,0,0
2024-02-03T01:53:13.184739670+00:00,0,1
2024-02-03T01:53:13.184740120+00:00,0,0
2024-02-03T01:53:13.652743880+00:00,1,0
2024-02-03T01:53:13.652793890+00:00,0,0
2024-02-03T01:53:13.682885390+00:00,0,1
2024-02-03T01:53:13.682885840+00:00,0,0
2024-02-03T01:53:14.152742090+00:00,1,0
2024-02-03T01:53:14.152792100+00:00,0,0
2024-02-03T01:53:14.182440860+00:00,0,1
2024-02-03T01:53:14.182441310+00:00,0,0
2024-02-03T01:53:14.652740290+00:00,1,0
2024-02-03T01:53:14.652790300+00:00,0,0
2024-02-03T01:53:14.680287480+00:00,0,1
2024-02-03T01:53:14.680287940+00:00,0,0
2024-02-03T01:53:15.152738500+00:00,1,0
2024-02-03T01:53:15.152788510+00:00,0,0
2024-02-03T01:53:15.181746140+00:00,0,1
2024-02-03T01:53:15.181746590+00:00,0,0
2024-02-03T01:53:15.652736710+00:00,1,0
2024-02-03T01:53:15.652786710+00:00,0,0
2024-02-03T01:53:15.686280640+00:00,0,1
2024-02-03T01:53:15.686281090+00:00,0,0
2024-02-03T01:53:16.152734910+00:00,1,0
2024-02-03T01:53:16.152784920+00:00,0,0
2024-02-03T01:53:16.181554340+00:00,0,1
2024-02-03T01:53:16.181554790+00:00,0,0
2024-02-03T01:53:16.652733120+00:00,1,0
2024-02-03T01:53:16.652783120+00:00,0,0
2024-02-03T01:53:16.685506990+00:00,0,1
2024-02-03T01:53:16.685507440+00:00,0,0
2024-02-03T01:53:17.152731320+00:00,1,0
2024-02-03T01:53:17.152781330+00:00,0,0
2024-02-03T01:53:17.183017480+00:00,0,1
2024-02-03T01:53:17.183017930+00:00,0,0
2024-02-03T01:53:17.652729530+00:00,1,0
2024-02-03T01:53:17.652779530+00:00,0,0
2024-02-03T01:53:17.686871210+00:00,0,1
2024-02-03T01:53:17.686871660+00:00,0,0
2024-02-03T01:53:18.152727730+00:00,1,0
2024-02-03T01:53:18.152777740+00:00,0,0
2024-02-03T01:53:18.182057820+00:00,0,1
2024-02-03T01:53:18.182058280+00:00,0,0
2024-02-03T01:53:18.652725940+00:00,1,0
2024-02-03T01:53:18.652775940+00:00,0,0
2024-02-03T01:53:18.686714280+00:00,0,1
2024-02-03T01:53:18.686714730+00:00,0,0
2024-02-03T01:53:19.152724140+00:00,1,0
2024-02-03T01:53:19.152774150+00:00,0,0
2024-02-03T01:53:19.184750960+00:00,0,1
2024-02-03T01:53:19.184751410+00:00,0,0
2024-02-03T01:53:19.652722350+00:00,1,0
2024-02-03T01:53:19.652772350+00:00,0,0
2024-02-03T01:53:19.931196090+00:00,0,1
2024-02-03T01:53:19.931196550+00:00,0,0
2024-02-03T01:53:20.152720550+00:00,1,0
2024-02-03T01:53:20.152770560+00:00,0,0
2024-02-03T01:53:20.188310520+00:00,0,1
2024-02-03T01:53:20.188310980+00:00,0,0
2024-02-03T01:53:20.652718750+00:00,1,0
2024-02-03T01:53:20.652768760+00:00,0,0
2024-02-03T01:53:20.683820740+00:00,0,1
2024-02-03T01:53:20.683821190+00:00,0,0
2024-02-03T01:53:21.152716960+00:00,1,0
2024-02-03T01:53:21.152766970+00:00,0,0
2024-02-03T01:53:21.180498350+00:00,0,1
2024-02-03T01:53:21.180498810+00:00,0,0
2024-02-03T01:53:21.652715160+00:00,1,0
2024-02-03T01:53:21.652765170+00:00,0,0
2024-02-03T01:53:21.680980070+00:00,0,1
2024-02-03T01:53:21.680980520+00:00,0,0
2024-02-03T01:53:22.152713370+00:00,1,0
2024-02-03T01:53:22.152763380+00:00,0,0
2024-02-03T01:53:22.182451700+00:00,0,1
2024-02-03T01:53:22.182452160+00:00,0,0
2024-02-03T01:53:22.652711570+00:00,1,0
2024-02-03T01:53:22.652761580+00:00,0,0
2024-02-03T01:53:22.682848190+00:00,0,1
2024-02-03T01:53:22.682848640+00:00,0,0
2024-02-03T01:53:23.152709780+00:00,1,0
2024-02-03T01:53:23.152759780+00:00,0,0
2024-02-03T01:53:23.180773720+00:00,0,1
2024-02-03T01:53:23.180774170+00:00,0,0
2024-02-03T01:53:23.652707980+00:00,1,0
2024-02-03T01:53:23.652757990+00:00,0,0
2024-02-03T01:53:23.683315450+00:00,0,1
2024-02-03T01:53:23.683315900+00:00,0,0
2024-02-03T01:53:24.152706190+00:00,1,0
2024-02-03T01:53:24.152756190+00:00,0,0
2024-02-03T01:53:24.185905440+00:00,0,1
2024-02-03T01:53:24.185905890+00:00,0,0
2024-02-03T01:53:24.652704390+00:00,1,0
2024-02-03T01:53:24.652754400+00:00,0,0
2024-02-03T01:53:24.683782690+00:00,0,1
2024-02-03T01:53:24.683783140+00:00,0,0
2024-02-03T01:53:25.152702590+00:00,1,0
2024-02-03T01:53:25.152752600+00:00,0,0
2024-02-03T01:53:25.182251190+00:00,0,1
2024-02-03T01:53:25.182251650+00:00,0,0
2024-02-03T01:53:25.652700790+00:00,1,0
2024-02-03T01:53:25.652750800+00:00,0,0
