Time [s],Channel 0,Channel 1
2024-02-03T01:42:53.711963000+00:00,0,0
2024-02-03T01:42:53.996310990+00:00,1,0
2024-02-03T01:42:53.996361000+00:00,0,0
2024-02-03T01:42:54.193663800+00:00,0,1
2024-02-03T01:42:54.193664260+00:00,0,0
2024-02-03T01:42:54.496309260+00:00,1,0
2024-02-03T01:42:54.496359260+00:00,0,0
2024-02-03T01:42:54.679590870+00:00,0,1
2024-02-03T01:42:54.679591320+00:00,0,0
2024-02-03T01:42:54.996307520+00:00,1,0
2024-02-03T01:42:54.996357530+00:00,0,0
2024-02-03T01:42:55.179312510+00:00,0,1
2024-02-03T01:42:55.179312960+00:00,0,0
2024-02-03T01:42:55.496305780+00:00,1,0
2024-02-03T01:42:55.496355790+00:00,0,0
2024-02-03T01:42:55.681969510+00:00,0,1
2024-02-03T01:42:55.681969960+00:00,0,0
2024-02-03T01:42:55.996304050+00:00,1,0
2024-02-03T01:42:55.996354050+00:00,0,0
2024-02-03T01:42:56.177832790+00:00,0,1
2024-02-03T01:42:56.177833250+00:00,0,0
2024-02-03T01:42:56.496302310+00:00,1,0
2024-02-03T01:42:56.496352320+00:00,0,0
2024-02-03T01:42:56.675469260+00:00,0,1
2024-02-03T01:42:56.675469710+00:00,0,0
2024-02-03T01:42:56.996300570+00:00,1,0
2024-02-03T01:42:56.996350580+00:00,0,0
2024-02-03T01:42:57.182254790+00:00,0,1
2024-02-03T01:42:57.182267160+00:00,0,0
2024-02-03T01:42:57.496298830+00:00,1,0
2024-02-03T01:42:57.496348840+00:00,0,0
2024-02-03T01:42:57.680650550+00:00,0,1
2024-02-03T01:42:57.680670690+00:00,0,0
2024-02-03T01:42:57.996297100+00:00,1,0
2024-02-03T01:42:57.996347100+00:00,0,0
2024-02-03T01:42:58.177118950+00:00,0,1
2024-02-03T01:42:58.177119400+00:00,0,0
2024-02-03T01:42:58.496295360+00:00,1,0
2024-02-03T01:42:58.496345370+00:00,0,0
2024-02-03T01:42:58.680931910+00:00,0,1
2024-02-03T01:42:58.680932360+00:00,0,0
2024-02-03T01:42:58.996293620+00:00,1,0
2024-02-03T01:42:58.996343630+00:00,0,0
2024-02-03T01:42:59.182049770+00:00,0,1
2024-02-03T01:42:59.182050220+00:00,0,0
2024-02-03T01:42:59.496291880+00:00,1,0
2024-02-03T01:42:59.496341890+00:00,0,0
2024-02-03T01:42:59.675731730+00:00,0,1
2024-02-03T01:42:59.675732180+00:00,0,0
2024-02-03T01:42:59.996290140+00:00,1,0
2024-02-03T01:42:59.996340150+00:00,0,0
2024-02-03T01:43:00.176338880+00:00,0,1
2024-02-03T01:43:00.176339340+00:00,0,0
2024-02-03T01:43:00.496288400+00:00,1,0
2024-02-03T01:43:00.496338410+00:00,0,0
2024-02-03T01:43:00.676444240+00:00,0,1
2024-02-03T01:43:00.676444700+00:00,0,0
2024-02-03T01:43:00.996286660+00:00,1,0
2024-02-03T01:43:00.996336670+00:00,0,0
2024-02-03T01:43:01.178019490+00:00,0,1
2024-02-03T01:43:01.178019940+00:00,0,0
2024-02-03T01:43:01.496284920+00:00,1,0
2024-02-03T01:43:01.496334930+00:00,0,0
2024-02-03T01:43:01.677920870+00:00,0,1
2024-02-03T01:43:01.677921330+00:00,0,0
2024-02-03T01:43:01.996283180+00:00,1,0
2024-02-03T01:43:01.996333190+00:00,0,0
2024-02-03T01:43:02.177751050+00:00,0,1
2024-02-03T01:43:02.177751510+00:00,0,0
2024-02-03T01:43:02.496281440+00:00,1,0
2024-02-03T01:43:02.496331450+00:00,0,0
2024-02-03T01:43:02.676692800+00:00,0,1
2024-02-03T01:43:02.676693250+00:00,0,0
2024-02-03T01:43:02.996279690+00:00,1,0
2024-02-03T01:43:02.996329700+00:00,0,0
2024-02-03T01:43:03.181230400+00:00,0,1
2024-02-03T01:43:03.181230850+00:00,0,0
2024-02-03T01:43:03.496277950+00:00,1,0
2024-02-03T01:43:03.496327960+00:00,0,0
2024-02-03T01:43:03.678834970+00:00,0,1
2024-02-03T01:43:03.678835420+00:00,0,0
2024-02-03T01:43:03.996276210+00:00,1,0
2024-02-03T01:43:03.996326220+00:00,0,0
2024-02-03T01:43:04.180198130+00:00,0,1
2024-02-03T01:43:04.180198580+00:00,0,0
2024-02-03T01:43:04.496274470+00:00,1,0
2024-02-03T01:43:04.496324470+00:00,0,0
2024-02-03T01:43:04.675464670+00:00,0,1
2024-02-03T01:43:04.675465120+00:00,0,0
2024-02-03T01:43:04.996272720+00:00,1,0
2024-02-03T01:43:04.996322730+00:00,0,0
2024-02-03T01:43:05.179341930+00:00,0,1
2024-02-03T01:43:05.179342380+00:00,0,0
2024-02-03T01:43:05.496270980+00:00,1,0
2024-02-03T01:43:05.496320990+00:00,0,0
2024-02-03T01:43:05.688877890+00:00,0,1
2024-02-03T01:43:05.688878340+00:00,0,0
2024-02-03T01:43:05.996269230+00:00,1,0
2024-02-03T01:43:05.996319240+00:00,0,0
2024-02-03T01:43:06.176793330+00:00,0,1
2024-02-03T01:43:06.176793790+00:00,0,0
2024-02-03T01:43:06.496267490+00:00,1,0
2024-02-03T01:43:06.496317500+00:00,0,0
2024-02-03T01:43:06.677061820+00:00,0,1
2024-02-03T01:43:06.677062270+00:00,0,0
2024-02-03T01:43:06.996265740+00:00,1,0
2024-02-03T01:43:06.996315750+00:00,0,0
2024-02-03T01:43:07.176096930+00:00,0,1
2024-02-03T01:43:07.176097390+00:00,0,0
2024-02-03T01:43:07.496264000+00:00,1,0
2024-02-03T01:43:07.496314010+00:00,0,0
2024-02-03T01:43:07.676022080+00:00,0,1
2024-02-03T01:43:07.676022540+00:00,0,0
2024-02-03T01:43:07.996262250+00:00,1,0
2024-02-03T01:43:07.996312260+00:00,0,0
2024-02-03T01:43:08.176016240+00:00,0,1
2024-02-03T01:43:08.176016690+00:00,0,0
2024-02-03T01:43:08.496260500+00:00,1,0
2024-02-03T01:43:08.496310510+00:00,0,0
2024-02-03T01:43:08.676452760+00:00,0,1
2024-02-03T01:43:08.676453210+00:00,0,0
2024-02-03T01:43:08.996258760+00:00,1,0
2024-02-03T01:43:08.996308770+00:00,0,0
2024-02-03T01:43:09.175220990+00:00,0,1
2024-02-03T01:43:09.175221450+00:00,0,0
2024-02-03T01:43:09.496257010+00:00,1,0
2024-02-03T01:43:09.496307020+00:00,0,0
2024-02-03T01:43:09.676995640+00:00,0,1
2024-02-03T01:43:09.676996090+00:00,0,0
2024-02-03T01:43:09.996255260+00:00,1,0
2024-02-03T01:43:09.996305270+00:00,0,0
2024-02-03T01:43:10.175224960+00:00,0,1
2024-02-03T01:43:10.175241310+00:00,0,0
2024-02-03T01:43:10.496253520+00:00,1,0
2024-02-03T01:43:10.496303530+00:00,0,0
2024-02-03T01:43:10.679164140+00:00,0,1
2024-02-03T01:43:10.679164600+00:00,0,0
2024-02-03T01:43:10.996251770+00:00,1,0
2024-02-03T01:43:10.996301780+00:00,0,0
2024-02-03T01:43:11.179874550+00:00,0,1
2024-02-03T01:43:11.179875000+00:00,0,0
2024-02-03T01:43:11.496250020+00:00,1,0
2024-02-03T01:43:11.496300030+00:00,0,0
2024-02-03T01:43:11.679358160+00:00,0,1
2024-02-03T01:43:11.679358610+00:00,0,0
2024-02-03T01:43:11.996248270+00:00,1,0
2024-02-03T01:43:11.996298280+00:00,0,0
2024-02-03T01:43:12.177575270+00:00,0,1
2024-02-03T01:43:12.177575730+00:00,0,0
2024-02-03T01:43:12.496246530+00:00,1,0
2024-02-03T01:43:12.496296530+00:00,0,0
2024-02-03T01:43:12.675182090+00:00,0,1
2024-02-03T01:43:12.675182540+00:00,0,0
2024-02-03T01:43:12.996244780+00:00,1,0
2024-02-03T01:43:12.996294790+00:00,0,0
2024-02-03T01:43:13.175031130+00:00,0,1
2024-02-03T01:43:13.175031590+00:00,0,0
2024-02-03T01:43:13.496243030+00:00,1,0
2024-02-03T01:43:13.496293040+00:00,0,0
2024-02-03T01:43:13.683336110+00:00,0,1
2024-02-03T01:43:13.683336560+00:00,0,0
2024-02-03T01:43:13.996241280+00:00,1,0
2024-02-03T01:43:13.996291290+00:00,0,0
2024-02-03T01:43:14.182149280+00:00,0,1
2024-02-03T01:43:14.182149740+00:00,0,0
2024-02-03T01:43:14.496239530+00:00,1,0
2024-02-03T01:43:14.496289540+00:00,0,0
2024-02-03T01:43:14.676099110+00:00,0,1
2024-02-03T01:43:14.676099560+00:00,0,0
2024-02-03T01:43:14.996237780+00:00,1,0
2024-02-03T01:43:14.996287790+00:00,0,0
2024-02-03T01:43:15.174913220+00:00,0,1
2024-02-03T01:43:15.174913670+00:00,0,0
2024-02-03T01:43:15.496236030+00:00,1,0
2024-02-03T01:43:15.496286040+00:00,0,0
2024-02-03T01:43:15.676744240+00:00,0,1
2024-02-03T01:43:15.676744690+00:00,0,0
2024-02-03T01:43:15.996234280+00:00,1,0
2024-02-03T01:43:15.996284290+00:00,0,0
2024-02-03T01:43:16.176879350+00:00,0,1
2024-02-03T01:43:16.176879800+00:00,0,0
2024-02-03T01:43:16.496232530+00:00,1,0
2024-02-03T01:43:16.496282540+00:00,0,0
2024-02-03T01:43:16.675275170+00:00,0,1
2024-02-03T01:43:16.675275620+00:00,0,0
2024-02-03T01:43:16.996230780+00:00,1,0
2024-02-03T01:43:16.996280790+00:00,0,0
2024-02-03T01:43:17.178692420+00:00,0,1
2024-02-03T01:43:17.178692870+00:00,0,0
2024-02-03T01:43:17.496229030+00:00,1,0
2024-02-03T01:43:17.496279040+00:00,0,0
2024-02-03T01:43:17.677094450+00:00,0,1
2024-02-03T01:43:17.677094900+00:00,0,0
2024-02-03T01:43:17.996227280+00:00,1,0
2024-02-03T01:43:17.996277290+00:00,0,0
2024-02-03T01:43:18.182988040+00:00,0,1
2024-02-03T01:43:18.182988490+00:00,0,0
2024-02-03T01:43:18.496225530+00:00,1,0
2024-02-03T01:43:18.496275540+00:00,0,0
2024-02-03T01:43:18.676341110+00:00,0,1
2024-02-03T01:43:18.676341570+00:00,0,0
2024-02-03T01:43:18.996223780+00:00,1,0
2024-02-03T01:43:18.996273790+00:00,0,0
2024-02-03T01:43:19.175470250+00:00,0,1
2024-02-03T01:43:19.175470700+00:00,0,0
2024-02-03T01:43:19.496222030+00:00,1,0
2024-02-03T01:43:19.496272030+00:00,0,0
2024-02-03T01:43:19.677949380+00:00,0,1
2024-02-03T01:43:19.677949830+00:00,0,0
2024-02-03T01:43:19.996220270+00:00,1,0
2024-02-03T01:43:19.996270280+00:00,0,0
2024-02-03T01:43:20.177134490+00:00,0,1
2024-02-03T01:43:20.177134940+00:00,0,0
2024-02-03T01:43:20.496218520+00:00,1,0
2024-02-03T01:43:20.496268530+00:00,0,0
2024-02-03T01:43:20.676654990+00:00,0,1
2024-02-03T01:43:20.676655440+00:00,0,0
2024-02-03T01:43:20.996216770+00:00,1,0
2024-02-03T01:43:20.996266780+00:00,0,0
2024-02-03T01:43:21.177020210+00:00,0,1
2024-02-03T01:43:21.177020660+00:00,0,0
2024-02-03T01:43:21.496215020+00:00,1,0
2024-02-03T01:43:21.496265030+00:00,0,0
2024-02-03T01:43:21.686151180+00:00,0,1
2024-02-03T01:43:21.686151630+00:00,0,0
2024-02-03T01:43:21.996213270+00:00,1,0
2024-02-03T01:43:21.996263280+00:00,0,0
2024-02-03T01:43:22.177925890+00:00,0,1
2024-02-03T01:43:22.177926340+00:00,0,0
2024-02-03T01:43:22.496211520+00:00,1,0
2024-02-03T01:43:22.496261530+00:00,0,0
2024-02-03T01:43:22.680887590+00:00,0,1
2024-02-03T01:43:22.680888040+00:00,0,0
2024-02-03T01:43:22.996209760+00:00,1,0
2024-02-03T01:43:22.996259770+00:00,0,0
2024-02-03T01:43:23.175241270+00:00,0,1
2024-02-03T01:43:23.175241730+00:00,0,0
2024-02-03T01:43:23.496208010+00:00,1,0
2024-02-03T01:43:23.496258020+00:00,0,0
2024-02-03T01:43:23.677085310+00:00,0,1
2024-02-03T01:43:23.677085760+00:00,0,0
2024-02-03T01:43:23.996206260+00:00,1,0
2024-02-03T01:43:23.996256270+00:00,0,0
2024-02-03T01:43:24.179010540+00:00,0,1
2024-02-03T01:43:24.179010990+00:00,0,0
2024-02-03T01:43:24.496204510+00:00,1,0
2024-02-03T01:43:24.496254510+00:00,0,0
2024-02-03T01:43:24.677719030+00:00,0,1
2024-02-03T01:43:24.677719480+00:00,0,0
2024-02-03T01:43:24.996202750+00:00,1,0
2024-02-03T01:43:24.996252760+00:00,0,0
2024-02-03T01:43:25.177485220+00:00,0,1
2024-02-03T01:43:25.177485670+00:00,0,0
2024-02-03T01:43:25.496201000+00:00,1,0
2024-02-03T01:43:25.496251010+00:00,0,0
2024-02-03T01:43:25.675271260+00:00,0,1
2024-02-03T01:43:25.675271710+00:00,0,0
2024-02-03T01:43:25.996199250+00:00,1,0
2024-02-03T01:43:25.996249250+00:00,0,0
2024-02-03T01:43:26.189732930+00:00,0,1
2024-02-03T01:43:26.189733380+00:00,0,0
2024-02-03T01:43:26.496197490+00:00,1,0
2024-02-03T01:43:26.496247500+00:00,0,0
2024-02-03T01:43:26.680469850+00:00,0,1
2024-02-03T01:43:26.680470300+00:00,0,0
2024-02-03T01:43:26.996195740+00:00,1,0
2024-02-03T01:43:26.996245750+00:00,0,0
2024-02-03T01:43:27.181373270+00:00,0,1
2024-02-03T01:43:27.181373730+00:00,0,0
2024-02-03T01:43:27.496193980+00:00,1,0
2024-02-03T01:43:27.496243990+00:00,0,0
2024-02-03T01:43:27.683456330+00:00,0,1
2024-02-03T01:43:27.683456790+00:00,0,0
2024-02-03T01:43:27.996192230+00:00,1,0
2024-02-03T01:43:27.996242240+00:00,0,0
2024-02-03T01:43:28.180408130+00:00,0,1
2024-02-03T01:43:28.180408580+00:00,0,0
2024-02-03T01:43:28.496190480+00:00,1,0
2024-02-03T01:43:28.496240490+00:00,0,0
2024-02-03T01:43:28.675754140+00:00,0,1
2024-02-03T01:43:28.675754590+00:00,0,0
2024-02-03T01:43:28.996188720+00:00,1,0
2024-02-03T01:43:28.996238730+00:00,0,0
2024-02-03T01:43:29.189647310+00:00,0,1
2024-02-03T01:43:29.189647760+00:00,0,0
2024-02-03T01:43:29.496186970+00:00,1,0
2024-02-03T01:43:29.496236980+00:00,0,0
2024-02-03T01:43:29.678487600+00:00,0,1
2024-02-03T01:43:29.678488060+00:00,0,0
2024-02-03T01:43:29.996185220+00:00,1,0
2024-02-03T01:43:29.996235220+00:00,0,0
2024-02-03T01:43:30.176000650+00:00,0,1
2024-02-03T01:43:30.176017010+00:00,0,0
2024-02-03T01:43:30.496183460+00:00,1,0
2024-02-03T01:43:30.496233470+00:00,0,0
2024-02-03T01:43:30.675291170+00:00,0,1
2024-02-03T01:43:30.675291630+00:00,0,0
2024-02-03T01:43:30.996181710+00:00,1,0
2024-02-03T01:43:30.996231710+00:00,0,0
2024-02-03T01:43:31.186630070+00:00,0,1
2024-02-03T01:43:31.186630520+00:00,0,0
2024-02-03T01:43:31.496179950+00:00,1,0
2024-02-03T01:43:31.496229960+00:00,0,0
2024-02-03T01:43:31.678588510+00:00,0,1
2024-02-03T01:43:31.678588960+00:00,0,0
2024-02-03T01:43:31.996178190+00:00,1,0
2024-02-03T01:43:31.996228200+00:00,0,0
2024-02-03T01:43:32.176035170+00:00,0,1
2024-02-03T01:43:32.176035620+00:00,0,0
2024-02-03T01:43:32.496176440+00:00,1,0
2024-02-03T01:43:32.496226450+00:00,0,0
2024-02-03T01:43:32.681416600+00:00,0,1
2024-02-03T01:43:32.681417050+00:00,0,0
2024-02-03T01:43:32.996174680+00:00,1,0
2024-02-03T01:43:32.996224690+00:00,0,0
2024-02-03T01:43:33.174884400+00:00,0,1
2024-02-03T01:43:33.174884850+00:00,0,0
2024-02-03T01:43:33.496172930+00:00,1,0
2024-02-03T01:43:33.496222940+00:00,0,0
2024-02-03T01:43:33.676359390+00:00,0,1
2024-02-03T01:43:33.676359840+00:00,0,0
2024-02-03T01:43:33.996171170+00:00,1,0
2024-02-03T01:43:33.996221180+00:00,0,0
2024-02-03T01:43:34.179747070+00:00,0,1
2024-02-03T01:43:34.179747520+00:00,0,0
2024-02-03T01:43:34.496169420+00:00,1,0
2024-02-03T01:43:34.496219430+00:00,0,0
2024-02-03T01:43:34.677040170+00:00,0,1
2024-02-03T01:43:34.677040620+00:00,0,0
2024-02-03T01:43:34.996167660+00:00,1,0
2024-02-03T01:43:34.996217670+00:00,0,0
2024-02-03T01:43:35.175208390+00:00,0,1
2024-02-03T01:43:35.175208840+00:00,0,0
2024-02-03T01:43:35.496165910+00:00,1,0
2024-02-03T01:43:35.496215920+00:00,0,0
2024-02-03T01:43:35.675683530+00:00,0,1
2024-02-03T01:43:35.675683980+00:00,0,0
2024-02-03T01:43:35.996164150+00:00,1,0
2024-02-03T01:43:35.996214160+00:00,0,0
2024-02-03T01:43:36.187656280+00:00,0,1
2024-02-03T01:43:36.187656740+00:00,0,0
2024-02-03T01:43:36.496162400+00:00,1,0
2024-02-03T01:43:36.496212410+00:00,0,0
2024-02-03T01:43:36.676367580+00:00,0,1
2024-02-03T01:43:36.676368030+00:00,0,0
2024-02-03T01:43:36.996160640+00:00,1,0
2024-02-03T01:43:36.996210650+00:00,0,0
2024-02-03T01:43:37.177035390+00:00,0,1
2024-02-03T01:43:37.177035850+00:00,0,0
2024-02-03T01:43:37.496158880+00:00,1,0
2024-02-03T01:43:37.496208890+00:00,0,0
2024-02-03T01:43:37.676317420+00:00,0,1
2024-02-03T01:43:37.676317880+00:00,0,0
2024-02-03T01:43:37.996157130+00:00,1,0
2024-02-03T01:43:37.996207140+00:00,0,0
2024-02-03T01:43:38.182395730+00:00,0,1
2024-02-03T01:43:38.182396190+00:00,0,0
2024-02-03T01:43:38.496155370+00:00,1,0
2024-02-03T01:43:38.496205380+00:00,0,0
2024-02-03T01:43:38.678697180+00:00,0,1
2024-02-03T01:43:38.678697640+00:00,0,0
2024-02-03T01:43:38.996153620+00:00,1,0
2024-02-03T01:43:38.996203630+00:00,0,0
2024-02-03T01:43:39.177115410+00:00,0,1
2024-02-03T01:43:39.177115860+00:00,0,0
2024-02-03T01:43:39.496151860+00:00,1,0
2024-02-03T01:43:39.496201870+00:00,0,0
2024-02-03T01:43:39.683253170+00:00,0,1
2024-02-03T01:43:39.683253620+00:00,0,0
2024-02-03T01:43:39.996150100+00:00,1,0
2024-02-03T01:43:39.996200110+00:00,0,0
2024-02-03T01:43:40.193026890+00:00,0,1
2024-02-03T01:43:40.193039260+00:00,0,0
2024-02-03T01:43:40.496148350+00:00,1,0
2024-02-03T01:43:40.496198360+00:00,0,0
2024-02-03T01:43:40.681249130+00:00,0,1
2024-02-03T01:43:40.681269280+00:00,0,0
2024-02-03T01:43:40.996146590+00:00,1,0
2024-02-03T01:43:40.996196600+00:00,0,0
2024-02-03T01:43:41.176424280+00:00,0,1
2024-02-03T01:43:41.176424730+00:00,0,0
2024-02-03T01:43:41.496144830+00:00,1,0
2024-02-03T01:43:41.496194840+00:00,0,0
2024-02-03T01:43:41.678404450+00:00,0,1
2024-02-03T01:43:41.678404900+00:00,0,0
2024-02-03T01:43:41.996143070+00:00,1,0
2024-02-03T01:43:41.996193080+00:00,0,0
2024-02-03T01:43:42.175554870+00:00,0,1
2024-02-03T01:43:42.175555320+00:00,0,0
2024-02-03T01:43:42.496141320+00:00,1,0
2024-02-03T01:43:42.496191330+00:00,0,0
2024-02-03T01:43:42.679812560+00:00,0,1
2024-02-03T01:43:42.679813020+00:00,0,0
2024-02-03T01:43:42.996139560+00:00,1,0
2024-02-03T01:43:42.996189570+00:00,0,0
2024-02-03T01:43:43.180933470+00:00,0,1
2024-02-03T01:43:43.180933930+00:00,0,0
2024-02-03T01:43:43.496137800+00:00,1,0
2024-02-03T01:43:43.496187810+00:00,0,0
2024-02-03T01:43:43.677671880+00:00,0,1
2024-02-03T01:43:43.677672330+00:00,0,0
2024-02-03T01:43:43.996136050+00:00,1,0
2024-02-03T01:43:43.996186050+00:00,0,0
2024-02-03T01:43:44.177627080+00:00,0,1
2024-02-03T01:43:44.177627540+00:00,0,0
2024-02-03T01:43:44.496134290+00:00,1,0
2024-02-03T01:43:44.496184300+00:00,0,0
2024-02-03T01:43:44.680370990+00:00,0,1
2024-02-03T01:43:44.680387340+00:00,0,0
2024-02-03T01:43:44.996132530+00:00,1,0
2024-02-03T01:43:44.996182540+00:00,0,0
2024-02-03T01:43:45.178885410+00:00,0,1
2024-02-03T01:43:45.178885860+00:00,0,0
2024-02-03T01:43:45.496130770+00:00,1,0
2024-02-03T01:43:45.496180780+00:00,0,0
2024-02-03T01:43:45.677449400+00:00,0,1
2024-02-03T01:43:45.677449850+00:00,0,0
2024-02-03T01:43:45.996129020+00:00,1,0
2024-02-03T01:43:45.996179020+00:00,0,0
2024-02-03T01:43:46.177087160+00:00,0,1
2024-02-03T01:43:46.177087610+00:00,0,0
2024-02-03T01:43:46.496127260+00:00,1,0
2024-02-03T01:43:46.496177270+00:00,0,0
2024-02-03T01:43:46.679547190+00:00,0,1
2024-02-03T01:43:46.679547650+00:00,0,0
2024-02-03T01:43:46.996125500+00:00,1,0
2024-02-03T01:43:46.996175510+00:00,0,0
2024-02-03T01:43:47.175325350+00:00,0,1
2024-02-03T01:43:47.175325800+00:00,0,0
2024-02-03T01:43:47.496123740+00:00,1,0
2024-02-03T01:43:47.496173750+00:00,0,0
2024-02-03T01:43:47.677140850+00:00,0,1
2024-02-03T01:43:47.677141300+00:00,0,0
2024-02-03T01:43:47.996121980+00:00,1,0
2024-02-03T01:43:47.996171990+00:00,0,0
2024-02-03T01:43:48.182480610+00:00,0,1
2024-02-03T01:43:48.182481070+00:00,0,0
2024-02-03T01:43:48.496120230+00:00,1,0
2024-02-03T01:43:48.496170230+00:00,0,0
2024-02-03T01:43:48.677384130+00:00,0,1
2024-02-03T01:43:48.677384580+00:00,0,0
2024-02-03T01:43:48.996118470+00:00,1,0
2024-02-03T01:43:48.996168480+00:00,0,0
2024-02-03T01:43:49.176807440+00:00,0,1
2024-02-03T01:43:49.176807890+00:00,0,0
2024-02-03T01:43:49.496116710+00:00,1,0
2024-02-03T01:43:49.496166720+00:00,0,0
2024-02-03T01:43:49.678303080+00:00,0,1
2024-02-03T01:43:49.678303530+00:00,0,0
2024-02-03T01:43:49.996114950+00:00,1,0
2024-02-03T01:43:49.996164960+00:00,0,0
2024-02-03T01:43:50.176305090+00:00,0,1
2024-02-03T01:43:50.176305540+00:00,0,0
2024-02-03T01:43:50.496113190+00:00,1,0
2024-02-03T01:43:50.496163200+00:00,0,0
2024-02-03T01:43:50.675743170+00:00,0,1
2024-02-03T01:43:50.675743630+00:00,0,0
2024-02-03T01:43:50.996111430+00:00,1,0
2024-02-03T01:43:50.996161440+00:00,0,0
2024-02-03T01:43:51.180539320+00:00,0,1
2024-02-03T01:43:51.180539780+00:00,0,0
2024-02-03T01:43:51.496109670+00:00,1,0
2024-02-03T01:43:51.496159680+00:00,0,0
2024-02-03T01:43:51.678637880+00:00,0,1
2024-02-03T01:43:51.678638340+00:00,0,0
2024-02-03T01:43:51.996107920+00:00,1,0
2024-02-03T01:43:51.996157930+00:00,0,0
2024-02-03T01:43:52.177851180+00:00,0,1
2024-02-03T01:43:52.177851630+00:00,0,0
2024-02-03T01:43:52.496106160+00:00,1,0
2024-02-03T01:43:52.496156170+00:00,0,0
2024-02-03T01:43:52.688738590+00:00,0,1
2024-02-03T01:43:52.688739040+00:00,0,0
2024-02-03T01:43:52.996104400+00:00,1,0
2024-02-03T01:43:52.996154410+00:00,0,0
2024-02-03T01:43:53.176872400+00:00,0,1
2024-02-03T01:43:53.176872850+00:00,0,0
2024-02-03T01:43:53.496102640+00:00,1,0
2024-02-03T01:43:53.496152650+00:00,0,0
2024-02-03T01:43:53.680957050+00:00,0,1
2024-02-03T01:43:53.680957510+00:00,0,0
2024-02-03T01:43:53.996100880+00:00,1,0
2024-02-03T01:43:53.996150890+00:00,0,0
2024-02-03T01:43:54.180965080+00:00,0,1
2024-02-03T01:43:54.180965530+00:00,0,0
2024-02-03T01:43:54.496099120+00:00,1,0
2024-02-03T01:43:54.496149130+00:00,0,0
2024-02-03T01:43:54.678784710+00:00,0,1
2024-02-03T01:43:54.678785160+00:00,0,0
2024-02-03T01:43:54.996097360+00:00,1,0
2024-02-03T01:43:54.996147370+00:00,0,0
2024-02-03T01:43:55.178963510+00:00,0,1
2024-02-03T01:43:55.178963970+00:00,0,0
2024-02-03T01:43:55.496095600+00:00,1,0
2024-02-03T01:43:55.496145610+00:00,0,0
2024-02-03T01:43:55.677369940+00:00,0,1
2024-02-03T01:43:55.677370390+00:00,0,0
2024-02-03T01:43:55.996093840+00:00,1,0
2024-02-03T01:43:55.996143850+00:00,0,0
