Time [s],Channel 0,Channel 1
2024-02-03T01:36:56.149677000+00:00,0,0
2024-02-03T01:36:56.280143350+00:00,1,0
2024-02-03T01:36:56.280193360+00:00,0,0
2024-02-03T01:36:56.411682320+00:00,0,1
2024-02-03T01:36:56.411682770+00:00,0,0
2024-02-03T01:36:56.780141670+00:00,1,0
2024-02-03T01:36:56.780191670+00:00,0,0
2024-02-03T01:36:56.911383650+00:00,0,1
2024-02-03T01:36:56.911384100+00:00,0,0
2024-02-03T01:36:57.280139980+00:00,1,0
2024-02-03T01:36:57.280189990+00:00,0,0
2024-02-03T01:36:57.416262330+00:00,0,1
2024-02-03T01:36:57.416262790+00:00,0,0
2024-02-03T01:36:57.780138290+00:00,1,0
2024-02-03T01:36:57.780188300+00:00,0,0
2024-02-03T01:36:57.914146960+00:00,0,1
2024-02-03T01:36:57.914147410+00:00,0,0
2024-02-03T01:36:58.280136600+00:00,1,0
2024-02-03T01:36:58.280186610+00:00,0,0
2024-02-03T01:36:58.415645640+00:00,0,1
2024-02-03T01:36:58.415646090+00:00,0,0
2024-02-03T01:36:58.780134910+00:00,1,0
2024-02-03T01:36:58.780184920+00:00,0,0
2024-02-03T01:36:58.918579810+00:00,0,1
2024-02-03T01:36:58.918580270+00:00,0,0
2024-02-03T01:36:59.280133220+00:00,1,0
2024-02-03T01:36:59.280183230+00:00,0,0
2024-02-03T01:36:59.414732460+00:00,0,1
2024-02-03T01:36:59.414732910+00:00,0,0
2024-02-03T01:36:59.780131530+00:00,1,0
2024-02-03T01:36:59.780181540+00:00,0,0
2024-02-03T01:36:59.916083710+00:00,0,1
2024-02-03T01:36:59.916084160+00:00,0,0
2024-02-03T01:37:00.280129840+00:00,1,0
2024-02-03T01:37:00.280179850+00:00,0,0
2024-02-03T01:37:00.421364680+00:00,0,1
2024-02-03T01:37:00.421365140+00:00,0,0
2024-02-03T01:37:00.780128150+00:00,1,0
2024-02-03T01:37:00.780178160+00:00,0,0
2024-02-03T01:37:00.915690020+00:00,0,1
2024-02-03T01:37:00.915690480+00:00,0,0
2024-02-03T01:37:01.280126460+00:00,1,0
2024-02-03T01:37:01.280176470+00:00,0,0
2024-02-03T01:37:01.418604340+00:00,0,1
2024-02-03T01:37:01.418604790+00:00,0,0
2024-02-03T01:37:01.780124770+00:00,1,0
2024-02-03T01:37:01.780174780+00:00,0,0
2024-02-03T01:37:01.914897460+00:00,0,1
2024-02-03T01:37:01.914897910+00:00,0,0
2024-02-03T01:37:02.280123080+00:00,1,0
2024-02-03T01:37:02.280173090+00:00,0,0
2024-02-03T01:37:02.415604060+00:00,0,1
2024-02-03T01:37:02.415604510+00:00,0,0
2024-02-03T01:37:02.780121390+00:00,1,0
2024-02-03T01:37:02.780171390+00:00,0,0
2024-02-03T01:37:02.918617870+00:00,0,1
2024-02-03T01:37:02.918618330+00:00,0,0
2024-02-03T01:37:03.280119690+00:00,1,0
2024-02-03T01:37:03.280169700+00:00,0,0
2024-02-03T01:37:03.413974040+00:00,0,1
2024-02-03T01:37:03.413974490+00:00,0,0
2024-02-03T01:37:03.780118000+00:00,1,0
2024-02-03T01:37:03.780168010+00:00,0,0
2024-02-03T01:37:03.912221940+00:00,0,1
2024-02-03T01:37:03.912222390+00:00,0,0
2024-02-03T01:37:04.280116310+00:00,1,0
2024-02-03T01:37:04.280166320+00:00,0,0
2024-02-03T01:37:04.419767430+00:00,0,1
2024-02-03T01:37:04.419767890+00:00,0,0
2024-02-03T01:37:04.780114610+00:00,1,0
2024-02-03T01:37:04.780164620+00:00,0,0
2024-02-03T01:37:04.921102860+00:00,0,1
2024-02-03T01:37:04.921103320+00:00,0,0
2024-02-03T01:37:05.280112920+00:00,1,0
2024-02-03T01:37:05.280162930+00:00,0,0
2024-02-03T01:37:05.414902940+00:00,0,1
2024-02-03T01:37:05.414903390+00:00,0,0
2024-02-03T01:37:05.780111220+00:00,1,0
2024-02-03T01:37:05.780161230+00:00,0,0
2024-02-03T01:37:05.915124270+00:00,0,1
2024-02-03T01:37:05.915124720+00:00,0,0
2024-02-03T01:37:06.280109530+00:00,1,0
2024-02-03T01:37:06.280159540+00:00,0,0
2024-02-03T01:37:06.412118280+00:00,0,1
2024-02-03T01:37:06.412118740+00:00,0,0
2024-02-03T01:37:06.780107830+00:00,1,0
2024-02-03T01:37:06.780157840+00:00,0,0
2024-02-03T01:37:06.914938880+00:00,0,1
2024-02-03T01:37:06.914939330+00:00,0,0
2024-02-03T01:37:07.280106140+00:00,1,0
2024-02-03T01:37:07.280156140+00:00,0,0
2024-02-03T01:37:07.416374460+00:00,0,1
2024-02-03T01:37:07.416374910+00:00,0,0
2024-02-03T01:37:07.780104440+00:00,1,0
2024-02-03T01:37:07.780154450+00:00,0,0
2024-02-03T01:37:07.914203290+00:00,0,1
2024-02-03T01:37:07.914203740+00:00,0,0
2024-02-03T01:37:08.280102740+00:00,1,0
2024-02-03T01:37:08.280152750+00:00,0,0
2024-02-03T01:37:08.412379460+00:00,0,1
2024-02-03T01:37:08.412379920+00:00,0,0
2024-02-03T01:37:08.780101040+00:00,1,0
2024-02-03T01:37:08.780151050+00:00,0,0
2024-02-03T01:37:08.920582810+00:00,0,1
2024-02-03T01:37:08.920583260+00:00,0,0
2024-02-03T01:37:09.280099350+00:00,1,0
2024-02-03T01:37:09.280149350+00:00,0,0
2024-02-03T01:37:09.413659500+00:00,0,1
2024-02-03T01:37:09.413659950+00:00,0,0
2024-02-03T01:37:09.780097650+00:00,1,0
2024-02-03T01:37:09.780147660+00:00,0,0
2024-02-03T01:37:09.912309620+00:00,0,1
2024-02-03T01:37:09.912310080+00:00,0,0
2024-02-03T01:37:10.280095950+00:00,1,0
2024-02-03T01:37:10.280145960+00:00,0,0
2024-02-03T01:37:10.416818750+00:00,0,1
2024-02-03T01:37:10.416819200+00:00,0,0
2024-02-03T01:37:10.780094250+00:00,1,0
2024-02-03T01:37:10.780144260+00:00,0,0
2024-02-03T01:37:10.914445450+00:00,0,1
2024-02-03T01:37:10.914445900+00:00,0,0
2024-02-03T01:37:11.280092550+00:00,1,0
2024-02-03T01:37:11.280142560+00:00,0,0
2024-02-03T01:37:11.414379950+00:00,0,1
2024-02-03T01:37:11.414380400+00:00,0,0
2024-02-03T01:37:11.780090850+00:00,1,0
2024-02-03T01:37:11.780140860+00:00,0,0
2024-02-03T01:37:11.916330790+00:00,0,1
2024-02-03T01:37:11.916331240+00:00,0,0
2024-02-03T01:37:12.280089150+00:00,1,0
2024-02-03T01:37:12.280139160+00:00,0,0
2024-02-03T01:37:12.415611730+00:00,0,1
2024-02-03T01:37:12.415612180+00:00,0,0
2024-02-03T01:37:12.780087450+00:00,1,0
2024-02-03T01:37:12.780137460+00:00,0,0
2024-02-03T01:37:12.919471280+00:00,0,1
2024-02-03T01:37:12.919471740+00:00,0,0
2024-02-03T01:37:13.280085750+00:00,1,0
2024-02-03T01:37:13.280135760+00:00,0,0
2024-02-03T01:37:13.412679810+00:00,0,1
2024-02-03T01:37:13.412680260+00:00,0,0
2024-02-03T01:37:13.780084050+00:00,1,0
2024-02-03T01:37:13.780134060+00:00,0,0
2024-02-03T01:37:13.912851120+00:00,0,1
2024-02-03T01:37:13.912851580+00:00,0,0
2024-02-03T01:37:14.280082350+00:00,1,0
2024-02-03T01:37:14.280132360+00:00,0,0
2024-02-03T01:37:14.415295140+00:00,0,1
2024-02-03T01:37:14.415295590+00:00,0,0
2024-02-03T01:37:14.780080640+00:00,1,0
2024-02-03T01:37:14.780130650+00:00,0,0
2024-02-03T01:37:14.915128860+00:00,0,1
2024-02-03T01:37:14.915129310+00:00,0,0
2024-02-03T01:37:15.280078940+00:00,1,0
2024-02-03T01:37:15.280128950+00:00,0,0
2024-02-03T01:37:15.415049420+00:00,0,1
2024-02-03T01:37:15.415049880+00:00,0,0
2024-02-03T01:37:15.780077240+00:00,1,0
2024-02-03T01:37:15.780127250+00:00,0,0
2024-02-03T01:37:15.914046180+00:00,0,1
2024-02-03T01:37:15.914046630+00:00,0,0
2024-02-03T01:37:16.280075540+00:00,1,0
2024-02-03T01:37:16.280125550+00:00,0,0
2024-02-03T01:37:16.414969950+00:00,0,1
2024-02-03T01:37:16.414970400+00:00,0,0
2024-02-03T01:37:16.780073830+00:00,1,0
2024-02-03T01:37:16.780123840+00:00,0,0
2024-02-03T01:37:16.912370100+00:00,0,1
2024-02-03T01:37:16.912370550+00:00,0,0
2024-02-03T01:37:17.280072130+00:00,1,0
2024-02-03T01:37:17.280122140+00:00,0,0
2024-02-03T01:37:17.412222200+00:00,0,1
2024-02-03T01:37:17.412222650+00:00,0,0
2024-02-03T01:37:17.780070430+00:00,1,0
2024-02-03T01:37:17.780120440+00:00,0,0
2024-02-03T01:37:17.911606410+00:00,0,1
2024-02-03T01:37:17.911606860+00:00,0,0
2024-02-03T01:37:18.280068720+00:00,1,0
2024-02-03T01:37:18.280118730+00:00,0,0
2024-02-03T01:37:18.412158510+00:00,0,1
2024-02-03T01:37:18.412158960+00:00,0,0
2024-02-03T01:37:18.780067020+00:00,1,0
2024-02-03T01:37:18.780117030+00:00,0,0
2024-02-03T01:37:18.914699210+00:00,0,1
2024-02-03T01:37:18.914699660+00:00,0,0
2024-02-03T01:37:19.280065320+00:00,1,0
2024-02-03T01:37:19.280115330+00:00,0,0
2024-02-03T01:37:19.414011680+00:00,0,1
2024-02-03T01:37:19.414012130+00:00,0,0
2024-02-03T01:37:19.780063610+00:00,1,0
2024-02-03T01:37:19.780113620+00:00,0,0
2024-02-03T01:37:19.913672640+00:00,0,1
2024-02-03T01:37:19.913673090+00:00,0,0
2024-02-03T01:37:20.280061910+00:00,1,0
2024-02-03T01:37:20.280111920+00:00,0,0
2024-02-03T01:37:20.414972940+00:00,0,1
2024-02-03T01:37:20.414973390+00:00,0,0
2024-02-03T01:37:20.780060200+00:00,1,0
2024-02-03T01:37:20.780110210+00:00,0,0
2024-02-03T01:37:20.916590730+00:00,0,1
2024-02-03T01:37:20.916591180+00:00,0,0
2024-02-03T01:37:21.280058500+00:00,1,0
2024-02-03T01:37:21.280108510+00:00,0,0
2024-02-03T01:37:21.413360420+00:00,0,1
2024-02-03T01:37:21.413360880+00:00,0,0
2024-02-03T01:37:21.780056790+00:00,1,0
2024-02-03T01:37:21.780106800+00:00,0,0
2024-02-03T01:37:21.915842790+00:00,0,1
2024-02-03T01:37:21.915843240+00:00,0,0
2024-02-03T01:37:22.280055090+00:00,1,0
2024-02-03T01:37:22.280105100+00:00,0,0
2024-02-03T01:37:22.414227900+00:00,0,1
2024-02-03T01:37:22.414228350+00:00,0,0
2024-02-03T01:37:22.780053380+00:00,1,0
2024-02-03T01:37:22.780103390+00:00,0,0
2024-02-03T01:37:22.915288670+00:00,0,1
2024-02-03T01:37:22.915289120+00:00,0,0
2024-02-03T01:37:23.280051680+00:00,1,0
2024-02-03T01:37:23.280101680+00:00,0,0
2024-02-03T01:37:23.415995710+00:00,0,1
2024-02-03T01:37:23.415996170+00:00,0,0
2024-02-03T01:37:23.780049970+00:00,1,0
2024-02-03T01:37:23.780099980+00:00,0,0
2024-02-03T01:37:23.916708920+00:00,0,1
2024-02-03T01:37:23.916709370+00:00,0,0
2024-02-03T01:37:24.280048260+00:00,1,0
2024-02-03T01:37:24.280098270+00:00,0,0
2024-02-03T01:37:24.413585540+00:00,0,1
2024-02-03T01:37:24.413585990+00:00,0,0
2024-02-03T01:37:24.780046560+00:00,1,0
2024-02-03T01:37:24.780096560+00:00,0,0
2024-02-03T01:37:24.912726180+00:00,0,1
2024-02-03T01:37:24.912726630+00:00,0,0
2024-02-03T01:37:25.280044850+00:00,1,0
2024-02-03T01:37:25.280094860+00:00,0,0
2024-02-03T01:37:25.415542960+00:00,0,1
2024-02-03T01:37:25.415543410+00:00,0,0
2024-02-03T01:37:25.780043140+00:00,1,0
2024-02-03T01:37:25.780093150+00:00,0,0
2024-02-03T01:37:25.920354060+00:00,0,1
2024-02-03T01:37:25.920354510+00:00,0,0
2024-02-03T01:37:26.280041440+00:00,1,0
2024-02-03T01:37:26.280091450+00:00,0,0
2024-02-03T01:37:26.416217250+00:00,0,1
2024-02-03T01:37:26.416217710+00:00,0,0
2024-02-03T01:37:26.780039730+00:00,1,0
2024-02-03T01:37:26.780089740+00:00,0,0
2024-02-03T01:37:26.914487950+00:00,0,1
2024-02-03T01:37:26.914488400+00:00,0,0
2024-02-03T01:37:27.280038020+00:00,1,0
2024-02-03T01:37:27.280088030+00:00,0,0
2024-02-03T01:37:27.415708460+00:00,0,1
2024-02-03T01:37:27.415708920+00:00,0,0
2024-02-03T01:37:27.780036310+00:00,1,0
2024-02-03T01:37:27.780086320+00:00,0,0
2024-02-03T01:37:27.917544320+00:00,0,1
2024-02-03T01:37:27.917544770+00:00,0,0
2024-02-03T01:37:28.280034610+00:00,1,0
2024-02-03T01:37:28.280084620+00:00,0,0
2024-02-03T01:37:28.416496920+00:00,0,1
2024-02-03T01:37:28.416497370+00:00,0,0
2024-02-03T01:37:28.780032900+00:00,1,0
2024-02-03T01:37:28.780082910+00:00,0,0
2024-02-03T01:37:28.912659580+00:00,0,1
2024-02-03T01:37:28.912660040+00:00,0,0
2024-02-03T01:37:29.280031190+00:00,1,0
2024-02-03T01:37:29.280081200+00:00,0,0
2024-02-03T01:37:29.415834390+00:00,0,1
2024-02-03T01:37:29.415834840+00:00,0,0
2024-02-03T01:37:29.780029480+00:00,1,0
2024-02-03T01:37:29.780079490+00:00,0,0
2024-02-03T01:37:29.917213440+00:00,0,1
2024-02-03T01:37:29.917213900+00:00,0,0
2024-02-03T01:37:30.280027770+00:00,1,0
2024-02-03T01:37:30.280077780+00:00,0,0
2024-02-03T01:37:30.414022610+00:00,0,1
2024-02-03T01:37:30.414023070+00:00,0,0
2024-02-03T01:37:30.780026060+00:00,1,0
2024-02-03T01:37:30.780076070+00:00,0,0
2024-02-03T01:37:30.917125190+00:00,0,1
2024-02-03T01:37:30.917125650+00:00,0,0
2024-02-03T01:37:31.280024360+00:00,1,0
2024-02-03T01:37:31.280074360+00:00,0,0
2024-02-03T01:37:31.412484720+00:00,0,1
2024-02-03T01:37:31.412485180+00:00,0,0
2024-02-03T01:37:31.780022650+00:00,1,0
2024-02-03T01:37:31.780072660+00:00,0,0
2024-02-03T01:37:31.911962680+00:00,0,1
2024-02-03T01:37:31.911963130+00:00,0,0
2024-02-03T01:37:32.280020940+00:00,1,0
2024-02-03T01:37:32.280070950+00:00,0,0
2024-02-03T01:37:32.415714350+00:00,0,1
2024-02-03T01:37:32.415714810+00:00,0,0
2024-02-03T01:37:32.780019230+00:00,1,0
2024-02-03T01:37:32.780069240+00:00,0,0
2024-02-03T01:37:32.915423100+00:00,0,1
2024-02-03T01:37:32.915423560+00:00,0,0
2024-02-03T01:37:33.280017520+00:00,1,0
2024-02-03T01:37:33.280067530+00:00,0,0
2024-02-03T01:37:33.413790550+00:00,0,1
2024-02-03T01:37:33.413791000+00:00,0,0
2024-02-03T01:37:33.780015810+00:00,1,0
2024-02-03T01:37:33.780065820+00:00,0,0
2024-02-03T01:37:33.915645880+00:00,0,1
2024-02-03T01:37:33.915646330+00:00,0,0
2024-02-03T01:37:34.280014100+00:00,1,0
2024-02-03T01:37:34.280064110+00:00,0,0
2024-02-03T01:37:34.412612340+00:00,0,1
2024-02-03T01:37:34.412612790+00:00,0,0
2024-02-03T01:37:34.780012390+00:00,1,0
2024-02-03T01:37:34.780062400+00:00,0,0
2024-02-03T01:37:34.915021740+00:00,0,1
2024-02-03T01:37:34.915022190+00:00,0,0
2024-02-03T01:37:35.280010680+00:00,1,0
2024-02-03T01:37:35.280060690+00:00,0,0
2024-02-03T01:37:35.417834740+00:00,0,1
2024-02-03T01:37:35.417835190+00:00,0,0
2024-02-03T01:37:35.780008970+00:00,1,0
2024-02-03T01:37:35.780058980+00:00,0,0
2024-02-03T01:37:35.916828030+00:00,0,1
2024-02-03T01:37:35.916828480+00:00,0,0
2024-02-03T01:37:36.280007260+00:00,1,0
2024-02-03T01:37:36.280057270+00:00,0,0
2024-02-03T01:37:36.417036760+00:00,0,1
2024-02-03T01:37:36.417037210+00:00,0,0
2024-02-03T01:37:36.780005550+00:00,1,0
2024-02-03T01:37:36.780055560+00:00,0,0
2024-02-03T01:37:36.918950440+00:00,0,1
2024-02-03T01:37:36.918950890+00:00,0,0
2024-02-03T01:37:37.280003840+00:00,1,0
2024-02-03T01:37:37.280053850+00:00,0,0
2024-02-03T01:37:37.411819860+00:00,0,1
2024-02-03T01:37:37.411820310+00:00,0,0
2024-02-03T01:37:37.780002130+00:00,1,0
2024-02-03T01:37:37.780052140+00:00,0,0
2024-02-03T01:37:37.912579740+00:00,0,1
2024-02-03T01:37:37.912580190+00:00,0,0
2024-02-03T01:37:38.280000420+00:00,1,0
2024-02-03T01:37:38.280050430+00:00,0,0
2024-02-03T01:37:38.417690890+00:00,0,1
2024-02-03T01:37:38.417691340+00:00,0,0
2024-02-03T01:37:38.779998700+00:00,1,0
2024-02-03T01:37:38.780048710+00:00,0,0
2024-02-03T01:37:38.911924060+00:00,0,1
2024-02-03T01:37:38.911924510+00:00,0,0
2024-02-03T01:37:39.279996990+00:00,1,0
2024-02-03T01:37:39.280047000+00:00,0,0
2024-02-03T01:37:39.414635000+00:00,0,1
2024-02-03T01:37:39.414635450+00:00,0,0
2024-02-03T01:37:39.779995280+00:00,1,0
2024-02-03T01:37:39.780045290+00:00,0,0
2024-02-03T01:37:39.913381260+00:00,0,1
2024-02-03T01:37:39.913381710+00:00,0,0
2024-02-03T01:37:40.279993570+00:00,1,0
2024-02-03T01:37:40.280043580+00:00,0,0
2024-02-03T01:37:40.414690070+00:00,0,1
2024-02-03T01:37:40.414690530+00:00,0,0
2024-02-03T01:37:40.779991860+00:00,1,0
2024-02-03T01:37:40.780041870+00:00,0,0
2024-02-03T01:37:40.916096510+00:00,0,1
2024-02-03T01:37:40.916096970+00:00,0,0
2024-02-03T01:37:41.279990150+00:00,1,0
2024-02-03T01:37:41.280040160+00:00,0,0
2024-02-03T01:37:41.412900290+00:00,0,1
2024-02-03T01:37:41.412900750+00:00,0,0
2024-02-03T01:37:41.779988430+00:00,1,0
2024-02-03T01:37:41.780038440+00:00,0,0
2024-02-03T01:37:41.915962200+00:00,0,1
2024-02-03T01:37:41.915962650+00:00,0,0
2024-02-03T01:37:42.279986720+00:00,1,0
2024-02-03T01:37:42.280036730+00:00,0,0
2024-02-03T01:37:42.415582070+00:00,0,1
2024-02-03T01:37:42.415582530+00:00,0,0
2024-02-03T01:37:42.779985010+00:00,1,0
2024-02-03T01:37:42.780035020+00:00,0,0
2024-02-03T01:37:42.919009640+00:00,0,1
2024-02-03T01:37:42.919010100+00:00,0,0
2024-02-03T01:37:43.279983300+00:00,1,0
2024-02-03T01:37:43.280033310+00:00,0,0
2024-02-03T01:37:43.414101360+00:00,0,1
2024-02-03T01:37:43.414101810+00:00,0,0
2024-02-03T01:37:43.779981590+00:00,1,0
2024-02-03T01:37:43.780031600+00:00,0,0
2024-02-03T01:37:43.913525690+00:00,0,1
2024-02-03T01:37:43.913526150+00:00,0,0
2024-02-03T01:37:44.279979870+00:00,1,0
2024-02-03T01:37:44.280029880+00:00,0,0
2024-02-03T01:37:44.412873310+00:00,0,1
2024-02-03T01:37:44.412873770+00:00,0,0
2024-02-03T01:37:44.779978160+00:00,1,0
2024-02-03T01:37:44.780028170+00:00,0,0
2024-02-03T01:37:44.916361780+00:00,0,1
2024-02-03T01:37:44.916362240+00:00,0,0
2024-02-03T01:37:45.279976450+00:00,1,0
2024-02-03T01:37:45.280026460+00:00,0,0
2024-02-03T01:37:45.417868590+00:00,0,1
2024-02-03T01:37:45.417869040+00:00,0,0
2024-02-03T01:37:45.779974740+00:00,1,0
2024-02-03T01:37:45.780024740+00:00,0,0
2024-02-03T01:37:45.915664390+00:00,0,1
2024-02-03T01:37:45.915664840+00:00,0,0
2024-02-03T01:37:46.279973020+00:00,1,0
2024-02-03T01:37:46.280023030+00:00,0,0
2024-02-03T01:37:46.417924410+00:00,0,1
2024-02-03T01:37:46.417924870+00:00,0,0
2024-02-03T01:37:46.779971310+00:00,1,0
2024-02-03T01:37:46.780021320+00:00,0,0
2024-02-03T01:37:46.915870690+00:00,0,1
2024-02-03T01:37:46.915871150+00:00,0,0
2024-02-03T01:37:47.279969590+00:00,1,0
2024-02-03T01:37:47.280019600+00:00,0,0
2024-02-03T01:37:47.414677270+00:00,0,1
2024-02-03T01:37:47.414677720+00:00,0,0
2024-02-03T01:37:47.779967880+00:00,1,0
2024-02-03T01:37:47.780017890+00:00,0,0
2024-02-03T01:37:47.914489970+00:00,0,1
2024-02-03T01:37:47.914490420+00:00,0,0
2024-02-03T01:37:48.279966170+00:00,1,0
2024-02-03T01:37:48.280016180+00:00,0,0
2024-02-03T01:37:48.413386670+00:00,0,1
2024-02-03T01:37:48.413387130+00:00,0,0
2024-02-03T01:37:48.779964460+00:00,1,0
2024-02-03T01:37:48.780014460+00:00,0,0
2024-02-03T01:37:48.914373430+00:00,0,1
2024-02-03T01:37:48.914373890+00:00,0,0
2024-02-03T01:37:49.279962740+00:00,1,0
2024-02-03T01:37:49.280012750+00:00,0,0
2024-02-03T01:37:49.416459940+00:00,0,1
2024-02-03T01:37:49.416460400+00:00,0,0
2024-02-03T01:37:49.779961030+00:00,1,0
2024-02-03T01:37:49.780011040+00:00,0,0
2024-02-03T01:37:49.914615650+00:00,0,1
2024-02-03T01:37:49.914616110+00:00,0,0
2024-02-03T01:37:50.279959310+00:00,1,0
2024-02-03T01:37:50.280009320+00:00,0,0
2024-02-03T01:37:50.416745990+00:00,0,1
2024-02-03T01:37:50.416746440+00:00,0,0
2024-02-03T01:37:50.779957600+00:00,1,0
2024-02-03T01:37:50.780007610+00:00,0,0
2024-02-03T01:37:50.913728050+00:00,0,1
2024-02-03T01:37:50.913728500+00:00,0,0
2024-02-03T01:37:51.279955880+00:00,1,0
2024-02-03T01:37:51.280005890+00:00,0,0
2024-02-03T01:37:51.417952850+00:00,0,1
2024-02-03T01:37:51.417953300+00:00,0,0
2024-02-03T01:37:51.779954170+00:00,1,0
2024-02-03T01:37:51.780004180+00:00,0,0
2024-02-03T01:37:51.914990200+00:00,0,1
2024-02-03T01:37:51.914990650+00:00,0,0
2024-02-03T01:37:52.279952460+00:00,1,0
2024-02-03T01:37:52.280002460+00:00,0,0
2024-02-03T01:37:52.419101210+00:00,0,1
2024-02-03T01:37:52.419101670+00:00,0,0
2024-02-03T01:37:52.779950740+00:00,1,0
2024-02-03T01:37:52.780000750+00:00,0,0
2024-02-03T01:37:52.916777490+00:00,0,1
2024-02-03T01:37:52.916777950+00:00,0,0
2024-02-03T01:37:53.279949020+00:00,1,0
2024-02-03T01:37:53.279999030+00:00,0,0
2024-02-03T01:37:53.415693310+00:00,0,1
2024-02-03T01:37:53.415693760+00:00,0,0
2024-02-03T01:37:53.779947310+00:00,1,0
2024-02-03T01:37:53.779997320+00:00,0,0
2024-02-03T01:37:53.912188900+00:00,0,1
2024-02-03T01:37:53.912189350+00:00,0,0
2024-02-03T01:37:54.279945600+00:00,1,0
2024-02-03T01:37:54.279995600+00:00,0,0
2024-02-03T01:37:54.414153020+00:00,0,1
2024-02-03T01:37:54.414153470+00:00,0,0
2024-02-03T01:37:54.779943880+00:00,1,0
2024-02-03T01:37:54.779993890+00:00,0,0
2024-02-03T01:37:54.914598290+00:00,0,1
2024-02-03T01:37:54.914598740+00:00,0,0
2024-02-03T01:37:55.279942170+00:00,1,0
2024-02-03T01:37:55.279992170+00:00,0,0
2024-02-03T01:37:55.415056320+00:00,0,1
2024-02-03T01:37:55.415056770+00:00,0,0
2024-02-03T01:37:55.779940450+00:00,1,0
2024-02-03T01:37:55.779990460+00:00,0,0
2024-02-03T01:37:55.916048050+00:00,0,1
2024-02-03T01:37:55.916048510+00:00,0,0
2024-02-03T01:37:56.279938730+00:00,1,0
2024-02-03T01:37:56.279988740+00:00,0,0
2024-02-03T01:37:56.416489300+00:00,0,1
2024-02-03T01:37:56.416489750+00:00,0,0
2024-02-03T01:37:56.779937020+00:00,1,0
2024-02-03T01:37:56.779987030+00:00,0,0
2024-02-03T01:37:56.914093310+00:00,0,1
2024-02-03T01:37:56.914093770+00:00,0,0
2024-02-03T01:37:57.279935300+00:00,1,0
2024-02-03T01:37:57.279985310+00:00,0,0
2024-02-03T01:37:57.415427640+00:00,0,1
2024-02-03T01:37:57.415428090+00:00,0,0
2024-02-03T01:37:57.779933590+00:00,1,0
2024-02-03T01:37:57.779983590+00:00,0,0
2024-02-03T01:37:57.915475330+00:00,0,1
2024-02-03T01:37:57.915475780+00:00,0,0
2024-02-03T01:37:58.279931870+00:00,1,0
2024-02-03T01:37:58.279981880+00:00,0,0
