Time [s],Channel 0,Channel 1
2023-11-08T05:45:37.186740000+00:00,0,0
2023-11-08T05:45:37.503212060+00:00,1,0
2023-11-08T05:45:37.503262060+00:00,0,0
2023-11-08T05:45:37.818786660+00:00,0,1
2023-11-08T05:45:37.818786720+00:00,0,0
2023-11-08T05:45:38.003210460+00:00,1,0
2023-11-08T05:45:38.003260460+00:00,0,0
2023-11-08T05:45:38.279763540+00:00,0,1
2023-11-08T05:45:38.279763600+00:00,0,0
2023-11-08T05:45:38.503208860+00:00,1,0
2023-11-08T05:45:38.503258860+00:00,0,0
2023-11-08T05:45:38.788347860+00:00,0,1
2023-11-08T05:45:38.788347920+00:00,0,0
2023-11-08T05:45:39.003207260+00:00,1,0
2023-11-08T05:45:39.003257260+00:00,0,0
2023-11-08T05:45:39.320824320+00:00,0,1
2023-11-08T05:45:39.320824380+00:00,0,0
2023-11-08T05:45:39.503205640+00:00,1,0
2023-11-08T05:45:39.503255660+00:00,0,0
2023-11-08T05:45:39.783487980+00:00,0,1
2023-11-08T05:45:39.783488040+00:00,0,0
2023-11-08T05:45:40.003204040+00:00,1,0
2023-11-08T05:45:40.003254060+00:00,0,0
2023-11-08T05:45:40.289243020+00:00,0,1
2023-11-08T05:45:40.289243100+00:00,0,0
2023-11-08T05:45:40.503202440+00:00,1,0
2023-11-08T05:45:40.503252460+00:00,0,0
2023-11-08T05:45:40.822328180+00:00,0,1
2023-11-08T05:45:40.822328240+00:00,0,0
2023-11-08T05:45:41.003200840+00:00,1,0
2023-11-08T05:45:41.003250840+00:00,0,0
2023-11-08T05:45:41.282968660+00:00,0,1
2023-11-08T05:45:41.282968720+00:00,0,0
2023-11-08T05:45:41.503199240+00:00,1,0
2023-11-08T05:45:41.503249240+00:00,0,0
2023-11-08T05:45:41.788973360+00:00,0,1
2023-11-08T05:45:41.788973420+00:00,0,0
2023-11-08T05:45:42.003197640+00:00,1,0
2023-11-08T05:45:42.003247640+00:00,0,0
2023-11-08T05:45:42.323406840+00:00,0,1
2023-11-08T05:45:42.323406900+00:00,0,0
2023-11-08T05:45:42.503196020+00:00,1,0
2023-11-08T05:45:42.503246040+00:00,0,0
2023-11-08T05:45:42.786151880+00:00,0,1
2023-11-08T05:45:42.786151940+00:00,0,0
2023-11-08T05:45:43.003194420+00:00,1,0
2023-11-08T05:45:43.003244440+00:00,0,0
2023-11-08T05:45:43.246319460+00:00,0,1
2023-11-08T05:45:43.246319520+00:00,0,0
2023-11-08T05:45:43.503192820+00:00,1,0
2023-11-08T05:45:43.503242820+00:00,0,0
2023-11-08T05:45:43.824470340+00:00,0,1
2023-11-08T05:45:43.824470420+00:00,0,0
2023-11-08T05:45:44.003191220+00:00,1,0
2023-11-08T05:45:44.003241220+00:00,0,0
2023-11-08T05:45:44.285188940+00:00,0,1
2023-11-08T05:45:44.285189000+00:00,0,0
2023-11-08T05:45:44.503189600+00:00,1,0
2023-11-08T05:45:44.503239620+00:00,0,0
2023-11-08T05:45:44.741290540+00:00,0,1
2023-11-08T05:45:44.741290600+00:00,0,0
2023-11-08T05:45:45.003188000+00:00,1,0
2023-11-08T05:45:45.003238000+00:00,0,0
2023-11-08T05:45:45.325693360+00:00,0,1
2023-11-08T05:45:45.325693420+00:00,0,0
2023-11-08T05:45:45.503186380+00:00,1,0
2023-11-08T05:45:45.503236400+00:00,0,0
2023-11-08T05:45:45.786111440+00:00,0,1
2023-11-08T05:45:45.786111500+00:00,0,0
2023-11-08T05:45:46.003184780+00:00,1,0
2023-11-08T05:45:46.003234780+00:00,0,0
2023-11-08T05:45:46.245468540+00:00,0,1
2023-11-08T05:45:46.245468600+00:00,0,0
2023-11-08T05:45:46.503183160+00:00,1,0
2023-11-08T05:45:46.503233180+00:00,0,0
2023-11-08T05:45:46.826972680+00:00,0,1
2023-11-08T05:45:46.826972760+00:00,0,0
2023-11-08T05:45:47.003181560+00:00,1,0
2023-11-08T05:45:47.003231560+00:00,0,0
2023-11-08T05:45:47.287422160+00:00,0,1
2023-11-08T05:45:47.287422220+00:00,0,0
2023-11-08T05:45:47.503179940+00:00,1,0
2023-11-08T05:45:47.503229960+00:00,0,0
2023-11-08T05:45:47.745316940+00:00,0,1
2023-11-08T05:45:47.745317000+00:00,0,0
2023-11-08T05:45:48.003178340+00:00,1,0
2023-11-08T05:45:48.003228340+00:00,0,0
2023-11-08T05:45:48.326322000+00:00,0,1
2023-11-08T05:45:48.326322060+00:00,0,0
2023-11-08T05:45:48.503176720+00:00,1,0
2023-11-08T05:45:48.503226720+00:00,0,0
2023-11-08T05:45:48.788840260+00:00,0,1
2023-11-08T05:45:48.788840340+00:00,0,0
2023-11-08T05:45:49.003175100+00:00,1,0
2023-11-08T05:45:49.003225120+00:00,0,0
2023-11-08T05:45:49.250339920+00:00,0,1
2023-11-08T05:45:49.250339980+00:00,0,0
2023-11-08T05:45:49.503173500+00:00,1,0
2023-11-08T05:45:49.503223500+00:00,0,0
2023-11-08T05:45:49.829471580+00:00,0,1
2023-11-08T05:45:49.829471660+00:00,0,0
2023-11-08T05:45:50.003171880+00:00,1,0
2023-11-08T05:45:50.003221880+00:00,0,0
2023-11-08T05:45:50.290014460+00:00,0,1
2023-11-08T05:45:50.290014520+00:00,0,0
2023-11-08T05:45:50.503170260+00:00,1,0
2023-11-08T05:45:50.503220280+00:00,0,0
2023-11-08T05:45:50.744205560+00:00,0,1
2023-11-08T05:45:50.744205640+00:00,0,0
2023-11-08T05:45:51.003168660+00:00,1,0
2023-11-08T05:45:51.003218660+00:00,0,0
2023-11-08T05:45:51.328654980+00:00,0,1
2023-11-08T05:45:51.328655040+00:00,0,0
2023-11-08T05:45:51.503167040+00:00,1,0
2023-11-08T05:45:51.503217040+00:00,0,0
2023-11-08T05:45:51.791086560+00:00,0,1
2023-11-08T05:45:51.791086620+00:00,0,0
2023-11-08T05:45:52.003165420+00:00,1,0
2023-11-08T05:45:52.003215420+00:00,0,0
2023-11-08T05:45:52.253672060+00:00,0,1
2023-11-08T05:45:52.253672140+00:00,0,0
2023-11-08T05:45:52.503163800+00:00,1,0
2023-11-08T05:45:52.503213820+00:00,0,0
2023-11-08T05:45:52.723139700+00:00,0,1
2023-11-08T05:45:52.723139760+00:00,0,0
2023-11-08T05:45:53.003162180+00:00,1,0
2023-11-08T05:45:53.003212200+00:00,0,0
2023-11-08T05:45:53.294574360+00:00,0,1
2023-11-08T05:45:53.294574440+00:00,0,0
2023-11-08T05:45:53.503160560+00:00,1,0
2023-11-08T05:45:53.503210580+00:00,0,0
2023-11-08T05:45:53.814906300+00:00,0,1
2023-11-08T05:45:53.814906380+00:00,0,0
2023-11-08T05:45:54.003158960+00:00,1,0
2023-11-08T05:45:54.003208960+00:00,0,0
2023-11-08T05:45:54.333379860+00:00,0,1
2023-11-08T05:45:54.333379920+00:00,0,0
2023-11-08T05:45:54.503157340+00:00,1,0
2023-11-08T05:45:54.503207340+00:00,0,0
2023-11-08T05:45:54.795886140+00:00,0,1
2023-11-08T05:45:54.795886200+00:00,0,0
2023-11-08T05:45:55.003155720+00:00,1,0
2023-11-08T05:45:55.003205720+00:00,0,0
2023-11-08T05:45:55.258380520+00:00,0,1
2023-11-08T05:45:55.258380580+00:00,0,0
2023-11-08T05:45:55.503154100+00:00,1,0
2023-11-08T05:45:55.503204100+00:00,0,0
2023-11-08T05:45:55.722592180+00:00,0,1
2023-11-08T05:45:55.722592240+00:00,0,0
2023-11-08T05:45:56.003152480+00:00,1,0
2023-11-08T05:45:56.003202480+00:00,0,0
2023-11-08T05:45:56.299404340+00:00,0,1
2023-11-08T05:45:56.299404400+00:00,0,0
2023-11-08T05:45:56.503150860+00:00,1,0
2023-11-08T05:45:56.503200860+00:00,0,0
2023-11-08T05:45:56.760069760+00:00,0,1
2023-11-08T05:45:56.760069820+00:00,0,0
2023-11-08T05:45:57.003149240+00:00,1,0
2023-11-08T05:45:57.003199240+00:00,0,0
2023-11-08T05:45:57.226044080+00:00,0,1
2023-11-08T05:45:57.226044140+00:00,0,0
2023-11-08T05:45:57.503147620+00:00,1,0
2023-11-08T05:45:57.503197620+00:00,0,0
2023-11-08T05:45:57.802503760+00:00,0,1
2023-11-08T05:45:57.802503820+00:00,0,0
2023-11-08T05:45:58.003146000+00:00,1,0
2023-11-08T05:45:58.003196000+00:00,0,0
2023-11-08T05:45:58.264992600+00:00,0,1
2023-11-08T05:45:58.264992660+00:00,0,0
2023-11-08T05:45:58.503144380+00:00,1,0
2023-11-08T05:45:58.503194380+00:00,0,0
2023-11-08T05:45:58.725381400+00:00,0,1
2023-11-08T05:45:58.725381480+00:00,0,0
2023-11-08T05:45:59.003142760+00:00,1,0
2023-11-08T05:45:59.003192760+00:00,0,0
2023-11-08T05:45:59.304021400+00:00,0,1
2023-11-08T05:45:59.304021480+00:00,0,0
2023-11-08T05:45:59.503141140+00:00,1,0
2023-11-08T05:45:59.503191140+00:00,0,0
2023-11-08T05:45:59.764518600+00:00,0,1
2023-11-08T05:45:59.764518660+00:00,0,0
2023-11-08T05:46:00.003139520+00:00,1,0
2023-11-08T05:46:00.003189520+00:00,0,0
2023-11-08T05:46:00.231913120+00:00,0,1
2023-11-08T05:46:00.231913180+00:00,0,0
2023-11-08T05:46:00.503137880+00:00,1,0
2023-11-08T05:46:00.503187900+00:00,0,0
2023-11-08T05:46:00.807065420+00:00,0,1
2023-11-08T05:46:00.807065480+00:00,0,0
2023-11-08T05:46:01.003136260+00:00,1,0
2023-11-08T05:46:01.003186280+00:00,0,0
2023-11-08T05:46:01.269636720+00:00,0,1
2023-11-08T05:46:01.269636800+00:00,0,0
2023-11-08T05:46:01.503134640+00:00,1,0
2023-11-08T05:46:01.503184660+00:00,0,0
2023-11-08T05:46:01.728268080+00:00,0,1
2023-11-08T05:46:01.728268160+00:00,0,0
2023-11-08T05:46:02.003133020+00:00,1,0
2023-11-08T05:46:02.003183040+00:00,0,0
2023-11-08T05:46:02.308842360+00:00,0,1
2023-11-08T05:46:02.308842420+00:00,0,0
2023-11-08T05:46:02.503131400+00:00,1,0
2023-11-08T05:46:02.503181400+00:00,0,0
2023-11-08T05:46:02.769069400+00:00,0,1
2023-11-08T05:46:02.769069460+00:00,0,0
2023-11-08T05:46:03.003129780+00:00,1,0
2023-11-08T05:46:03.003179780+00:00,0,0
2023-11-08T05:46:03.231476960+00:00,0,1
2023-11-08T05:46:03.231477020+00:00,0,0
2023-11-08T05:46:03.503128160+00:00,1,0
2023-11-08T05:46:03.503178160+00:00,0,0
2023-11-08T05:46:03.810093260+00:00,0,1
2023-11-08T05:46:03.810093320+00:00,0,0
2023-11-08T05:46:04.003126520+00:00,1,0
2023-11-08T05:46:04.003176540+00:00,0,0
2023-11-08T05:46:04.272761140+00:00,0,1
2023-11-08T05:46:04.272761200+00:00,0,0
2023-11-08T05:46:04.503124900+00:00,1,0
2023-11-08T05:46:04.503174920+00:00,0,0
2023-11-08T05:46:04.727754980+00:00,0,1
2023-11-08T05:46:04.727755060+00:00,0,0
2023-11-08T05:46:05.003123280+00:00,1,0
2023-11-08T05:46:05.003173280+00:00,0,0
2023-11-08T05:46:05.311302800+00:00,0,1
2023-11-08T05:46:05.311302860+00:00,0,0
2023-11-08T05:46:05.503121660+00:00,1,0
2023-11-08T05:46:05.503171660+00:00,0,0
2023-11-08T05:46:05.772014780+00:00,0,1
2023-11-08T05:46:05.772014840+00:00,0,0
2023-11-08T05:46:06.003120040+00:00,1,0
2023-11-08T05:46:06.003170040+00:00,0,0
2023-11-08T05:46:06.235244640+00:00,0,1
2023-11-08T05:46:06.235244700+00:00,0,0
2023-11-08T05:46:06.503118400+00:00,1,0
2023-11-08T05:46:06.503168420+00:00,0,0
2023-11-08T05:46:06.813093880+00:00,0,1
2023-11-08T05:46:06.813093940+00:00,0,0
2023-11-08T05:46:07.003116780+00:00,1,0
2023-11-08T05:46:07.003166800+00:00,0,0
2023-11-08T05:46:07.273446780+00:00,0,1
2023-11-08T05:46:07.273446860+00:00,0,0
2023-11-08T05:46:07.503115160+00:00,1,0
2023-11-08T05:46:07.503165160+00:00,0,0
2023-11-08T05:46:07.730903320+00:00,0,1
2023-11-08T05:46:07.730903380+00:00,0,0
2023-11-08T05:46:08.003113540+00:00,1,0
2023-11-08T05:46:08.003163540+00:00,0,0
2023-11-08T05:46:08.314233140+00:00,0,1
2023-11-08T05:46:08.314233220+00:00,0,0
2023-11-08T05:46:08.503111900+00:00,1,0
2023-11-08T05:46:08.503161920+00:00,0,0
2023-11-08T05:46:08.775189180+00:00,0,1
2023-11-08T05:46:08.775189260+00:00,0,0
2023-11-08T05:46:09.003110280+00:00,1,0
2023-11-08T05:46:09.003160280+00:00,0,0
2023-11-08T05:46:09.234271760+00:00,0,1
2023-11-08T05:46:09.234271840+00:00,0,0
2023-11-08T05:46:09.503108660+00:00,1,0
2023-11-08T05:46:09.503158660+00:00,0,0
2023-11-08T05:46:09.814174520+00:00,0,1
2023-11-08T05:46:09.814174580+00:00,0,0
2023-11-08T05:46:10.003107020+00:00,1,0
2023-11-08T05:46:10.003157040+00:00,0,0
2023-11-08T05:46:10.276708020+00:00,0,1
2023-11-08T05:46:10.276708080+00:00,0,0
2023-11-08T05:46:10.503105400+00:00,1,0
2023-11-08T05:46:10.503155400+00:00,0,0
2023-11-08T05:46:10.793089840+00:00,0,1
2023-11-08T05:46:10.793089920+00:00,0,0
2023-11-08T05:46:11.003103780+00:00,1,0
2023-11-08T05:46:11.003153780+00:00,0,0
2023-11-08T05:46:11.317413860+00:00,0,1
2023-11-08T05:46:11.317413940+00:00,0,0
2023-11-08T05:46:11.503102140+00:00,1,0
2023-11-08T05:46:11.503152160+00:00,0,0
2023-11-08T05:46:11.778427400+00:00,0,1
2023-11-08T05:46:11.778427460+00:00,0,0
2023-11-08T05:46:12.003100520+00:00,1,0
2023-11-08T05:46:12.003150520+00:00,0,0
2023-11-08T05:46:12.289030540+00:00,0,1
2023-11-08T05:46:12.289030600+00:00,0,0
2023-11-08T05:46:12.503098900+00:00,1,0
2023-11-08T05:46:12.503148900+00:00,0,0
2023-11-08T05:46:12.817410680+00:00,0,1
2023-11-08T05:46:12.817410760+00:00,0,0
2023-11-08T05:46:13.003097260+00:00,1,0
2023-11-08T05:46:13.003147280+00:00,0,0
2023-11-08T05:46:13.280111200+00:00,0,1
2023-11-08T05:46:13.280111280+00:00,0,0
2023-11-08T05:46:13.503095640+00:00,1,0
2023-11-08T05:46:13.503145640+00:00,0,0
2023-11-08T05:46:13.790293300+00:00,0,1
2023-11-08T05:46:13.790293360+00:00,0,0
2023-11-08T05:46:14.003094020+00:00,1,0
2023-11-08T05:46:14.003144020+00:00,0,0
2023-11-08T05:46:14.321394240+00:00,0,1
2023-11-08T05:46:14.321394300+00:00,0,0
2023-11-08T05:46:14.503092380+00:00,1,0
2023-11-08T05:46:14.503142400+00:00,0,0
2023-11-08T05:46:14.781804640+00:00,0,1
2023-11-08T05:46:14.781804700+00:00,0,0
2023-11-08T05:46:15.003090760+00:00,1,0
2023-11-08T05:46:15.003140760+00:00,0,0
2023-11-08T05:46:15.286649520+00:00,0,1
2023-11-08T05:46:15.286649600+00:00,0,0
2023-11-08T05:46:15.503089120+00:00,1,0
2023-11-08T05:46:15.503139140+00:00,0,0
2023-11-08T05:46:15.820683880+00:00,0,1
2023-11-08T05:46:15.820683960+00:00,0,0
2023-11-08T05:46:16.003087500+00:00,1,0
2023-11-08T05:46:16.003137500+00:00,0,0
2023-11-08T05:46:16.283326860+00:00,0,1
2023-11-08T05:46:16.283326940+00:00,0,0
2023-11-08T05:46:16.503085880+00:00,1,0
2023-11-08T05:46:16.503135880+00:00,0,0
2023-11-08T05:46:16.745866700+00:00,0,1
2023-11-08T05:46:16.745866760+00:00,0,0
2023-11-08T05:46:17.003084240+00:00,1,0
2023-11-08T05:46:17.003134240+00:00,0,0
2023-11-08T05:46:17.324273660+00:00,0,1
2023-11-08T05:46:17.324273720+00:00,0,0
2023-11-08T05:46:17.503082620+00:00,1,0
2023-11-08T05:46:17.503132620+00:00,0,0
2023-11-08T05:46:17.784791400+00:00,0,1
2023-11-08T05:46:17.784791460+00:00,0,0
2023-11-08T05:46:18.003080980+00:00,1,0
2023-11-08T05:46:18.003131000+00:00,0,0
2023-11-08T05:46:18.234483800+00:00,0,1
2023-11-08T05:46:18.234483880+00:00,0,0
2023-11-08T05:46:18.503079360+00:00,1,0
2023-11-08T05:46:18.503129360+00:00,0,0
2023-11-08T05:46:18.822930660+00:00,0,1
2023-11-08T05:46:18.822930740+00:00,0,0
2023-11-08T05:46:19.003077720+00:00,1,0
2023-11-08T05:46:19.003127740+00:00,0,0
2023-11-08T05:46:19.287709720+00:00,0,1
2023-11-08T05:46:19.287709780+00:00,0,0
2023-11-08T05:46:19.503076100+00:00,1,0
2023-11-08T05:46:19.503126100+00:00,0,0
2023-11-08T05:46:19.748298040+00:00,0,1
2023-11-08T05:46:19.748298100+00:00,0,0
2023-11-08T05:46:20.003074460+00:00,1,0
2023-11-08T05:46:20.003124480+00:00,0,0
2023-11-08T05:46:20.326432720+00:00,0,1
2023-11-08T05:46:20.326432780+00:00,0,0
2023-11-08T05:46:20.503072840+00:00,1,0
2023-11-08T05:46:20.503122840+00:00,0,0
2023-11-08T05:46:20.787226020+00:00,0,1
2023-11-08T05:46:20.787226080+00:00,0,0
2023-11-08T05:46:21.003071200+00:00,1,0
2023-11-08T05:46:21.003121220+00:00,0,0
2023-11-08T05:46:21.243570480+00:00,0,1
2023-11-08T05:46:21.243570540+00:00,0,0
2023-11-08T05:46:21.503069580+00:00,1,0
2023-11-08T05:46:21.503119580+00:00,0,0
2023-11-08T05:46:21.827378660+00:00,0,1
2023-11-08T05:46:21.827378720+00:00,0,0
2023-11-08T05:46:22.003067940+00:00,1,0
2023-11-08T05:46:22.003117960+00:00,0,0
2023-11-08T05:46:22.289901220+00:00,0,1
2023-11-08T05:46:22.289901300+00:00,0,0
2023-11-08T05:46:22.503066320+00:00,1,0
2023-11-08T05:46:22.503116320+00:00,0,0
2023-11-08T05:46:22.750148900+00:00,0,1
2023-11-08T05:46:22.750148980+00:00,0,0
2023-11-08T05:46:23.003064680+00:00,1,0
2023-11-08T05:46:23.003114700+00:00,0,0
2023-11-08T05:46:23.223434980+00:00,0,1
2023-11-08T05:46:23.223435040+00:00,0,0
2023-11-08T05:46:23.503063060+00:00,1,0
2023-11-08T05:46:23.503113060+00:00,0,0
2023-11-08T05:46:23.791138900+00:00,0,1
2023-11-08T05:46:23.791138960+00:00,0,0
2023-11-08T05:46:24.003061420+00:00,1,0
2023-11-08T05:46:24.003111440+00:00,0,0
2023-11-08T05:46:24.248372980+00:00,0,1
2023-11-08T05:46:24.248373040+00:00,0,0
2023-11-08T05:46:24.503059800+00:00,1,0
2023-11-08T05:46:24.503109800+00:00,0,0
2023-11-08T05:46:24.832004240+00:00,0,1
2023-11-08T05:46:24.832004300+00:00,0,0
2023-11-08T05:46:25.003058160+00:00,1,0
2023-11-08T05:46:25.003108180+00:00,0,0
2023-11-08T05:46:25.294621140+00:00,0,1
2023-11-08T05:46:25.294621200+00:00,0,0
2023-11-08T05:46:25.503056540+00:00,1,0
2023-11-08T05:46:25.503106540+00:00,0,0
2023-11-08T05:46:25.755015340+00:00,0,1
2023-11-08T05:46:25.755015400+00:00,0,0
2023-11-08T05:46:26.003054900+00:00,1,0
2023-11-08T05:46:26.003104900+00:00,0,0
2023-11-08T05:46:26.222216640+00:00,0,1
2023-11-08T05:46:26.222216700+00:00,0,0
2023-11-08T05:46:26.503053260+00:00,1,0
2023-11-08T05:46:26.503103280+00:00,0,0
2023-11-08T05:46:26.796002040+00:00,0,1
2023-11-08T05:46:26.796002100+00:00,0,0
2023-11-08T05:46:27.003051640+00:00,1,0
2023-11-08T05:46:27.003101640+00:00,0,0
2023-11-08T05:46:27.255206080+00:00,0,1
2023-11-08T05:46:27.255206140+00:00,0,0
2023-11-08T05:46:27.503050000+00:00,1,0
2023-11-08T05:46:27.503100020+00:00,0,0
2023-11-08T05:46:27.734039980+00:00,0,1
2023-11-08T05:46:27.734040040+00:00,0,0
2023-11-08T05:46:28.003048380+00:00,1,0
2023-11-08T05:46:28.003098380+00:00,0,0
2023-11-08T05:46:28.297120500+00:00,0,1
2023-11-08T05:46:28.297120560+00:00,0,0
2023-11-08T05:46:28.503046740+00:00,1,0
2023-11-08T05:46:28.503096760+00:00,0,0
2023-11-08T05:46:28.759729740+00:00,0,1
2023-11-08T05:46:28.759729820+00:00,0,0
2023-11-08T05:46:29.003045100+00:00,1,0
2023-11-08T05:46:29.003095120+00:00,0,0
2023-11-08T05:46:29.272251860+00:00,0,1
2023-11-08T05:46:29.272251940+00:00,0,0
2023-11-08T05:46:29.503043480+00:00,1,0
2023-11-08T05:46:29.503093480+00:00,0,0
2023-11-08T05:46:29.800570140+00:00,0,1
2023-11-08T05:46:29.800570200+00:00,0,0
2023-11-08T05:46:30.003041840+00:00,1,0
2023-11-08T05:46:30.003091860+00:00,0,0
2023-11-08T05:46:30.261411240+00:00,0,1
2023-11-08T05:46:30.261411300+00:00,0,0
2023-11-08T05:46:30.503040220+00:00,1,0
2023-11-08T05:46:30.503090220+00:00,0,0
2023-11-08T05:46:30.726537340+00:00,0,1
2023-11-08T05:46:30.726537420+00:00,0,0
2023-11-08T05:46:31.003038580+00:00,1,0
2023-11-08T05:46:31.003088580+00:00,0,0
2023-11-08T05:46:31.301915500+00:00,0,1
2023-11-08T05:46:31.301915560+00:00,0,0
2023-11-08T05:46:31.503036940+00:00,1,0
2023-11-08T05:46:31.503086960+00:00,0,0
2023-11-08T05:46:31.764310000+00:00,0,1
2023-11-08T05:46:31.764310060+00:00,0,0
2023-11-08T05:46:32.003035320+00:00,1,0
2023-11-08T05:46:32.003085320+00:00,0,0
2023-11-08T05:46:32.268101320+00:00,0,1
2023-11-08T05:46:32.268101400+00:00,0,0
2023-11-08T05:46:32.503033680+00:00,1,0
2023-11-08T05:46:32.503083680+00:00,0,0
2023-11-08T05:46:32.805663460+00:00,0,1
2023-11-08T05:46:32.805663520+00:00,0,0
2023-11-08T05:46:33.003032040+00:00,1,0
2023-11-08T05:46:33.003082060+00:00,0,0
2023-11-08T05:46:33.265760340+00:00,0,1
2023-11-08T05:46:33.265760420+00:00,0,0
2023-11-08T05:46:33.503030420+00:00,1,0
2023-11-08T05:46:33.503080420+00:00,0,0
2023-11-08T05:46:33.728110340+00:00,0,1
2023-11-08T05:46:33.728110420+00:00,0,0
2023-11-08T05:46:34.003028780+00:00,1,0
2023-11-08T05:46:34.003078780+00:00,0,0
2023-11-08T05:46:34.306465080+00:00,0,1
2023-11-08T05:46:34.306465140+00:00,0,0
2023-11-08T05:46:34.503027140+00:00,1,0
2023-11-08T05:46:34.503077160+00:00,0,0
2023-11-08T05:46:34.769075580+00:00,0,1
2023-11-08T05:46:34.769075640+00:00,0,0
2023-11-08T05:46:35.003025520+00:00,1,0
2023-11-08T05:46:35.003075520+00:00,0,0
2023-11-08T05:46:35.228378280+00:00,0,1
2023-11-08T05:46:35.228378340+00:00,0,0
2023-11-08T05:46:35.503023880+00:00,1,0
2023-11-08T05:46:35.503073900+00:00,0,0
2023-11-08T05:46:35.809924680+00:00,0,1
2023-11-08T05:46:35.809924740+00:00,0,0
2023-11-08T05:46:36.003022240+00:00,1,0
2023-11-08T05:46:36.003072260+00:00,0,0
2023-11-08T05:46:36.270980560+00:00,0,1
2023-11-08T05:46:36.270980620+00:00,0,0
2023-11-08T05:46:36.503020620+00:00,1,0
2023-11-08T05:46:36.503070620+00:00,0,0
2023-11-08T05:46:36.728076740+00:00,0,1
2023-11-08T05:46:36.728076820+00:00,0,0
2023-11-08T05:46:37.003018980+00:00,1,0
2023-11-08T05:46:37.003068980+00:00,0,0
2023-11-08T05:46:37.309537380+00:00,0,1
2023-11-08T05:46:37.309537440+00:00,0,0
2023-11-08T05:46:37.503017340+00:00,1,0
2023-11-08T05:46:37.503067360+00:00,0,0
2023-11-08T05:46:37.772041520+00:00,0,1
2023-11-08T05:46:37.772041580+00:00,0,0
2023-11-08T05:46:38.003015720+00:00,1,0
2023-11-08T05:46:38.003065720+00:00,0,0
2023-11-08T05:46:38.230631640+00:00,0,1
2023-11-08T05:46:38.230631700+00:00,0,0
2023-11-08T05:46:38.503014080+00:00,1,0
2023-11-08T05:46:38.503064080+00:00,0,0
2023-11-08T05:46:38.813026360+00:00,0,1
2023-11-08T05:46:38.813026420+00:00,0,0
2023-11-08T05:46:39.003012440+00:00,1,0
2023-11-08T05:46:39.003062460+00:00,0,0
2023-11-08T05:46:39.273698140+00:00,0,1
2023-11-08T05:46:39.273698200+00:00,0,0
2023-11-08T05:46:39.503010820+00:00,1,0
2023-11-08T05:46:39.503060820+00:00,0,0
