Time [s],Channel 0,Channel 1
2023-11-30T23:51:42.298166000+00:00,0,0
2023-11-30T23:51:42.415001390+00:00,1,0
2023-11-30T23:51:42.415051430+00:00,0,0
2023-11-30T23:51:42.436389880+00:00,0,1
2023-11-30T23:51:42.436390810+00:00,0,0
2023-11-30T23:51:42.665000640+00:00,1,0
2023-11-30T23:51:42.665050680+00:00,0,0
2023-11-30T23:51:42.686386280+00:00,0,1
2023-11-30T23:51:42.686387210+00:00,0,0
2023-11-30T23:51:42.914999890+00:00,1,0
2023-11-30T23:51:42.915049930+00:00,0,0
2023-11-30T23:51:42.936387670+00:00,0,1
2023-11-30T23:51:42.936388600+00:00,0,0
2023-11-30T23:51:43.164999150+00:00,1,0
2023-11-30T23:51:43.165049190+00:00,0,0
2023-11-30T23:51:43.186387970+00:00,0,1
2023-11-30T23:51:43.186388910+00:00,0,0
2023-11-30T23:51:43.414998400+00:00,1,0
2023-11-30T23:51:43.415048440+00:00,0,0
2023-11-30T23:51:43.436385040+00:00,0,1
2023-11-30T23:51:43.436385970+00:00,0,0
2023-11-30T23:51:43.664997650+00:00,1,0
2023-11-30T23:51:43.665047690+00:00,0,0
2023-11-30T23:51:43.686385360+00:00,0,1
2023-11-30T23:51:43.686386290+00:00,0,0
2023-11-30T23:51:43.914996900+00:00,1,0
2023-11-30T23:51:43.915046940+00:00,0,0
2023-11-30T23:51:43.936386780+00:00,0,1
2023-11-30T23:51:43.936387710+00:00,0,0
2023-11-30T23:51:44.164996150+00:00,1,0
2023-11-30T23:51:44.165046200+00:00,0,0
2023-11-30T23:51:44.186383610+00:00,0,1
2023-11-30T23:51:44.186384540+00:00,0,0
2023-11-30T23:51:44.414995410+00:00,1,0
2023-11-30T23:51:44.415045450+00:00,0,0
2023-11-30T23:51:44.436380680+00:00,0,1
2023-11-30T23:51:44.436381610+00:00,0,0
2023-11-30T23:51:44.664994660+00:00,1,0
2023-11-30T23:51:44.665044700+00:00,0,0
2023-11-30T23:51:44.686381330+00:00,0,1
2023-11-30T23:51:44.686382260+00:00,0,0
2023-11-30T23:51:44.914993910+00:00,1,0
2023-11-30T23:51:44.915043950+00:00,0,0
2023-11-30T23:51:44.936382700+00:00,0,1
2023-11-30T23:51:44.936383630+00:00,0,0
2023-11-30T23:51:45.164993160+00:00,1,0
2023-11-30T23:51:45.165043200+00:00,0,0
2023-11-30T23:51:45.186379350+00:00,0,1
2023-11-30T23:51:45.186380280+00:00,0,0
2023-11-30T23:51:45.414992410+00:00,1,0
2023-11-30T23:51:45.415042460+00:00,0,0
2023-11-30T23:51:45.436380400+00:00,0,1
2023-11-30T23:51:45.436381330+00:00,0,0
2023-11-30T23:51:45.664991670+00:00,1,0
2023-11-30T23:51:45.665041710+00:00,0,0
2023-11-30T23:51:45.686381040+00:00,0,1
2023-11-30T23:51:45.686381970+00:00,0,0
2023-11-30T23:51:45.914990920+00:00,1,0
2023-11-30T23:51:45.915040960+00:00,0,0
2023-11-30T23:51:45.936378230+00:00,0,1
2023-11-30T23:51:45.936379160+00:00,0,0
2023-11-30T23:51:46.164990170+00:00,1,0
2023-11-30T23:51:46.165040210+00:00,0,0
2023-11-30T23:51:46.186378860+00:00,0,1
2023-11-30T23:51:46.186379790+00:00,0,0
2023-11-30T23:51:46.414989420+00:00,1,0
2023-11-30T23:51:46.415039460+00:00,0,0
2023-11-30T23:51:46.436379960+00:00,0,1
2023-11-30T23:51:46.436380890+00:00,0,0
2023-11-30T23:51:46.664988680+00:00,1,0
2023-11-30T23:51:46.665038710+00:00,0,0
2023-11-30T23:51:46.686376610+00:00,0,1
2023-11-30T23:51:46.686377540+00:00,0,0
2023-11-30T23:51:46.914987930+00:00,1,0
2023-11-30T23:51:46.915037970+00:00,0,0
2023-11-30T23:51:46.936373810+00:00,0,1
2023-11-30T23:51:46.936374740+00:00,0,0
2023-11-30T23:51:47.164987180+00:00,1,0
2023-11-30T23:51:47.165037220+00:00,0,0
2023-11-30T23:51:47.186374450+00:00,0,1
2023-11-30T23:51:47.186375380+00:00,0,0
2023-11-30T23:51:47.414986430+00:00,1,0
2023-11-30T23:51:47.415036470+00:00,0,0
2023-11-30T23:51:47.436375510+00:00,0,1
2023-11-30T23:51:47.436376440+00:00,0,0
2023-11-30T23:51:47.664985680+00:00,1,0
2023-11-30T23:51:47.665035720+00:00,0,0
2023-11-30T23:51:47.686372160+00:00,0,1
2023-11-30T23:51:47.686373090+00:00,0,0
2023-11-30T23:51:47.914984930+00:00,1,0
2023-11-30T23:51:47.915034970+00:00,0,0
2023-11-30T23:51:47.936373580+00:00,0,1
2023-11-30T23:51:47.936374520+00:00,0,0
2023-11-30T23:51:48.164984180+00:00,1,0
2023-11-30T23:51:48.165034220+00:00,0,0
2023-11-30T23:51:48.186370320+00:00,0,1
2023-11-30T23:51:48.186371250+00:00,0,0
2023-11-30T23:51:48.414983430+00:00,1,0
2023-11-30T23:51:48.415033470+00:00,0,0
2023-11-30T23:51:48.436371700+00:00,0,1
2023-11-30T23:51:48.436372630+00:00,0,0
2023-11-30T23:51:48.664982680+00:00,1,0
2023-11-30T23:51:48.665032720+00:00,0,0
2023-11-30T23:51:48.686368030+00:00,0,1
2023-11-30T23:51:48.686368960+00:00,0,0
2023-11-30T23:51:48.914981930+00:00,1,0
2023-11-30T23:51:48.915031970+00:00,0,0
2023-11-30T23:51:48.936373390+00:00,0,1
2023-11-30T23:51:48.936374320+00:00,0,0
2023-11-30T23:51:49.164981180+00:00,1,0
2023-11-30T23:51:49.165031220+00:00,0,0
2023-11-30T23:51:49.186369790+00:00,0,1
2023-11-30T23:51:49.186370720+00:00,0,0
2023-11-30T23:51:49.414980430+00:00,1,0
2023-11-30T23:51:49.415030470+00:00,0,0
2023-11-30T23:51:49.436367200+00:00,0,1
2023-11-30T23:51:49.436368130+00:00,0,0
2023-11-30T23:51:49.664979680+00:00,1,0
2023-11-30T23:51:49.665029720+00:00,0,0
2023-11-30T23:51:49.686367840+00:00,0,1
2023-11-30T23:51:49.686368770+00:00,0,0
2023-11-30T23:51:49.914978930+00:00,1,0
2023-11-30T23:51:49.915028970+00:00,0,0
2023-11-30T23:51:49.936364930+00:00,0,1
2023-11-30T23:51:49.936365860+00:00,0,0
2023-11-30T23:51:50.164978180+00:00,1,0
2023-11-30T23:51:50.165028220+00:00,0,0
2023-11-30T23:51:50.186365520+00:00,0,1
2023-11-30T23:51:50.186366450+00:00,0,0
2023-11-30T23:51:50.414977430+00:00,1,0
2023-11-30T23:51:50.415027470+00:00,0,0
2023-11-30T23:51:50.436366590+00:00,0,1
2023-11-30T23:51:50.436367520+00:00,0,0
2023-11-30T23:51:50.664976680+00:00,1,0
2023-11-30T23:51:50.665026720+00:00,0,0
2023-11-30T23:51:50.686367210+00:00,0,1
2023-11-30T23:51:50.686368140+00:00,0,0
2023-11-30T23:51:50.914975930+00:00,1,0
2023-11-30T23:51:50.915025970+00:00,0,0
2023-11-30T23:51:50.936364380+00:00,0,1
2023-11-30T23:51:50.936365310+00:00,0,0
2023-11-30T23:51:51.164975180+00:00,1,0
2023-11-30T23:51:51.165025220+00:00,0,0
2023-11-30T23:51:51.186361000+00:00,0,1
2023-11-30T23:51:51.186361930+00:00,0,0
2023-11-30T23:51:51.414974430+00:00,1,0
2023-11-30T23:51:51.415024470+00:00,0,0
2023-11-30T23:51:51.436362390+00:00,0,1
2023-11-30T23:51:51.436363320+00:00,0,0
2023-11-30T23:51:51.664973680+00:00,1,0
2023-11-30T23:51:51.665023720+00:00,0,0
2023-11-30T23:51:51.686359120+00:00,0,1
2023-11-30T23:51:51.686360050+00:00,0,0
2023-11-30T23:51:51.914972930+00:00,1,0
2023-11-30T23:51:51.915022970+00:00,0,0
2023-11-30T23:51:51.936360520+00:00,0,1
2023-11-30T23:51:51.936361450+00:00,0,0
2023-11-30T23:51:52.164972170+00:00,1,0
2023-11-30T23:51:52.165022220+00:00,0,0
2023-11-30T23:51:52.186361180+00:00,0,1
2023-11-30T23:51:52.186362110+00:00,0,0
2023-11-30T23:51:52.414971420+00:00,1,0
2023-11-30T23:51:52.415021470+00:00,0,0
2023-11-30T23:51:52.436358600+00:00,0,1
2023-11-30T23:51:52.436359530+00:00,0,0
2023-11-30T23:51:52.664970670+00:00,1,0
2023-11-30T23:51:52.665020710+00:00,0,0
2023-11-30T23:51:52.686358900+00:00,0,1
2023-11-30T23:51:52.686359830+00:00,0,0
2023-11-30T23:51:52.914969920+00:00,1,0
2023-11-30T23:51:52.915019960+00:00,0,0
2023-11-30T23:51:52.936355990+00:00,0,1
2023-11-30T23:51:52.936356920+00:00,0,0
2023-11-30T23:51:53.164969170+00:00,1,0
2023-11-30T23:51:53.165019210+00:00,0,0
2023-11-30T23:51:53.186356640+00:00,0,1
2023-11-30T23:51:53.186357570+00:00,0,0
2023-11-30T23:51:53.414968420+00:00,1,0
2023-11-30T23:51:53.415018460+00:00,0,0
2023-11-30T23:51:53.436358070+00:00,0,1
2023-11-30T23:51:53.436359000+00:00,0,0
2023-11-30T23:51:53.664967670+00:00,1,0
2023-11-30T23:51:53.665017710+00:00,0,0
2023-11-30T23:51:53.686354470+00:00,0,1
2023-11-30T23:51:53.686355400+00:00,0,0
2023-11-30T23:51:53.914966920+00:00,1,0
2023-11-30T23:51:53.915016950+00:00,0,0
2023-11-30T23:51:53.936355850+00:00,0,1
2023-11-30T23:51:53.936356780+00:00,0,0
2023-11-30T23:51:54.164966160+00:00,1,0
2023-11-30T23:51:54.165016200+00:00,0,0
2023-11-30T23:51:54.186352640+00:00,0,1
2023-11-30T23:51:54.186353570+00:00,0,0
2023-11-30T23:51:54.414965410+00:00,1,0
2023-11-30T23:51:54.415015450+00:00,0,0
2023-11-30T23:51:54.436354050+00:00,0,1
2023-11-30T23:51:54.436354980+00:00,0,0
2023-11-30T23:51:54.664964660+00:00,1,0
2023-11-30T23:51:54.665014700+00:00,0,0
2023-11-30T23:51:54.686350790+00:00,0,1
2023-11-30T23:51:54.686351720+00:00,0,0
2023-11-30T23:51:54.914963900+00:00,1,0
2023-11-30T23:51:54.915013950+00:00,0,0
2023-11-30T23:51:54.936352180+00:00,0,1
2023-11-30T23:51:54.936353110+00:00,0,0
2023-11-30T23:51:55.164963150+00:00,1,0
2023-11-30T23:51:55.165013190+00:00,0,0
2023-11-30T23:51:55.186352820+00:00,0,1
2023-11-30T23:51:55.186353750+00:00,0,0
2023-11-30T23:51:55.414962400+00:00,1,0
2023-11-30T23:51:55.415012440+00:00,0,0
2023-11-30T23:51:55.436349870+00:00,0,1
2023-11-30T23:51:55.436350800+00:00,0,0
2023-11-30T23:51:55.664961640+00:00,1,0
2023-11-30T23:51:55.665011690+00:00,0,0
2023-11-30T23:51:55.686350500+00:00,0,1
2023-11-30T23:51:55.686351430+00:00,0,0
2023-11-30T23:51:55.914960890+00:00,1,0
2023-11-30T23:51:55.915010940+00:00,0,0
2023-11-30T23:51:55.936347590+00:00,0,1
2023-11-30T23:51:55.936348520+00:00,0,0
2023-11-30T23:51:56.164960140+00:00,1,0
2023-11-30T23:51:56.165010180+00:00,0,0
2023-11-30T23:51:56.186348160+00:00,0,1
2023-11-30T23:51:56.186349090+00:00,0,0
2023-11-30T23:51:56.414959390+00:00,1,0
2023-11-30T23:51:56.415009430+00:00,0,0
2023-11-30T23:51:56.436349290+00:00,0,1
2023-11-30T23:51:56.436350210+00:00,0,0
2023-11-30T23:51:56.664958630+00:00,1,0
2023-11-30T23:51:56.665008670+00:00,0,0
2023-11-30T23:51:56.686345920+00:00,0,1
2023-11-30T23:51:56.686346850+00:00,0,0
2023-11-30T23:51:56.914957880+00:00,1,0
2023-11-30T23:51:56.915007920+00:00,0,0
2023-11-30T23:51:56.936347060+00:00,0,1
2023-11-30T23:51:56.936347990+00:00,0,0
2023-11-30T23:51:57.164957130+00:00,1,0
2023-11-30T23:51:57.165007170+00:00,0,0
2023-11-30T23:51:57.186343690+00:00,0,1
2023-11-30T23:51:57.186344620+00:00,0,0
2023-11-30T23:51:57.414956380+00:00,1,0
2023-11-30T23:51:57.415006410+00:00,0,0
2023-11-30T23:51:57.436344830+00:00,0,1
2023-11-30T23:51:57.436345760+00:00,0,0
2023-11-30T23:51:57.664955620+00:00,1,0
2023-11-30T23:51:57.665005660+00:00,0,0
2023-11-30T23:51:57.686345450+00:00,0,1
2023-11-30T23:51:57.686346380+00:00,0,0
2023-11-30T23:51:57.914954870+00:00,1,0
2023-11-30T23:51:57.915004910+00:00,0,0
2023-11-30T23:51:57.936342600+00:00,0,1
2023-11-30T23:51:57.936343530+00:00,0,0
2023-11-30T23:51:58.164954110+00:00,1,0
2023-11-30T23:51:58.165004150+00:00,0,0
2023-11-30T23:51:58.186343220+00:00,0,1
2023-11-30T23:51:58.186344160+00:00,0,0
2023-11-30T23:51:58.414953360+00:00,1,0
2023-11-30T23:51:58.415003400+00:00,0,0
2023-11-30T23:51:58.436340370+00:00,0,1
2023-11-30T23:51:58.436341300+00:00,0,0
2023-11-30T23:51:58.664952600+00:00,1,0
2023-11-30T23:51:58.665002640+00:00,0,0
2023-11-30T23:51:58.686341000+00:00,0,1
2023-11-30T23:51:58.686341930+00:00,0,0
2023-11-30T23:51:58.914951850+00:00,1,0
2023-11-30T23:51:58.915001890+00:00,0,0
2023-11-30T23:51:58.936338130+00:00,0,1
2023-11-30T23:51:58.936339060+00:00,0,0
2023-11-30T23:51:59.164951100+00:00,1,0
2023-11-30T23:51:59.165001140+00:00,0,0
2023-11-30T23:51:59.186338770+00:00,0,1
2023-11-30T23:51:59.186339700+00:00,0,0
2023-11-30T23:51:59.414950340+00:00,1,0
2023-11-30T23:51:59.415000380+00:00,0,0
2023-11-30T23:51:59.436340180+00:00,0,1
2023-11-30T23:51:59.436341110+00:00,0,0
2023-11-30T23:51:59.664949590+00:00,1,0
2023-11-30T23:51:59.664999630+00:00,0,0
2023-11-30T23:51:59.686336870+00:00,0,1
2023-11-30T23:51:59.686337810+00:00,0,0
2023-11-30T23:51:59.914948830+00:00,1,0
2023-11-30T23:51:59.914998870+00:00,0,0
2023-11-30T23:51:59.936333650+00:00,0,1
2023-11-30T23:51:59.936334580+00:00,0,0
2023-11-30T23:52:00.164948080+00:00,1,0
2023-11-30T23:52:00.164998120+00:00,0,0
2023-11-30T23:52:00.186338540+00:00,0,1
2023-11-30T23:52:00.186339470+00:00,0,0
2023-11-30T23:52:00.414947320+00:00,1,0
2023-11-30T23:52:00.414997360+00:00,0,0
2023-11-30T23:52:00.436335590+00:00,0,1
2023-11-30T23:52:00.436336520+00:00,0,0
2023-11-30T23:52:00.664946570+00:00,1,0
2023-11-30T23:52:00.664996610+00:00,0,0
2023-11-30T23:52:00.686336230+00:00,0,1
2023-11-30T23:52:00.686337160+00:00,0,0
2023-11-30T23:52:00.914945820+00:00,1,0
2023-11-30T23:52:00.914995850+00:00,0,0
2023-11-30T23:52:00.936333260+00:00,0,1
2023-11-30T23:52:00.936334190+00:00,0,0
2023-11-30T23:52:01.164945060+00:00,1,0
2023-11-30T23:52:01.164995100+00:00,0,0
2023-11-30T23:52:01.186333570+00:00,0,1
2023-11-30T23:52:01.186334500+00:00,0,0
2023-11-30T23:52:01.414944310+00:00,1,0
2023-11-30T23:52:01.414994340+00:00,0,0
2023-11-30T23:52:01.436330630+00:00,0,1
2023-11-30T23:52:01.436331560+00:00,0,0
2023-11-30T23:52:01.664943550+00:00,1,0
2023-11-30T23:52:01.664993590+00:00,0,0
2023-11-30T23:52:01.686331240+00:00,0,1
2023-11-30T23:52:01.686332170+00:00,0,0
2023-11-30T23:52:01.914942800+00:00,1,0
2023-11-30T23:52:01.914992830+00:00,0,0
2023-11-30T23:52:01.936332630+00:00,0,1
2023-11-30T23:52:01.936333560+00:00,0,0
2023-11-30T23:52:02.164942040+00:00,1,0
2023-11-30T23:52:02.164992080+00:00,0,0
2023-11-30T23:52:02.186329310+00:00,0,1
2023-11-30T23:52:02.186330240+00:00,0,0
2023-11-30T23:52:02.414941280+00:00,1,0
2023-11-30T23:52:02.414991320+00:00,0,0
2023-11-30T23:52:02.436330370+00:00,0,1
2023-11-30T23:52:02.436331300+00:00,0,0
2023-11-30T23:52:02.664940530+00:00,1,0
2023-11-30T23:52:02.664990570+00:00,0,0
2023-11-30T23:52:02.686327000+00:00,0,1
2023-11-30T23:52:02.686327940+00:00,0,0
2023-11-30T23:52:02.914939770+00:00,1,0
2023-11-30T23:52:02.914989810+00:00,0,0
2023-11-30T23:52:02.936328400+00:00,0,1
2023-11-30T23:52:02.936329330+00:00,0,0
2023-11-30T23:52:03.164939020+00:00,1,0
2023-11-30T23:52:03.164989060+00:00,0,0
2023-11-30T23:52:03.186329080+00:00,0,1
2023-11-30T23:52:03.186330010+00:00,0,0
2023-11-30T23:52:03.414938260+00:00,1,0
2023-11-30T23:52:03.414988300+00:00,0,0
2023-11-30T23:52:03.436326130+00:00,0,1
2023-11-30T23:52:03.436327060+00:00,0,0
2023-11-30T23:52:03.664937500+00:00,1,0
2023-11-30T23:52:03.664987550+00:00,0,0
2023-11-30T23:52:03.686322450+00:00,0,1
2023-11-30T23:52:03.686323380+00:00,0,0
2023-11-30T23:52:03.914936750+00:00,1,0
2023-11-30T23:52:03.914986790+00:00,0,0
2023-11-30T23:52:03.936323860+00:00,0,1
2023-11-30T23:52:03.936324790+00:00,0,0
2023-11-30T23:52:04.164935990+00:00,1,0
2023-11-30T23:52:04.164986030+00:00,0,0
2023-11-30T23:52:04.186324580+00:00,0,1
2023-11-30T23:52:04.186325510+00:00,0,0
2023-11-30T23:52:04.414935230+00:00,1,0
2023-11-30T23:52:04.414985280+00:00,0,0
2023-11-30T23:52:04.436321990+00:00,0,1
2023-11-30T23:52:04.436322920+00:00,0,0
2023-11-30T23:52:04.664934480+00:00,1,0
2023-11-30T23:52:04.664984520+00:00,0,0
2023-11-30T23:52:04.686322590+00:00,0,1
2023-11-30T23:52:04.686323530+00:00,0,0
2023-11-30T23:52:04.914933720+00:00,1,0
2023-11-30T23:52:04.914983760+00:00,0,0
2023-11-30T23:52:04.936319650+00:00,0,1
2023-11-30T23:52:04.936320580+00:00,0,0
2023-11-30T23:52:05.164932970+00:00,1,0
2023-11-30T23:52:05.164983010+00:00,0,0
2023-11-30T23:52:05.186320260+00:00,0,1
2023-11-30T23:52:05.186321190+00:00,0,0
2023-11-30T23:52:05.414932210+00:00,1,0
2023-11-30T23:52:05.414982250+00:00,0,0
2023-11-30T23:52:05.436317440+00:00,0,1
2023-11-30T23:52:05.436318370+00:00,0,0
2023-11-30T23:52:05.664931450+00:00,1,0
2023-11-30T23:52:05.664981490+00:00,0,0
2023-11-30T23:52:05.686321970+00:00,0,1
2023-11-30T23:52:05.686322900+00:00,0,0
2023-11-30T23:52:05.914930700+00:00,1,0
2023-11-30T23:52:05.914980740+00:00,0,0
2023-11-30T23:52:05.936319140+00:00,0,1
2023-11-30T23:52:05.936320070+00:00,0,0
2023-11-30T23:52:06.164929940+00:00,1,0
2023-11-30T23:52:06.164979980+00:00,0,0
2023-11-30T23:52:06.186319760+00:00,0,1
2023-11-30T23:52:06.186320690+00:00,0,0
2023-11-30T23:52:06.414929180+00:00,1,0
2023-11-30T23:52:06.414979220+00:00,0,0
2023-11-30T23:52:06.436316930+00:00,0,1
2023-11-30T23:52:06.436317860+00:00,0,0
2023-11-30T23:52:06.664928430+00:00,1,0
2023-11-30T23:52:06.664978470+00:00,0,0
2023-11-30T23:52:06.686317560+00:00,0,1
2023-11-30T23:52:06.686318490+00:00,0,0
2023-11-30T23:52:06.914927670+00:00,1,0
2023-11-30T23:52:06.914977710+00:00,0,0
2023-11-30T23:52:06.936318610+00:00,0,1
2023-11-30T23:52:06.936319540+00:00,0,0
2023-11-30T23:52:07.164926910+00:00,1,0
2023-11-30T23:52:07.164976950+00:00,0,0
2023-11-30T23:52:07.186315240+00:00,0,1
2023-11-30T23:52:07.186316170+00:00,0,0
2023-11-30T23:52:07.414926160+00:00,1,0
2023-11-30T23:52:07.414976200+00:00,0,0
2023-11-30T23:52:07.436312310+00:00,0,1
2023-11-30T23:52:07.436313240+00:00,0,0
2023-11-30T23:52:07.664925400+00:00,1,0
2023-11-30T23:52:07.664975440+00:00,0,0
2023-11-30T23:52:07.686312950+00:00,0,1
2023-11-30T23:52:07.686313880+00:00,0,0
2023-11-30T23:52:07.914924640+00:00,1,0
2023-11-30T23:52:07.914974680+00:00,0,0
2023-11-30T23:52:07.936314340+00:00,0,1
2023-11-30T23:52:07.936315270+00:00,0,0
2023-11-30T23:52:08.164923880+00:00,1,0
2023-11-30T23:52:08.164973930+00:00,0,0
2023-11-30T23:52:08.186311120+00:00,0,1
2023-11-30T23:52:08.186312050+00:00,0,0
2023-11-30T23:52:08.414923130+00:00,1,0
2023-11-30T23:52:08.414973170+00:00,0,0
2023-11-30T23:52:08.436308160+00:00,0,1
2023-11-30T23:52:08.436309090+00:00,0,0
2023-11-30T23:52:08.664922370+00:00,1,0
2023-11-30T23:52:08.664972410+00:00,0,0
2023-11-30T23:52:08.686312780+00:00,0,1
2023-11-30T23:52:08.686313710+00:00,0,0
2023-11-30T23:52:08.914921610+00:00,1,0
2023-11-30T23:52:08.914971660+00:00,0,0
2023-11-30T23:52:08.936309830+00:00,0,1
2023-11-30T23:52:08.936310760+00:00,0,0
2023-11-30T23:52:09.164920850+00:00,1,0
2023-11-30T23:52:09.164970900+00:00,0,0
2023-11-30T23:52:09.186306520+00:00,0,1
2023-11-30T23:52:09.186307450+00:00,0,0
2023-11-30T23:52:09.414920100+00:00,1,0
2023-11-30T23:52:09.414970140+00:00,0,0
2023-11-30T23:52:09.436307930+00:00,0,1
2023-11-30T23:52:09.436308860+00:00,0,0
2023-11-30T23:52:09.664919340+00:00,1,0
2023-11-30T23:52:09.664969380+00:00,0,0
2023-11-30T23:52:09.686308560+00:00,0,1
2023-11-30T23:52:09.686309490+00:00,0,0
2023-11-30T23:52:09.914918580+00:00,1,0
2023-11-30T23:52:09.914968620+00:00,0,0
2023-11-30T23:52:09.936305710+00:00,0,1
2023-11-30T23:52:09.936306640+00:00,0,0
2023-11-30T23:52:10.164917820+00:00,1,0
2023-11-30T23:52:10.164967870+00:00,0,0
2023-11-30T23:52:10.186306340+00:00,0,1
2023-11-30T23:52:10.186307270+00:00,0,0
2023-11-30T23:52:10.414917070+00:00,1,0
2023-11-30T23:52:10.414967110+00:00,0,0
2023-11-30T23:52:10.436303480+00:00,0,1
2023-11-30T23:52:10.436304410+00:00,0,0
2023-11-30T23:52:10.664916310+00:00,1,0
2023-11-30T23:52:10.664966350+00:00,0,0
2023-11-30T23:52:10.686304110+00:00,0,1
2023-11-30T23:52:10.686305040+00:00,0,0
2023-11-30T23:52:10.914915550+00:00,1,0
2023-11-30T23:52:10.914965590+00:00,0,0
2023-11-30T23:52:10.936301260+00:00,0,1
2023-11-30T23:52:10.936302190+00:00,0,0
2023-11-30T23:52:11.164914790+00:00,1,0
2023-11-30T23:52:11.164964830+00:00,0,0
2023-11-30T23:52:11.186301870+00:00,0,1
2023-11-30T23:52:11.186302800+00:00,0,0
2023-11-30T23:52:11.414914040+00:00,1,0
2023-11-30T23:52:11.414964070+00:00,0,0
2023-11-30T23:52:11.436299040+00:00,0,1
2023-11-30T23:52:11.436299970+00:00,0,0
2023-11-30T23:52:11.664913280+00:00,1,0
2023-11-30T23:52:11.664963320+00:00,0,0
2023-11-30T23:52:11.686303580+00:00,0,1
2023-11-30T23:52:11.686304510+00:00,0,0
2023-11-30T23:52:11.914912520+00:00,1,0
2023-11-30T23:52:11.914962560+00:00,0,0
2023-11-30T23:52:11.936300750+00:00,0,1
2023-11-30T23:52:11.936301680+00:00,0,0
2023-11-30T23:52:12.164911760+00:00,1,0
2023-11-30T23:52:12.164961800+00:00,0,0
2023-11-30T23:52:12.186297360+00:00,0,1
2023-11-30T23:52:12.186298290+00:00,0,0
2023-11-30T23:52:12.414911000+00:00,1,0
2023-11-30T23:52:12.414961040+00:00,0,0
2023-11-30T23:52:12.436298380+00:00,0,1
2023-11-30T23:52:12.436299320+00:00,0,0
2023-11-30T23:52:12.664910240+00:00,1,0
2023-11-30T23:52:12.664960280+00:00,0,0
2023-11-30T23:52:12.686294680+00:00,0,1
2023-11-30T23:52:12.686295610+00:00,0,0
2023-11-30T23:52:12.914909490+00:00,1,0
2023-11-30T23:52:12.914959520+00:00,0,0
2023-11-30T23:52:12.936300010+00:00,0,1
2023-11-30T23:52:12.936300940+00:00,0,0
2023-11-30T23:52:13.164908730+00:00,1,0
2023-11-30T23:52:13.164958770+00:00,0,0
2023-11-30T23:52:13.186300650+00:00,0,1
2023-11-30T23:52:13.186301580+00:00,0,0
2023-11-30T23:52:13.414907970+00:00,1,0
2023-11-30T23:52:13.414958010+00:00,0,0
