Time [s],Channel 0,Channel 1
2023-12-01T01:35:29.911933000+00:00,0,0
2023-12-01T01:35:30.389118200+00:00,1,0
2023-12-01T01:35:30.389218200+00:00,0,0
2023-12-01T01:35:35.830296870+00:00,0,1
2023-12-01T01:35:35.830299000+00:00,0,0
2023-12-01T01:35:36.889103620+00:00,1,0
2023-12-01T01:35:36.889203630+00:00,0,0
2023-12-01T01:35:42.330286700+00:00,0,1
2023-12-01T01:35:42.330288820+00:00,0,0
2023-12-01T01:35:43.389088990+00:00,1,0
2023-12-01T01:35:43.389188990+00:00,0,0
2023-12-01T01:35:48.830277140+00:00,0,1
2023-12-01T01:35:48.830279270+00:00,0,0
2023-12-01T01:35:49.889074300+00:00,1,0
2023-12-01T01:35:49.889174310+00:00,0,0
2023-12-01T01:35:55.330250660+00:00,0,1
2023-12-01T01:35:55.330252780+00:00,0,0
2023-12-01T01:35:56.389059580+00:00,1,0
2023-12-01T01:35:56.389159590+00:00,0,0
2023-12-01T01:36:01.830241230+00:00,0,1
2023-12-01T01:36:01.830243350+00:00,0,0
2023-12-01T01:36:02.889044830+00:00,1,0
2023-12-01T01:36:02.889144840+00:00,0,0
2023-12-01T01:36:08.330214930+00:00,0,1
2023-12-01T01:36:08.330217060+00:00,0,0
2023-12-01T01:36:09.389030070+00:00,1,0
2023-12-01T01:36:09.389130080+00:00,0,0
2023-12-01T01:36:14.830205240+00:00,0,1
2023-12-01T01:36:14.830207370+00:00,0,0
2023-12-01T01:36:15.889015300+00:00,1,0
2023-12-01T01:36:15.889115300+00:00,0,0
2023-12-01T01:36:21.330194720+00:00,0,1
2023-12-01T01:36:21.330196840+00:00,0,0
2023-12-01T01:36:22.389000510+00:00,1,0
2023-12-01T01:36:22.389100510+00:00,0,0
2023-12-01T01:36:27.830169320+00:00,0,1
2023-12-01T01:36:27.830171440+00:00,0,0
2023-12-01T01:36:28.888985700+00:00,1,0
2023-12-01T01:36:28.889085700+00:00,0,0
2023-12-01T01:36:34.330158750+00:00,0,1
2023-12-01T01:36:34.330160880+00:00,0,0
2023-12-01T01:36:35.388970880+00:00,1,0
2023-12-01T01:36:35.389070880+00:00,0,0
2023-12-01T01:36:40.830149010+00:00,0,1
2023-12-01T01:36:40.830151130+00:00,0,0
2023-12-01T01:36:41.888956050+00:00,1,0
2023-12-01T01:36:41.889056060+00:00,0,0
2023-12-01T01:36:47.330122410+00:00,0,1
2023-12-01T01:36:47.330124530+00:00,0,0
2023-12-01T01:36:48.388941210+00:00,1,0
2023-12-01T01:36:48.389041210+00:00,0,0
2023-12-01T01:36:53.830112610+00:00,0,1
2023-12-01T01:36:53.830114740+00:00,0,0
2023-12-01T01:36:54.888926350+00:00,1,0
2023-12-01T01:36:54.889026350+00:00,0,0
2023-12-01T01:37:00.330101980+00:00,0,1
2023-12-01T01:37:00.330104110+00:00,0,0
2023-12-01T01:37:01.388911480+00:00,1,0
2023-12-01T01:37:01.389011480+00:00,0,0
2023-12-01T01:37:06.830092460+00:00,0,1
2023-12-01T01:37:06.830094590+00:00,0,0
2023-12-01T01:37:07.888896600+00:00,1,0
2023-12-01T01:37:07.888996600+00:00,0,0
2023-12-01T01:37:13.330065830+00:00,0,1
2023-12-01T01:37:13.330067960+00:00,0,0
2023-12-01T01:37:14.388881710+00:00,1,0
2023-12-01T01:37:14.388981720+00:00,0,0
2023-12-01T01:37:19.830056060+00:00,0,1
2023-12-01T01:37:19.830058180+00:00,0,0
2023-12-01T01:37:20.888866820+00:00,1,0
2023-12-01T01:37:20.888966830+00:00,0,0
2023-12-01T01:37:26.330045520+00:00,0,1
2023-12-01T01:37:26.330047650+00:00,0,0
2023-12-01T01:37:27.388851910+00:00,1,0
2023-12-01T01:37:27.388951920+00:00,0,0
2023-12-01T01:37:32.830019820+00:00,0,1
2023-12-01T01:37:32.830021940+00:00,0,0
2023-12-01T01:37:33.888836990+00:00,1,0
2023-12-01T01:37:33.888937000+00:00,0,0
2023-12-01T01:37:39.330009310+00:00,0,1
2023-12-01T01:37:39.330011430+00:00,0,0
2023-12-01T01:37:40.388822070+00:00,1,0
2023-12-01T01:37:40.388922070+00:00,0,0
2023-12-01T01:37:45.829999620+00:00,0,1
2023-12-01T01:37:45.830001750+00:00,0,0
2023-12-01T01:37:46.888807130+00:00,1,0
2023-12-01T01:37:46.888907130+00:00,0,0
2023-12-01T01:37:52.329973010+00:00,0,1
2023-12-01T01:37:52.329975140+00:00,0,0
2023-12-01T01:37:53.388792170+00:00,1,0
2023-12-01T01:37:53.388892180+00:00,0,0
2023-12-01T01:37:58.829963220+00:00,0,1
2023-12-01T01:37:58.829965350+00:00,0,0
2023-12-01T01:37:59.888777220+00:00,1,0
2023-12-01T01:37:59.888877230+00:00,0,0
2023-12-01T01:38:05.329952600+00:00,0,1
2023-12-01T01:38:05.329954720+00:00,0,0
2023-12-01T01:38:06.388762250+00:00,1,0
2023-12-01T01:38:06.388862260+00:00,0,0
2023-12-01T01:38:11.829943120+00:00,0,1
2023-12-01T01:38:11.829945250+00:00,0,0
2023-12-01T01:38:12.888747270+00:00,1,0
2023-12-01T01:38:12.888847280+00:00,0,0
2023-12-01T01:38:18.329916560+00:00,0,1
2023-12-01T01:38:18.329918680+00:00,0,0
2023-12-01T01:38:19.388732280+00:00,1,0
2023-12-01T01:38:19.388832290+00:00,0,0
2023-12-01T01:38:24.829906770+00:00,0,1
2023-12-01T01:38:24.829908890+00:00,0,0
2023-12-01T01:38:25.888717280+00:00,1,0
2023-12-01T01:38:25.888817280+00:00,0,0
2023-12-01T01:38:31.329896310+00:00,0,1
2023-12-01T01:38:31.329898430+00:00,0,0
2023-12-01T01:38:32.388702270+00:00,1,0
2023-12-01T01:38:32.388802270+00:00,0,0
2023-12-01T01:38:37.829870620+00:00,0,1
2023-12-01T01:38:37.829872740+00:00,0,0
2023-12-01T01:38:38.888687260+00:00,1,0
2023-12-01T01:38:38.888787260+00:00,0,0
2023-12-01T01:38:44.329859960+00:00,0,1
2023-12-01T01:38:44.329862090+00:00,0,0
2023-12-01T01:38:45.388672230+00:00,1,0
2023-12-01T01:38:45.388772240+00:00,0,0
2023-12-01T01:38:50.829850340+00:00,0,1
2023-12-01T01:38:50.829852470+00:00,0,0
2023-12-01T01:38:51.888657190+00:00,1,0
2023-12-01T01:38:51.888757200+00:00,0,0
2023-12-01T01:38:57.329823820+00:00,0,1
2023-12-01T01:38:57.329825950+00:00,0,0
2023-12-01T01:38:58.388642150+00:00,1,0
2023-12-01T01:38:58.388742150+00:00,0,0
2023-12-01T01:39:03.829813980+00:00,0,1
2023-12-01T01:39:03.829816110+00:00,0,0
2023-12-01T01:39:04.888627100+00:00,1,0
2023-12-01T01:39:04.888727100+00:00,0,0
2023-12-01T01:39:10.329803290+00:00,0,1
2023-12-01T01:39:10.329805410+00:00,0,0
2023-12-01T01:39:11.388612030+00:00,1,0
2023-12-01T01:39:11.388712040+00:00,0,0
2023-12-01T01:39:16.829777440+00:00,0,1
2023-12-01T01:39:16.829779570+00:00,0,0
2023-12-01T01:39:17.888596970+00:00,1,0
2023-12-01T01:39:17.888696970+00:00,0,0
2023-12-01T01:39:23.329766710+00:00,0,1
2023-12-01T01:39:23.329768840+00:00,0,0
2023-12-01T01:39:24.388581890+00:00,1,0
2023-12-01T01:39:24.388681890+00:00,0,0
2023-12-01T01:39:29.829756840+00:00,0,1
2023-12-01T01:39:29.829758970+00:00,0,0
2023-12-01T01:39:30.888566800+00:00,1,0
2023-12-01T01:39:30.888666810+00:00,0,0
2023-12-01T01:39:36.329730150+00:00,0,1
2023-12-01T01:39:36.329732270+00:00,0,0
2023-12-01T01:39:37.388551710+00:00,1,0
2023-12-01T01:39:37.388651720+00:00,0,0
2023-12-01T01:39:42.829720220+00:00,0,1
2023-12-01T01:39:42.829722350+00:00,0,0
2023-12-01T01:39:43.888536620+00:00,1,0
2023-12-01T01:39:43.888636620+00:00,0,0
2023-12-01T01:39:49.329709450+00:00,0,1
2023-12-01T01:39:49.329711580+00:00,0,0
2023-12-01T01:39:50.388521510+00:00,1,0
2023-12-01T01:39:50.388621520+00:00,0,0
2023-12-01T01:39:55.829683500+00:00,0,1
2023-12-01T01:39:55.829685620+00:00,0,0
2023-12-01T01:39:56.888506400+00:00,1,0
2023-12-01T01:39:56.888606410+00:00,0,0
2023-12-01T01:40:02.329672690+00:00,0,1
2023-12-01T01:40:02.329674820+00:00,0,0
2023-12-01T01:40:03.388491280+00:00,1,0
2023-12-01T01:40:03.388591290+00:00,0,0
2023-12-01T01:40:08.829663020+00:00,0,1
2023-12-01T01:40:08.829665140+00:00,0,0
2023-12-01T01:40:09.888476150+00:00,1,0
2023-12-01T01:40:09.888576160+00:00,0,0
2023-12-01T01:40:15.329652460+00:00,0,1
2023-12-01T01:40:15.329654590+00:00,0,0
2023-12-01T01:40:16.388461020+00:00,1,0
2023-12-01T01:40:16.388561020+00:00,0,0
2023-12-01T01:40:21.829626500+00:00,0,1
2023-12-01T01:40:21.829628630+00:00,0,0
2023-12-01T01:40:22.888445880+00:00,1,0
2023-12-01T01:40:22.888545880+00:00,0,0
2023-12-01T01:40:28.329615490+00:00,0,1
2023-12-01T01:40:28.329617620+00:00,0,0
2023-12-01T01:40:29.388430720+00:00,1,0
2023-12-01T01:40:29.388530730+00:00,0,0
2023-12-01T01:40:34.829605480+00:00,0,1
2023-12-01T01:40:34.829607600+00:00,0,0
2023-12-01T01:40:35.888415570+00:00,1,0
2023-12-01T01:40:35.888515580+00:00,0,0
2023-12-01T01:40:41.329594660+00:00,0,1
2023-12-01T01:40:41.329596790+00:00,0,0
2023-12-01T01:40:42.388400400+00:00,1,0
2023-12-01T01:40:42.388500410+00:00,0,0
2023-12-01T01:40:47.829568670+00:00,0,1
2023-12-01T01:40:47.829570800+00:00,0,0
2023-12-01T01:40:48.888385220+00:00,1,0
2023-12-01T01:40:48.888485230+00:00,0,0
2023-12-01T01:40:54.329557860+00:00,0,1
2023-12-01T01:40:54.329559990+00:00,0,0
2023-12-01T01:40:55.388370040+00:00,1,0
2023-12-01T01:40:55.388470050+00:00,0,0
2023-12-01T01:41:00.829547800+00:00,0,1
2023-12-01T01:41:00.829549920+00:00,0,0
2023-12-01T01:41:01.888354850+00:00,1,0
2023-12-01T01:41:01.888454850+00:00,0,0
2023-12-01T01:41:07.329521190+00:00,0,1
2023-12-01T01:41:07.329523320+00:00,0,0
2023-12-01T01:41:08.388339640+00:00,1,0
2023-12-01T01:41:08.388439650+00:00,0,0
2023-12-01T01:41:13.829511100+00:00,0,1
2023-12-01T01:41:13.829513220+00:00,0,0
2023-12-01T01:41:14.888324440+00:00,1,0
2023-12-01T01:41:14.888424440+00:00,0,0
2023-12-01T01:41:20.329500260+00:00,0,1
2023-12-01T01:41:20.329502380+00:00,0,0
2023-12-01T01:41:21.388309220+00:00,1,0
2023-12-01T01:41:21.388409220+00:00,0,0
2023-12-01T01:41:26.829474380+00:00,0,1
2023-12-01T01:41:26.829476510+00:00,0,0
2023-12-01T01:41:27.888293990+00:00,1,0
2023-12-01T01:41:27.888393990+00:00,0,0
2023-12-01T01:41:33.329463640+00:00,0,1
2023-12-01T01:41:33.329465770+00:00,0,0
2023-12-01T01:41:34.388278750+00:00,1,0
2023-12-01T01:41:34.388378760+00:00,0,0
2023-12-01T01:41:39.829453770+00:00,0,1
2023-12-01T01:41:39.829455900+00:00,0,0
2023-12-01T01:41:40.888263510+00:00,1,0
2023-12-01T01:41:40.888363520+00:00,0,0
2023-12-01T01:41:46.329443110+00:00,0,1
2023-12-01T01:41:46.329445230+00:00,0,0
2023-12-01T01:41:47.388248260+00:00,1,0
2023-12-01T01:41:47.388348270+00:00,0,0
2023-12-01T01:41:52.829417140+00:00,0,1
2023-12-01T01:41:52.829419260+00:00,0,0
2023-12-01T01:41:53.888233010+00:00,1,0
2023-12-01T01:41:53.888333010+00:00,0,0
2023-12-01T01:41:59.329406320+00:00,0,1
2023-12-01T01:41:59.329408450+00:00,0,0
2023-12-01T01:42:00.388217740+00:00,1,0
2023-12-01T01:42:00.388317750+00:00,0,0
2023-12-01T01:42:05.829396370+00:00,0,1
2023-12-01T01:42:05.829398500+00:00,0,0
2023-12-01T01:42:06.888202470+00:00,1,0
2023-12-01T01:42:06.888302480+00:00,0,0
2023-12-01T01:42:12.329369610+00:00,0,1
2023-12-01T01:42:12.329371740+00:00,0,0
2023-12-01T01:42:13.388187190+00:00,1,0
2023-12-01T01:42:13.388287190+00:00,0,0
2023-12-01T01:42:18.829359670+00:00,0,1
2023-12-01T01:42:18.829361790+00:00,0,0
2023-12-01T01:42:19.888171900+00:00,1,0
2023-12-01T01:42:19.888271910+00:00,0,0
2023-12-01T01:42:25.329348930+00:00,0,1
2023-12-01T01:42:25.329351060+00:00,0,0
2023-12-01T01:42:26.388156600+00:00,1,0
2023-12-01T01:42:26.388256620+00:00,0,0
2023-12-01T01:42:31.829322770+00:00,0,1
2023-12-01T01:42:31.829324890+00:00,0,0
2023-12-01T01:42:32.888141300+00:00,1,0
2023-12-01T01:42:32.888241310+00:00,0,0
2023-12-01T01:42:38.329312060+00:00,0,1
2023-12-01T01:42:38.329314190+00:00,0,0
2023-12-01T01:42:39.388125990+00:00,1,0
2023-12-01T01:42:39.388226000+00:00,0,0
2023-12-01T01:42:44.829302140+00:00,0,1
2023-12-01T01:42:44.829304270+00:00,0,0
2023-12-01T01:42:45.888110680+00:00,1,0
2023-12-01T01:42:45.888210680+00:00,0,0
2023-12-01T01:42:51.329275430+00:00,0,1
2023-12-01T01:42:51.329277550+00:00,0,0
2023-12-01T01:42:52.388095360+00:00,1,0
2023-12-01T01:42:52.388195360+00:00,0,0
2023-12-01T01:42:57.829265440+00:00,0,1
2023-12-01T01:42:57.829267570+00:00,0,0
2023-12-01T01:42:58.888080030+00:00,1,0
2023-12-01T01:42:58.888180040+00:00,0,0
2023-12-01T01:43:04.329254570+00:00,0,1
2023-12-01T01:43:04.329256700+00:00,0,0
2023-12-01T01:43:05.388064690+00:00,1,0
2023-12-01T01:43:05.388164700+00:00,0,0
2023-12-01T01:43:10.829228580+00:00,0,1
2023-12-01T01:43:10.829230700+00:00,0,0
2023-12-01T01:43:11.888049360+00:00,1,0
2023-12-01T01:43:11.888149360+00:00,0,0
2023-12-01T01:43:17.329217770+00:00,0,1
2023-12-01T01:43:17.329219890+00:00,0,0
2023-12-01T01:43:18.388034010+00:00,1,0
2023-12-01T01:43:18.388134020+00:00,0,0
2023-12-01T01:43:23.829207810+00:00,0,1
2023-12-01T01:43:23.829209940+00:00,0,0
2023-12-01T01:43:24.888018660+00:00,1,0
2023-12-01T01:43:24.888118670+00:00,0,0
2023-12-01T01:43:30.329196720+00:00,0,1
2023-12-01T01:43:30.329198840+00:00,0,0
2023-12-01T01:43:31.388003300+00:00,1,0
2023-12-01T01:43:31.388103310+00:00,0,0
2023-12-01T01:43:36.829170760+00:00,0,1
2023-12-01T01:43:36.829172890+00:00,0,0
2023-12-01T01:43:37.887987950+00:00,1,0
2023-12-01T01:43:37.888087950+00:00,0,0
2023-12-01T01:43:43.329159950+00:00,0,1
2023-12-01T01:43:43.329162080+00:00,0,0
2023-12-01T01:43:44.387972580+00:00,1,0
2023-12-01T01:43:44.388072590+00:00,0,0
2023-12-01T01:43:49.829149910+00:00,0,1
2023-12-01T01:43:49.829152040+00:00,0,0
2023-12-01T01:43:50.887957210+00:00,1,0
2023-12-01T01:43:50.888057220+00:00,0,0
2023-12-01T01:43:56.329123040+00:00,0,1
2023-12-01T01:43:56.329125170+00:00,0,0
2023-12-01T01:43:57.387941840+00:00,1,0
2023-12-01T01:43:57.388041840+00:00,0,0
2023-12-01T01:44:02.829113190+00:00,0,1
2023-12-01T01:44:02.829115310+00:00,0,0
2023-12-01T01:44:03.887926460+00:00,1,0
2023-12-01T01:44:03.888026460+00:00,0,0
2023-12-01T01:44:09.329102450+00:00,0,1
2023-12-01T01:44:09.329104580+00:00,0,0
2023-12-01T01:44:10.387911070+00:00,1,0
2023-12-01T01:44:10.388011080+00:00,0,0
2023-12-01T01:44:15.829076590+00:00,0,1
2023-12-01T01:44:15.829078710+00:00,0,0
2023-12-01T01:44:16.887895680+00:00,1,0
2023-12-01T01:44:16.887995680+00:00,0,0
2023-12-01T01:44:22.329065900+00:00,0,1
2023-12-01T01:44:22.329068020+00:00,0,0
2023-12-01T01:44:23.387880280+00:00,1,0
2023-12-01T01:44:23.387980290+00:00,0,0
2023-12-01T01:44:28.829055960+00:00,0,1
2023-12-01T01:44:28.829058090+00:00,0,0
2023-12-01T01:44:29.887864890+00:00,1,0
2023-12-01T01:44:29.887964890+00:00,0,0
2023-12-01T01:44:35.329029160+00:00,0,1
2023-12-01T01:44:35.329031290+00:00,0,0
2023-12-01T01:44:36.387849480+00:00,1,0
2023-12-01T01:44:36.387949490+00:00,0,0
2023-12-01T01:44:41.829019020+00:00,0,1
2023-12-01T01:44:41.829021140+00:00,0,0
2023-12-01T01:44:42.887834070+00:00,1,0
2023-12-01T01:44:42.887934080+00:00,0,0
2023-12-01T01:44:48.329008230+00:00,0,1
2023-12-01T01:44:48.329010350+00:00,0,0
2023-12-01T01:44:49.387818660+00:00,1,0
2023-12-01T01:44:49.387918670+00:00,0,0
2023-12-01T01:44:54.828998100+00:00,0,1
2023-12-01T01:44:54.829000220+00:00,0,0
2023-12-01T01:44:55.887803240+00:00,1,0
2023-12-01T01:44:55.887903250+00:00,0,0
2023-12-01T01:45:01.328971280+00:00,0,1
2023-12-01T01:45:01.328973410+00:00,0,0
2023-12-01T01:45:02.387787820+00:00,1,0
2023-12-01T01:45:02.387887830+00:00,0,0
2023-12-01T01:45:07.828961090+00:00,0,1
2023-12-01T01:45:07.828963220+00:00,0,0
2023-12-01T01:45:08.887772400+00:00,1,0
2023-12-01T01:45:08.887872410+00:00,0,0
2023-12-01T01:45:14.328950250+00:00,0,1
2023-12-01T01:45:14.328952380+00:00,0,0
2023-12-01T01:45:15.387756970+00:00,1,0
2023-12-01T01:45:15.387856980+00:00,0,0
2023-12-01T01:45:20.828924170+00:00,0,1
2023-12-01T01:45:20.828926300+00:00,0,0
2023-12-01T01:45:21.887741540+00:00,1,0
2023-12-01T01:45:21.887841540+00:00,0,0
2023-12-01T01:45:27.328913540+00:00,0,1
2023-12-01T01:45:27.328915670+00:00,0,0
2023-12-01T01:45:28.387726100+00:00,1,0
2023-12-01T01:45:28.387826110+00:00,0,0
2023-12-01T01:45:33.828903330+00:00,0,1
2023-12-01T01:45:33.828905460+00:00,0,0
2023-12-01T01:45:34.887710650+00:00,1,0
2023-12-01T01:45:34.887810660+00:00,0,0
2023-12-01T01:45:40.328876430+00:00,0,1
2023-12-01T01:45:40.328878550+00:00,0,0
2023-12-01T01:45:41.387695210+00:00,1,0
2023-12-01T01:45:41.387795220+00:00,0,0
2023-12-01T01:45:46.828866320+00:00,0,1
2023-12-01T01:45:46.828868440+00:00,0,0
2023-12-01T01:45:47.887679760+00:00,1,0
2023-12-01T01:45:47.887779770+00:00,0,0
2023-12-01T01:45:53.328855520+00:00,0,1
2023-12-01T01:45:53.328857650+00:00,0,0
2023-12-01T01:45:54.387664310+00:00,1,0
2023-12-01T01:45:54.387764320+00:00,0,0
2023-12-01T01:45:59.828829430+00:00,0,1
2023-12-01T01:45:59.828831560+00:00,0,0
2023-12-01T01:46:00.887648860+00:00,1,0
2023-12-01T01:46:00.887748870+00:00,0,0
2023-12-01T01:46:06.328818620+00:00,0,1
2023-12-01T01:46:06.328820750+00:00,0,0
2023-12-01T01:46:07.387633400+00:00,1,0
2023-12-01T01:46:07.387733410+00:00,0,0
2023-12-01T01:46:12.828808440+00:00,0,1
2023-12-01T01:46:12.828810570+00:00,0,0
2023-12-01T01:46:13.887617940+00:00,1,0
2023-12-01T01:46:13.887717940+00:00,0,0
2023-12-01T01:46:19.328797510+00:00,0,1
2023-12-01T01:46:19.328799640+00:00,0,0
2023-12-01T01:46:20.387602470+00:00,1,0
2023-12-01T01:46:20.387702490+00:00,0,0
2023-12-01T01:46:25.828771400+00:00,0,1
2023-12-01T01:46:25.828773520+00:00,0,0
2023-12-01T01:46:26.887587010+00:00,1,0
2023-12-01T01:46:26.887687020+00:00,0,0
2023-12-01T01:46:32.328760470+00:00,0,1
2023-12-01T01:46:32.328762600+00:00,0,0
2023-12-01T01:46:33.387571540+00:00,1,0
2023-12-01T01:46:33.387671550+00:00,0,0
2023-12-01T01:46:38.828750330+00:00,0,1
2023-12-01T01:46:38.828752460+00:00,0,0
2023-12-01T01:46:39.887556070+00:00,1,0
2023-12-01T01:46:39.887656080+00:00,0,0
2023-12-01T01:46:45.328723510+00:00,0,1
2023-12-01T01:46:45.328725630+00:00,0,0
2023-12-01T01:46:46.387540590+00:00,1,0
2023-12-01T01:46:46.387640600+00:00,0,0
2023-12-01T01:46:51.828713500+00:00,0,1
2023-12-01T01:46:51.828715630+00:00,0,0
2023-12-01T01:46:52.887525120+00:00,1,0
2023-12-01T01:46:52.887625130+00:00,0,0
2023-12-01T01:46:58.328702850+00:00,0,1
2023-12-01T01:46:58.328704980+00:00,0,0
2023-12-01T01:46:59.387509640+00:00,1,0
2023-12-01T01:46:59.387609650+00:00,0,0
2023-12-01T01:47:04.828676700+00:00,0,1
2023-12-01T01:47:04.828678830+00:00,0,0
2023-12-01T01:47:05.887494160+00:00,1,0
2023-12-01T01:47:05.887594170+00:00,0,0
2023-12-01T01:47:11.328665850+00:00,0,1
2023-12-01T01:47:11.328667980+00:00,0,0
2023-12-01T01:47:12.387478680+00:00,1,0
2023-12-01T01:47:12.387578680+00:00,0,0
2023-12-01T01:47:17.828655840+00:00,0,1
2023-12-01T01:47:17.828657970+00:00,0,0
2023-12-01T01:47:18.887463190+00:00,1,0
2023-12-01T01:47:18.887563190+00:00,0,0
2023-12-01T01:47:24.328628900+00:00,0,1
2023-12-01T01:47:24.328631030+00:00,0,0
2023-12-01T01:47:25.387447690+00:00,1,0
2023-12-01T01:47:25.387547700+00:00,0,0
2023-12-01T01:47:30.828618440+00:00,0,1
2023-12-01T01:47:30.828620570+00:00,0,0
2023-12-01T01:47:31.887432200+00:00,1,0
2023-12-01T01:47:31.887532210+00:00,0,0
2023-12-01T01:47:37.328606850+00:00,0,1
2023-12-01T01:47:37.328608980+00:00,0,0
2023-12-01T01:47:38.387416700+00:00,1,0
2023-12-01T01:47:38.387516710+00:00,0,0
2023-12-01T01:47:43.828596900+00:00,0,1
2023-12-01T01:47:43.828599020+00:00,0,0
2023-12-01T01:47:44.887401210+00:00,1,0
2023-12-01T01:47:44.887501210+00:00,0,0
2023-12-01T01:47:50.328570260+00:00,0,1
2023-12-01T01:47:50.328572380+00:00,0,0
2023-12-01T01:47:51.387385700+00:00,1,0
2023-12-01T01:47:51.387485710+00:00,0,0
2023-12-01T01:47:56.828560080+00:00,0,1
2023-12-01T01:47:56.828562200+00:00,0,0
2023-12-01T01:47:57.887370200+00:00,1,0
2023-12-01T01:47:57.887470200+00:00,0,0
2023-12-01T01:48:03.328548230+00:00,0,1
2023-12-01T01:48:03.328550360+00:00,0,0
2023-12-01T01:48:04.387354690+00:00,1,0
2023-12-01T01:48:04.387454700+00:00,0,0
2023-12-01T01:48:09.828522000+00:00,0,1
2023-12-01T01:48:09.828524120+00:00,0,0
2023-12-01T01:48:10.887339180+00:00,1,0
2023-12-01T01:48:10.887439190+00:00,0,0
2023-12-01T01:48:16.328511090+00:00,0,1
2023-12-01T01:48:16.328513220+00:00,0,0
2023-12-01T01:48:17.387323670+00:00,1,0
2023-12-01T01:48:17.387423680+00:00,0,0
2023-12-01T01:48:22.828500660+00:00,0,1
2023-12-01T01:48:22.828502790+00:00,0,0
2023-12-01T01:48:23.887308160+00:00,1,0
2023-12-01T01:48:23.887408160+00:00,0,0
2023-12-01T01:48:29.328473780+00:00,0,1
2023-12-01T01:48:29.328475900+00:00,0,0
2023-12-01T01:48:30.387292640+00:00,1,0
2023-12-01T01:48:30.387392650+00:00,0,0
2023-12-01T01:48:35.828463560+00:00,0,1
2023-12-01T01:48:35.828465680+00:00,0,0
2023-12-01T01:48:36.887277120+00:00,1,0
2023-12-01T01:48:36.887377130+00:00,0,0
2023-12-01T01:48:42.328452440+00:00,0,1
2023-12-01T01:48:42.328454570+00:00,0,0
2023-12-01T01:48:43.387261600+00:00,1,0
2023-12-01T01:48:43.387361610+00:00,0,0
2023-12-01T01:48:48.828442190+00:00,0,1
2023-12-01T01:48:48.828444320+00:00,0,0
2023-12-01T01:48:49.887246080+00:00,1,0
2023-12-01T01:48:49.887346090+00:00,0,0
2023-12-01T01:48:55.328415030+00:00,0,1
2023-12-01T01:48:55.328417150+00:00,0,0
2023-12-01T01:48:56.387230550+00:00,1,0
2023-12-01T01:48:56.387330570+00:00,0,0
