Time [s],Channel 0,Channel 1
2023-10-31T05:37:10.138081860+00:00,0,0
2023-10-31T05:37:10.233757760+00:00,1,0
2023-10-31T05:37:10.233807760+00:00,0,0
2023-10-31T05:37:10.288922300+00:00,0,1
2023-10-31T05:37:10.288922320+00:00,0,0
2023-10-31T05:37:10.483757060+00:00,1,0
2023-10-31T05:37:10.483807080+00:00,0,0
2023-10-31T05:37:10.520228660+00:00,0,1
2023-10-31T05:37:10.520228700+00:00,0,0
2023-10-31T05:37:10.733756380+00:00,1,0
2023-10-31T05:37:10.733806380+00:00,0,0
2023-10-31T05:37:10.751465560+00:00,0,1
2023-10-31T05:37:10.751465580+00:00,0,0
2023-10-31T05:37:10.983755700+00:00,1,0
2023-10-31T05:37:10.983805700+00:00,0,0
2023-10-31T05:37:11.101244500+00:00,0,1
2023-10-31T05:37:11.101244540+00:00,0,0
2023-10-31T05:37:11.233755000+00:00,1,0
2023-10-31T05:37:11.233805020+00:00,0,0
2023-10-31T05:37:11.335761900+00:00,0,1
2023-10-31T05:37:11.335761940+00:00,0,0
2023-10-31T05:37:11.483754320+00:00,1,0
2023-10-31T05:37:11.483804320+00:00,0,0
2023-10-31T05:37:11.563807200+00:00,0,1
2023-10-31T05:37:11.563807240+00:00,0,0
2023-10-31T05:37:11.733753640+00:00,1,0
2023-10-31T05:37:11.733803640+00:00,0,0
2023-10-31T05:37:11.798335600+00:00,0,1
2023-10-31T05:37:11.798335620+00:00,0,0
2023-10-31T05:37:11.983752940+00:00,1,0
2023-10-31T05:37:11.983802960+00:00,0,0
2023-10-31T05:37:12.026397100+00:00,0,1
2023-10-31T05:37:12.026397140+00:00,0,0
2023-10-31T05:37:12.233752260+00:00,1,0
2023-10-31T05:37:12.233802280+00:00,0,0
2023-10-31T05:37:12.257669860+00:00,0,1
2023-10-31T05:37:12.257669900+00:00,0,0
2023-10-31T05:37:12.483751580+00:00,1,0
2023-10-31T05:37:12.483801580+00:00,0,0
2023-10-31T05:37:12.497058160+00:00,0,1
2023-10-31T05:37:12.497058200+00:00,0,0
2023-10-31T05:37:12.733750880+00:00,1,0
2023-10-31T05:37:12.733800900+00:00,0,0
2023-10-31T05:37:12.833132540+00:00,0,1
2023-10-31T05:37:12.833132580+00:00,0,0
2023-10-31T05:37:12.983750200+00:00,1,0
2023-10-31T05:37:12.983800220+00:00,0,0
2023-10-31T05:37:13.064437680+00:00,0,1
2023-10-31T05:37:13.064437720+00:00,0,0
2023-10-31T05:37:13.233749520+00:00,1,0
2023-10-31T05:37:13.233799520+00:00,0,0
2023-10-31T05:37:13.295759220+00:00,0,1
2023-10-31T05:37:13.295759240+00:00,0,0
2023-10-31T05:37:13.483748840+00:00,1,0
2023-10-31T05:37:13.483798840+00:00,0,0
2023-10-31T05:37:13.527075260+00:00,0,1
2023-10-31T05:37:13.527075300+00:00,0,0
2023-10-31T05:37:13.733748140+00:00,1,0
2023-10-31T05:37:13.733798160+00:00,0,0
2023-10-31T05:37:13.758414160+00:00,0,1
2023-10-31T05:37:13.758414200+00:00,0,0
2023-10-31T05:37:13.983747460+00:00,1,0
2023-10-31T05:37:13.983797460+00:00,0,0
2023-10-31T05:37:13.992859960+00:00,0,1
2023-10-31T05:37:13.992859980+00:00,0,0
2023-10-31T05:37:14.233746760+00:00,1,0
2023-10-31T05:37:14.233796780+00:00,0,0
2023-10-31T05:37:14.339480960+00:00,0,1
2023-10-31T05:37:14.339481000+00:00,0,0
2023-10-31T05:37:14.483746080+00:00,1,0
2023-10-31T05:37:14.483796080+00:00,0,0
2023-10-31T05:37:14.573991980+00:00,0,1
2023-10-31T05:37:14.573992000+00:00,0,0
2023-10-31T05:37:14.733745400+00:00,1,0
2023-10-31T05:37:14.733795400+00:00,0,0
2023-10-31T05:37:14.802031840+00:00,0,1
2023-10-31T05:37:14.802031880+00:00,0,0
2023-10-31T05:37:14.983744700+00:00,1,0
2023-10-31T05:37:14.983794720+00:00,0,0
2023-10-31T05:37:15.036578540+00:00,0,1
2023-10-31T05:37:15.036578580+00:00,0,0
2023-10-31T05:37:15.233744020+00:00,1,0
2023-10-31T05:37:15.233794020+00:00,0,0
2023-10-31T05:37:15.264687920+00:00,0,1
2023-10-31T05:37:15.264687940+00:00,0,0
2023-10-31T05:37:15.483743340+00:00,1,0
2023-10-31T05:37:15.483793340+00:00,0,0
2023-10-31T05:37:15.499194560+00:00,0,1
2023-10-31T05:37:15.499194600+00:00,0,0
2023-10-31T05:37:15.733742640+00:00,1,0
2023-10-31T05:37:15.733792660+00:00,0,0
2023-10-31T05:37:15.840144080+00:00,0,1
2023-10-31T05:37:15.840144120+00:00,0,0
2023-10-31T05:37:15.983741960+00:00,1,0
2023-10-31T05:37:15.983791960+00:00,0,0
2023-10-31T05:37:16.071448220+00:00,0,1
2023-10-31T05:37:16.071448260+00:00,0,0
2023-10-31T05:37:16.233741260+00:00,1,0
2023-10-31T05:37:16.233791280+00:00,0,0
2023-10-31T05:37:16.302755660+00:00,0,1
2023-10-31T05:37:16.302755680+00:00,0,0
2023-10-31T05:37:16.483740580+00:00,1,0
2023-10-31T05:37:16.483790580+00:00,0,0
2023-10-31T05:37:16.533993680+00:00,0,1
2023-10-31T05:37:16.533993720+00:00,0,0
2023-10-31T05:37:16.733739900+00:00,1,0
2023-10-31T05:37:16.733789900+00:00,0,0
2023-10-31T05:37:16.765297700+00:00,0,1
2023-10-31T05:37:16.765297720+00:00,0,0
2023-10-31T05:37:16.983739200+00:00,1,0
2023-10-31T05:37:16.983789220+00:00,0,0
2023-10-31T05:37:16.996585600+00:00,0,1
2023-10-31T05:37:16.996585620+00:00,0,0
2023-10-31T05:37:17.233738520+00:00,1,0
2023-10-31T05:37:17.233788520+00:00,0,0
2023-10-31T05:37:17.346417740+00:00,0,1
2023-10-31T05:37:17.346417760+00:00,0,0
2023-10-31T05:37:17.483737820+00:00,1,0
2023-10-31T05:37:17.483787840+00:00,0,0
2023-10-31T05:37:17.580967720+00:00,0,1
2023-10-31T05:37:17.580967760+00:00,0,0
2023-10-31T05:37:17.733737140+00:00,1,0
2023-10-31T05:37:17.733787140+00:00,0,0
2023-10-31T05:37:17.809046700+00:00,0,1
2023-10-31T05:37:17.809046740+00:00,0,0
2023-10-31T05:37:17.983736440+00:00,1,0
2023-10-31T05:37:17.983786460+00:00,0,0
2023-10-31T05:37:18.043543500+00:00,0,1
2023-10-31T05:37:18.043543520+00:00,0,0
2023-10-31T05:37:18.233735760+00:00,1,0
2023-10-31T05:37:18.233785760+00:00,0,0
2023-10-31T05:37:18.271608360+00:00,0,1
2023-10-31T05:37:18.271608400+00:00,0,0
2023-10-31T05:37:18.483735060+00:00,1,0
2023-10-31T05:37:18.483785080+00:00,0,0
2023-10-31T05:37:18.506138800+00:00,0,1
2023-10-31T05:37:18.506138820+00:00,0,0
2023-10-31T05:37:18.733734380+00:00,1,0
2023-10-31T05:37:18.733784380+00:00,0,0
2023-10-31T05:37:18.846925660+00:00,0,1
2023-10-31T05:37:18.846925700+00:00,0,0
2023-10-31T05:37:18.983733680+00:00,1,0
2023-10-31T05:37:18.983783700+00:00,0,0
2023-10-31T05:37:19.078227560+00:00,0,1
2023-10-31T05:37:19.078227600+00:00,0,0
2023-10-31T05:37:19.233733000+00:00,1,0
2023-10-31T05:37:19.233783000+00:00,0,0
2023-10-31T05:37:19.309532840+00:00,0,1
2023-10-31T05:37:19.309532860+00:00,0,0
2023-10-31T05:37:19.483732300+00:00,1,0
2023-10-31T05:37:19.483782320+00:00,0,0
2023-10-31T05:37:19.540858700+00:00,0,1
2023-10-31T05:37:19.540858740+00:00,0,0
2023-10-31T05:37:19.733731620+00:00,1,0
2023-10-31T05:37:19.733781620+00:00,0,0
2023-10-31T05:37:19.772144340+00:00,0,1
2023-10-31T05:37:19.772144380+00:00,0,0
2023-10-31T05:37:19.983730920+00:00,1,0
2023-10-31T05:37:19.983780940+00:00,0,0
2023-10-31T05:37:20.003483120+00:00,0,1
2023-10-31T05:37:20.003483140+00:00,0,0
2023-10-31T05:37:20.233730240+00:00,1,0
2023-10-31T05:37:20.233780240+00:00,0,0
2023-10-31T05:37:20.353222000+00:00,0,1
2023-10-31T05:37:20.353222040+00:00,0,0
2023-10-31T05:37:20.483729540+00:00,1,0
2023-10-31T05:37:20.483779560+00:00,0,0
2023-10-31T05:37:20.587788160+00:00,0,1
2023-10-31T05:37:20.587788200+00:00,0,0
2023-10-31T05:37:20.733728860+00:00,1,0
2023-10-31T05:37:20.733778860+00:00,0,0
2023-10-31T05:37:20.815903040+00:00,0,1
2023-10-31T05:37:20.815903080+00:00,0,0
2023-10-31T05:37:20.983728160+00:00,1,0
2023-10-31T05:37:20.983778180+00:00,0,0
2023-10-31T05:37:21.050471340+00:00,0,1
2023-10-31T05:37:21.050471360+00:00,0,0
2023-10-31T05:37:21.233727480+00:00,1,0
2023-10-31T05:37:21.233777480+00:00,0,0
2023-10-31T05:37:21.278569840+00:00,0,1
2023-10-31T05:37:21.278569880+00:00,0,0
2023-10-31T05:37:21.483726780+00:00,1,0
2023-10-31T05:37:21.483776780+00:00,0,0
2023-10-31T05:37:21.509876120+00:00,0,1
2023-10-31T05:37:21.509876140+00:00,0,0
2023-10-31T05:37:21.733726080+00:00,1,0
2023-10-31T05:37:21.733776100+00:00,0,0
2023-10-31T05:37:21.744426160+00:00,0,1
2023-10-31T05:37:21.744426200+00:00,0,0
2023-10-31T05:37:21.983725400+00:00,1,0
2023-10-31T05:37:21.983775400+00:00,0,0
2023-10-31T05:37:22.085358280+00:00,0,1
2023-10-31T05:37:22.085358320+00:00,0,0
2023-10-31T05:37:22.233724700+00:00,1,0
2023-10-31T05:37:22.233774720+00:00,0,0
2023-10-31T05:37:22.316647180+00:00,0,1
2023-10-31T05:37:22.316647200+00:00,0,0
2023-10-31T05:37:22.483724020+00:00,1,0
2023-10-31T05:37:22.483774020+00:00,0,0
2023-10-31T05:37:22.547953560+00:00,0,1
2023-10-31T05:37:22.547953600+00:00,0,0
2023-10-31T05:37:22.733723320+00:00,1,0
2023-10-31T05:37:22.733773340+00:00,0,0
2023-10-31T05:37:22.779170940+00:00,0,1
2023-10-31T05:37:22.779170960+00:00,0,0
2023-10-31T05:37:22.983722640+00:00,1,0
2023-10-31T05:37:22.983772640+00:00,0,0
2023-10-31T05:37:23.010442420+00:00,0,1
2023-10-31T05:37:23.010442460+00:00,0,0
2023-10-31T05:37:23.233721940+00:00,1,0
2023-10-31T05:37:23.233771940+00:00,0,0
2023-10-31T05:37:23.246760680+00:00,0,1
2023-10-31T05:37:23.246760700+00:00,0,0
2023-10-31T05:37:23.483721240+00:00,1,0
2023-10-31T05:37:23.483771260+00:00,0,0
2023-10-31T05:37:23.594751820+00:00,0,1
2023-10-31T05:37:23.594751860+00:00,0,0
2023-10-31T05:37:23.733720560+00:00,1,0
2023-10-31T05:37:23.733770560+00:00,0,0
2023-10-31T05:37:23.822880680+00:00,0,1
2023-10-31T05:37:23.822880720+00:00,0,0
2023-10-31T05:37:23.983719860+00:00,1,0
2023-10-31T05:37:23.983769880+00:00,0,0
2023-10-31T05:37:24.054236920+00:00,0,1
2023-10-31T05:37:24.054236940+00:00,0,0
2023-10-31T05:37:24.233719160+00:00,1,0
2023-10-31T05:37:24.233769180+00:00,0,0
2023-10-31T05:37:24.288730420+00:00,0,1
2023-10-31T05:37:24.288730440+00:00,0,0
2023-10-31T05:37:24.483718480+00:00,1,0
2023-10-31T05:37:24.483768480+00:00,0,0
2023-10-31T05:37:24.516822420+00:00,0,1
2023-10-31T05:37:24.516822440+00:00,0,0
2023-10-31T05:37:24.733717780+00:00,1,0
2023-10-31T05:37:24.733767800+00:00,0,0
2023-10-31T05:37:24.751385440+00:00,0,1
2023-10-31T05:37:24.751385460+00:00,0,0
2023-10-31T05:37:24.983717100+00:00,1,0
2023-10-31T05:37:24.983767100+00:00,0,0
2023-10-31T05:37:25.092331660+00:00,0,1
2023-10-31T05:37:25.092331700+00:00,0,0
2023-10-31T05:37:25.233716400+00:00,1,0
2023-10-31T05:37:25.233766400+00:00,0,0
2023-10-31T05:37:25.323602180+00:00,0,1
2023-10-31T05:37:25.323602200+00:00,0,0
2023-10-31T05:37:25.483715700+00:00,1,0
2023-10-31T05:37:25.483765720+00:00,0,0
2023-10-31T05:37:25.554922660+00:00,0,1
2023-10-31T05:37:25.554922680+00:00,0,0
2023-10-31T05:37:25.733715020+00:00,1,0
2023-10-31T05:37:25.733765020+00:00,0,0
2023-10-31T05:37:25.786176780+00:00,0,1
2023-10-31T05:37:25.786176820+00:00,0,0
2023-10-31T05:37:25.983714320+00:00,1,0
2023-10-31T05:37:25.983764320+00:00,0,0
2023-10-31T05:37:26.017480960+00:00,0,1
2023-10-31T05:37:26.017480980+00:00,0,0
2023-10-31T05:37:26.233713620+00:00,1,0
2023-10-31T05:37:26.233763640+00:00,0,0
2023-10-31T05:37:26.248840440+00:00,0,1
2023-10-31T05:37:26.248840480+00:00,0,0
2023-10-31T05:37:26.483712940+00:00,1,0
2023-10-31T05:37:26.483762940+00:00,0,0
2023-10-31T05:37:26.598552200+00:00,0,1
2023-10-31T05:37:26.598552240+00:00,0,0
2023-10-31T05:37:26.733712240+00:00,1,0
2023-10-31T05:37:26.733762240+00:00,0,0
2023-10-31T05:37:26.833118360+00:00,0,1
2023-10-31T05:37:26.833118400+00:00,0,0
2023-10-31T05:37:26.983711540+00:00,1,0
2023-10-31T05:37:26.983761560+00:00,0,0
2023-10-31T05:37:27.061166980+00:00,0,1
2023-10-31T05:37:27.061167000+00:00,0,0
2023-10-31T05:37:27.233710860+00:00,1,0
2023-10-31T05:37:27.233760860+00:00,0,0
2023-10-31T05:37:27.295665880+00:00,0,1
2023-10-31T05:37:27.295665900+00:00,0,0
2023-10-31T05:37:27.483710160+00:00,1,0
2023-10-31T05:37:27.483760160+00:00,0,0
2023-10-31T05:37:27.523762240+00:00,0,1
2023-10-31T05:37:27.523762280+00:00,0,0
2023-10-31T05:37:27.733709460+00:00,1,0
2023-10-31T05:37:27.733759480+00:00,0,0
2023-10-31T05:37:27.758329520+00:00,0,1
2023-10-31T05:37:27.758329540+00:00,0,0
2023-10-31T05:37:27.983708780+00:00,1,0
2023-10-31T05:37:27.983758780+00:00,0,0
2023-10-31T05:37:28.099200980+00:00,0,1
2023-10-31T05:37:28.099201000+00:00,0,0
2023-10-31T05:37:28.233708080+00:00,1,0
2023-10-31T05:37:28.233758080+00:00,0,0
2023-10-31T05:37:28.330499700+00:00,0,1
2023-10-31T05:37:28.330499740+00:00,0,0
2023-10-31T05:37:28.483707380+00:00,1,0
2023-10-31T05:37:28.483757400+00:00,0,0
2023-10-31T05:37:28.561787580+00:00,0,1
2023-10-31T05:37:28.561787600+00:00,0,0
2023-10-31T05:37:28.733706680+00:00,1,0
2023-10-31T05:37:28.733756700+00:00,0,0
2023-10-31T05:37:28.793111240+00:00,0,1
2023-10-31T05:37:28.793111280+00:00,0,0
2023-10-31T05:37:28.983706000+00:00,1,0
2023-10-31T05:37:28.983756000+00:00,0,0
2023-10-31T05:37:29.024382900+00:00,0,1
2023-10-31T05:37:29.024382920+00:00,0,0
2023-10-31T05:37:29.233705300+00:00,1,0
2023-10-31T05:37:29.233755300+00:00,0,0
2023-10-31T05:37:29.255673920+00:00,0,1
2023-10-31T05:37:29.255673960+00:00,0,0
2023-10-31T05:37:29.483704600+00:00,1,0
2023-10-31T05:37:29.483754620+00:00,0,0
2023-10-31T05:37:29.605364020+00:00,0,1
2023-10-31T05:37:29.605364060+00:00,0,0
2023-10-31T05:37:29.733703920+00:00,1,0
2023-10-31T05:37:29.733753920+00:00,0,0
2023-10-31T05:37:29.839792400+00:00,0,1
2023-10-31T05:37:29.839792420+00:00,0,0
2023-10-31T05:37:29.983703220+00:00,1,0
2023-10-31T05:37:29.983753220+00:00,0,0
2023-10-31T05:37:30.067869140+00:00,0,1
2023-10-31T05:37:30.067869160+00:00,0,0
2023-10-31T05:37:30.233702520+00:00,1,0
2023-10-31T05:37:30.233752520+00:00,0,0
2023-10-31T05:37:30.302411500+00:00,0,1
2023-10-31T05:37:30.302411520+00:00,0,0
2023-10-31T05:37:30.483701820+00:00,1,0
2023-10-31T05:37:30.483751840+00:00,0,0
2023-10-31T05:37:30.530504600+00:00,0,1
2023-10-31T05:37:30.530504640+00:00,0,0
2023-10-31T05:37:30.733701120+00:00,1,0
2023-10-31T05:37:30.733751140+00:00,0,0
2023-10-31T05:37:30.765036000+00:00,0,1
2023-10-31T05:37:30.765036040+00:00,0,0
2023-10-31T05:37:30.983700440+00:00,1,0
2023-10-31T05:37:30.983750440+00:00,0,0
2023-10-31T05:37:30.993079140+00:00,0,1
2023-10-31T05:37:30.993079160+00:00,0,0
2023-10-31T05:37:31.233699740+00:00,1,0
2023-10-31T05:37:31.233749740+00:00,0,0
2023-10-31T05:37:31.337270260+00:00,0,1
2023-10-31T05:37:31.337270280+00:00,0,0
2023-10-31T05:37:31.483699040+00:00,1,0
2023-10-31T05:37:31.483749060+00:00,0,0
2023-10-31T05:37:31.568559120+00:00,0,1
2023-10-31T05:37:31.568559160+00:00,0,0
2023-10-31T05:37:31.733698360+00:00,1,0
2023-10-31T05:37:31.733748360+00:00,0,0
2023-10-31T05:37:31.799880640+00:00,0,1
2023-10-31T05:37:31.799880680+00:00,0,0
2023-10-31T05:37:31.983697660+00:00,1,0
2023-10-31T05:37:31.983747660+00:00,0,0
2023-10-31T05:37:32.031171780+00:00,0,1
2023-10-31T05:37:32.031171800+00:00,0,0
2023-10-31T05:37:32.233696960+00:00,1,0
2023-10-31T05:37:32.233746960+00:00,0,0
2023-10-31T05:37:32.262494420+00:00,0,1
2023-10-31T05:37:32.262494440+00:00,0,0
2023-10-31T05:37:32.483696260+00:00,1,0
2023-10-31T05:37:32.483746280+00:00,0,0
2023-10-31T05:37:32.493813680+00:00,0,1
2023-10-31T05:37:32.493813720+00:00,0,0
2023-10-31T05:37:32.733695560+00:00,1,0
2023-10-31T05:37:32.733745580+00:00,0,0
2023-10-31T05:37:32.846763580+00:00,0,1
2023-10-31T05:37:32.846763620+00:00,0,0
2023-10-31T05:37:32.983694880+00:00,1,0
2023-10-31T05:37:32.983744880+00:00,0,0
2023-10-31T05:37:33.074846960+00:00,0,1
2023-10-31T05:37:33.074846980+00:00,0,0
2023-10-31T05:37:33.233694180+00:00,1,0
2023-10-31T05:37:33.233744180+00:00,0,0
2023-10-31T05:37:33.309428360+00:00,0,1
2023-10-31T05:37:33.309428400+00:00,0,0
2023-10-31T05:37:33.483693480+00:00,1,0
2023-10-31T05:37:33.483743480+00:00,0,0
2023-10-31T05:37:33.537526880+00:00,0,1
2023-10-31T05:37:33.537526900+00:00,0,0
2023-10-31T05:37:33.733692780+00:00,1,0
2023-10-31T05:37:33.733742800+00:00,0,0
2023-10-31T05:37:33.768867860+00:00,0,1
2023-10-31T05:37:33.768867880+00:00,0,0
2023-10-31T05:37:33.983692080+00:00,1,0
2023-10-31T05:37:33.983742100+00:00,0,0
2023-10-31T05:37:34.003363620+00:00,0,1
2023-10-31T05:37:34.003363640+00:00,0,0
2023-10-31T05:37:34.233691400+00:00,1,0
2023-10-31T05:37:34.233741400+00:00,0,0
2023-10-31T05:37:34.344308880+00:00,0,1
2023-10-31T05:37:34.344308900+00:00,0,0
2023-10-31T05:37:34.483690700+00:00,1,0
2023-10-31T05:37:34.483740700+00:00,0,0
2023-10-31T05:37:34.575566360+00:00,0,1
2023-10-31T05:37:34.575566400+00:00,0,0
2023-10-31T05:37:34.733690000+00:00,1,0
2023-10-31T05:37:34.733740000+00:00,0,0
2023-10-31T05:37:34.806873800+00:00,0,1
2023-10-31T05:37:34.806873840+00:00,0,0
2023-10-31T05:37:34.983689300+00:00,1,0
2023-10-31T05:37:34.983739320+00:00,0,0
2023-10-31T05:37:35.038199680+00:00,0,1
2023-10-31T05:37:35.038199720+00:00,0,0
2023-10-31T05:37:35.233688600+00:00,1,0
2023-10-31T05:37:35.233738620+00:00,0,0
2023-10-31T05:37:35.269441960+00:00,0,1
2023-10-31T05:37:35.269442000+00:00,0,0
2023-10-31T05:37:35.483687920+00:00,1,0
2023-10-31T05:37:35.483737920+00:00,0,0
2023-10-31T05:37:35.500752700+00:00,0,1
2023-10-31T05:37:35.500752740+00:00,0,0
2023-10-31T05:37:35.733687220+00:00,1,0
2023-10-31T05:37:35.733737220+00:00,0,0
2023-10-31T05:37:35.850514300+00:00,0,1
2023-10-31T05:37:35.850514340+00:00,0,0
2023-10-31T05:37:35.983686520+00:00,1,0
2023-10-31T05:37:35.983736520+00:00,0,0
2023-10-31T05:37:36.085081560+00:00,0,1
2023-10-31T05:37:36.085081580+00:00,0,0
2023-10-31T05:37:36.233685820+00:00,1,0
2023-10-31T05:37:36.233735840+00:00,0,0
2023-10-31T05:37:36.313143200+00:00,0,1
2023-10-31T05:37:36.313143220+00:00,0,0
2023-10-31T05:37:36.483685120+00:00,1,0
2023-10-31T05:37:36.483735140+00:00,0,0
2023-10-31T05:37:36.547661580+00:00,0,1
2023-10-31T05:37:36.547661600+00:00,0,0
2023-10-31T05:37:36.733684440+00:00,1,0
2023-10-31T05:37:36.733734440+00:00,0,0
2023-10-31T05:37:36.775762340+00:00,0,1
2023-10-31T05:37:36.775762380+00:00,0,0
2023-10-31T05:37:36.983683740+00:00,1,0
2023-10-31T05:37:36.983733740+00:00,0,0
2023-10-31T05:37:37.010280840+00:00,0,1
2023-10-31T05:37:37.010280880+00:00,0,0
2023-10-31T05:37:37.233683040+00:00,1,0
2023-10-31T05:37:37.233733040+00:00,0,0
2023-10-31T05:37:37.351185940+00:00,0,1
2023-10-31T05:37:37.351185980+00:00,0,0
2023-10-31T05:37:37.483682340+00:00,1,0
2023-10-31T05:37:37.483732340+00:00,0,0
2023-10-31T05:37:37.582512920+00:00,0,1
2023-10-31T05:37:37.582512960+00:00,0,0
2023-10-31T05:37:37.733681640+00:00,1,0
2023-10-31T05:37:37.733731660+00:00,0,0
2023-10-31T05:37:37.813788780+00:00,0,1
2023-10-31T05:37:37.813788820+00:00,0,0
2023-10-31T05:37:37.983680940+00:00,1,0
2023-10-31T05:37:37.983730960+00:00,0,0
2023-10-31T05:37:38.045113560+00:00,0,1
2023-10-31T05:37:38.045113580+00:00,0,0
2023-10-31T05:37:38.233680260+00:00,1,0
2023-10-31T05:37:38.233730260+00:00,0,0
2023-10-31T05:37:38.276458960+00:00,0,1
2023-10-31T05:37:38.276459000+00:00,0,0
2023-10-31T05:37:38.483679560+00:00,1,0
2023-10-31T05:37:38.483729560+00:00,0,0
2023-10-31T05:37:38.507782580+00:00,0,1
2023-10-31T05:37:38.507782620+00:00,0,0
2023-10-31T05:37:38.733678860+00:00,1,0
2023-10-31T05:37:38.733728860+00:00,0,0
2023-10-31T05:37:38.857476980+00:00,0,1
2023-10-31T05:37:38.857477000+00:00,0,0
2023-10-31T05:37:38.983678160+00:00,1,0
2023-10-31T05:37:38.983728160+00:00,0,0
2023-10-31T05:37:39.091994400+00:00,0,1
2023-10-31T05:37:39.091994420+00:00,0,0
2023-10-31T05:37:39.233677460+00:00,1,0
2023-10-31T05:37:39.233727480+00:00,0,0
2023-10-31T05:37:39.320111300+00:00,0,1
2023-10-31T05:37:39.320111320+00:00,0,0
2023-10-31T05:37:39.483676760+00:00,1,0
2023-10-31T05:37:39.483726780+00:00,0,0
2023-10-31T05:37:39.554663360+00:00,0,1
2023-10-31T05:37:39.554663380+00:00,0,0
2023-10-31T05:37:39.733676060+00:00,1,0
2023-10-31T05:37:39.733726080+00:00,0,0
2023-10-31T05:37:39.782675100+00:00,0,1
2023-10-31T05:37:39.782675140+00:00,0,0
2023-10-31T05:37:39.983675360+00:00,1,0
2023-10-31T05:37:39.983725380+00:00,0,0
2023-10-31T05:37:40.017275000+00:00,0,1
2023-10-31T05:37:40.017275020+00:00,0,0
2023-10-31T05:37:40.233674680+00:00,1,0
2023-10-31T05:37:40.233724680+00:00,0,0
2023-10-31T05:37:40.245357240+00:00,0,1
2023-10-31T05:37:40.245357280+00:00,0,0
2023-10-31T05:37:40.483673980+00:00,1,0
2023-10-31T05:37:40.483723980+00:00,0,0
2023-10-31T05:37:40.589480960+00:00,0,1
2023-10-31T05:37:40.589481000+00:00,0,0
2023-10-31T05:37:40.733673280+00:00,1,0
2023-10-31T05:37:40.733723280+00:00,0,0
2023-10-31T05:37:40.820836100+00:00,0,1
2023-10-31T05:37:40.820836140+00:00,0,0
2023-10-31T05:37:40.983672580+00:00,1,0
2023-10-31T05:37:40.983722580+00:00,0,0
2023-10-31T05:37:41.052105500+00:00,0,1
2023-10-31T05:37:41.052105520+00:00,0,0
2023-10-31T05:37:41.233671880+00:00,1,0
2023-10-31T05:37:41.233721900+00:00,0,0
