Time [s],Channel 0,Channel 1
2024-01-23T15:11:42.887782000+00:00,0,0
2024-01-23T15:11:42.970587230+00:00,1,0
2024-01-23T15:11:42.970637250+00:00,0,0
2024-01-23T15:11:43.023900340+00:00,0,1
2024-01-23T15:11:43.023900790+00:00,0,0
2024-01-23T15:11:43.170586420+00:00,1,0
2024-01-23T15:11:43.170636440+00:00,0,0
2024-01-23T15:11:43.223899110+00:00,0,1
2024-01-23T15:11:43.223899570+00:00,0,0
2024-01-23T15:11:43.370585620+00:00,1,0
2024-01-23T15:11:43.370635630+00:00,0,0
2024-01-23T15:11:43.423897880+00:00,0,1
2024-01-23T15:11:43.423898340+00:00,0,0
2024-01-23T15:11:43.570584810+00:00,1,0
2024-01-23T15:11:43.570634830+00:00,0,0
2024-01-23T15:11:43.623893650+00:00,0,1
2024-01-23T15:11:43.623894110+00:00,0,0
2024-01-23T15:11:43.770584000+00:00,1,0
2024-01-23T15:11:43.770634020+00:00,0,0
2024-01-23T15:11:43.823895480+00:00,0,1
2024-01-23T15:11:43.823895930+00:00,0,0
2024-01-23T15:11:43.970583190+00:00,1,0
2024-01-23T15:11:43.970633210+00:00,0,0
2024-01-23T15:11:44.023894250+00:00,0,1
2024-01-23T15:11:44.023894700+00:00,0,0
2024-01-23T15:11:44.170582390+00:00,1,0
2024-01-23T15:11:44.170632400+00:00,0,0
2024-01-23T15:11:44.223892970+00:00,0,1
2024-01-23T15:11:44.223893420+00:00,0,0
2024-01-23T15:11:44.370581580+00:00,1,0
2024-01-23T15:11:44.370631600+00:00,0,0
2024-01-23T15:11:44.423888660+00:00,0,1
2024-01-23T15:11:44.423889120+00:00,0,0
2024-01-23T15:11:44.570580770+00:00,1,0
2024-01-23T15:11:44.570630790+00:00,0,0
2024-01-23T15:11:44.623890510+00:00,0,1
2024-01-23T15:11:44.623890960+00:00,0,0
2024-01-23T15:11:44.770579970+00:00,1,0
2024-01-23T15:11:44.770629980+00:00,0,0
2024-01-23T15:11:44.823889280+00:00,0,1
2024-01-23T15:11:44.823889740+00:00,0,0
2024-01-23T15:11:44.970579160+00:00,1,0
2024-01-23T15:11:44.970629180+00:00,0,0
2024-01-23T15:11:45.023888060+00:00,0,1
2024-01-23T15:11:45.023888510+00:00,0,0
2024-01-23T15:11:45.170578350+00:00,1,0
2024-01-23T15:11:45.170628370+00:00,0,0
2024-01-23T15:11:45.223886830+00:00,0,1
2024-01-23T15:11:45.223887280+00:00,0,0
2024-01-23T15:11:45.370577540+00:00,1,0
2024-01-23T15:11:45.370627560+00:00,0,0
2024-01-23T15:11:45.423894600+00:00,0,1
2024-01-23T15:11:45.423895050+00:00,0,0
2024-01-23T15:11:45.570576740+00:00,1,0
2024-01-23T15:11:45.570626750+00:00,0,0
2024-01-23T15:11:45.623893420+00:00,0,1
2024-01-23T15:11:45.623893870+00:00,0,0
2024-01-23T15:11:45.770575930+00:00,1,0
2024-01-23T15:11:45.770625940+00:00,0,0
2024-01-23T15:11:45.823892140+00:00,0,1
2024-01-23T15:11:45.823892600+00:00,0,0
2024-01-23T15:11:45.970575120+00:00,1,0
2024-01-23T15:11:45.970625140+00:00,0,0
2024-01-23T15:11:46.023887910+00:00,0,1
2024-01-23T15:11:46.023888370+00:00,0,0
2024-01-23T15:11:46.170574310+00:00,1,0
2024-01-23T15:11:46.170624330+00:00,0,0
2024-01-23T15:11:46.223889490+00:00,0,1
2024-01-23T15:11:46.223889940+00:00,0,0
2024-01-23T15:11:46.370573500+00:00,1,0
2024-01-23T15:11:46.370623520+00:00,0,0
2024-01-23T15:11:46.423887460+00:00,0,1
2024-01-23T15:11:46.423887910+00:00,0,0
2024-01-23T15:11:46.570572700+00:00,1,0
2024-01-23T15:11:46.570622710+00:00,0,0
2024-01-23T15:11:46.623879230+00:00,0,1
2024-01-23T15:11:46.623879680+00:00,0,0
2024-01-23T15:11:46.770571890+00:00,1,0
2024-01-23T15:11:46.770621900+00:00,0,0
2024-01-23T15:11:46.823875000+00:00,0,1
2024-01-23T15:11:46.823875460+00:00,0,0
2024-01-23T15:11:46.970571080+00:00,1,0
2024-01-23T15:11:46.970621100+00:00,0,0
2024-01-23T15:11:47.023876770+00:00,0,1
2024-01-23T15:11:47.023877230+00:00,0,0
2024-01-23T15:11:47.170570270+00:00,1,0
2024-01-23T15:11:47.170620290+00:00,0,0
2024-01-23T15:11:47.223875600+00:00,0,1
2024-01-23T15:11:47.223876050+00:00,0,0
2024-01-23T15:11:47.370569460+00:00,1,0
2024-01-23T15:11:47.370619480+00:00,0,0
2024-01-23T15:11:47.423874320+00:00,0,1
2024-01-23T15:11:47.423874770+00:00,0,0
2024-01-23T15:11:47.570568660+00:00,1,0
2024-01-23T15:11:47.570618670+00:00,0,0
2024-01-23T15:11:47.623870090+00:00,0,1
2024-01-23T15:11:47.623870550+00:00,0,0
2024-01-23T15:11:47.770567850+00:00,1,0
2024-01-23T15:11:47.770617860+00:00,0,0
2024-01-23T15:11:47.823871910+00:00,0,1
2024-01-23T15:11:47.823872370+00:00,0,0
2024-01-23T15:11:47.970567040+00:00,1,0
2024-01-23T15:11:47.970617050+00:00,0,0
2024-01-23T15:11:48.023870640+00:00,0,1
2024-01-23T15:11:48.023871090+00:00,0,0
2024-01-23T15:11:48.170566230+00:00,1,0
2024-01-23T15:11:48.170616250+00:00,0,0
2024-01-23T15:11:48.223869410+00:00,0,1
2024-01-23T15:11:48.223869860+00:00,0,0
2024-01-23T15:11:48.370565420+00:00,1,0
2024-01-23T15:11:48.370615440+00:00,0,0
2024-01-23T15:11:48.423865110+00:00,0,1
2024-01-23T15:11:48.423865560+00:00,0,0
2024-01-23T15:11:48.570564610+00:00,1,0
2024-01-23T15:11:48.570614630+00:00,0,0
2024-01-23T15:11:48.623866950+00:00,0,1
2024-01-23T15:11:48.623867410+00:00,0,0
2024-01-23T15:11:48.770563800+00:00,1,0
2024-01-23T15:11:48.770613820+00:00,0,0
2024-01-23T15:11:48.823865770+00:00,0,1
2024-01-23T15:11:48.823866230+00:00,0,0
2024-01-23T15:11:48.970563000+00:00,1,0
2024-01-23T15:11:48.970613010+00:00,0,0
2024-01-23T15:11:49.023864500+00:00,0,1
2024-01-23T15:11:49.023864950+00:00,0,0
2024-01-23T15:11:49.170562190+00:00,1,0
2024-01-23T15:11:49.170612200+00:00,0,0
2024-01-23T15:11:49.223860270+00:00,0,1
2024-01-23T15:11:49.223860720+00:00,0,0
2024-01-23T15:11:49.370561380+00:00,1,0
2024-01-23T15:11:49.370611390+00:00,0,0
2024-01-23T15:11:49.423862040+00:00,0,1
2024-01-23T15:11:49.423862490+00:00,0,0
2024-01-23T15:11:49.570560570+00:00,1,0
2024-01-23T15:11:49.570610590+00:00,0,0
2024-01-23T15:11:49.623860810+00:00,0,1
2024-01-23T15:11:49.623861270+00:00,0,0
2024-01-23T15:11:49.770559760+00:00,1,0
2024-01-23T15:11:49.770609780+00:00,0,0
2024-01-23T15:11:49.823859590+00:00,0,1
2024-01-23T15:11:49.823860040+00:00,0,0
2024-01-23T15:11:49.970558950+00:00,1,0
2024-01-23T15:11:49.970608970+00:00,0,0
2024-01-23T15:11:50.023855360+00:00,0,1
2024-01-23T15:11:50.023855810+00:00,0,0
2024-01-23T15:11:50.170558140+00:00,1,0
2024-01-23T15:11:50.170608160+00:00,0,0
2024-01-23T15:11:50.223856930+00:00,0,1
2024-01-23T15:11:50.223857380+00:00,0,0
2024-01-23T15:11:50.370557330+00:00,1,0
2024-01-23T15:11:50.370607350+00:00,0,0
2024-01-23T15:11:50.423855950+00:00,0,1
2024-01-23T15:11:50.423856400+00:00,0,0
2024-01-23T15:11:50.570556520+00:00,1,0
2024-01-23T15:11:50.570606540+00:00,0,0
2024-01-23T15:11:50.623854670+00:00,0,1
2024-01-23T15:11:50.623855130+00:00,0,0
2024-01-23T15:11:50.770555720+00:00,1,0
2024-01-23T15:11:50.770605730+00:00,0,0
2024-01-23T15:11:50.823850450+00:00,0,1
2024-01-23T15:11:50.823850900+00:00,0,0
2024-01-23T15:11:50.970554910+00:00,1,0
2024-01-23T15:11:50.970604920+00:00,0,0
2024-01-23T15:11:51.023852220+00:00,0,1
2024-01-23T15:11:51.023852670+00:00,0,0
2024-01-23T15:11:51.170554100+00:00,1,0
2024-01-23T15:11:51.170604110+00:00,0,0
2024-01-23T15:11:51.223850990+00:00,0,1
2024-01-23T15:11:51.223851440+00:00,0,0
2024-01-23T15:11:51.370553290+00:00,1,0
2024-01-23T15:11:51.370603300+00:00,0,0
2024-01-23T15:11:51.423849760+00:00,0,1
2024-01-23T15:11:51.423850210+00:00,0,0
2024-01-23T15:11:51.570552480+00:00,1,0
2024-01-23T15:11:51.570602490+00:00,0,0
2024-01-23T15:11:51.623845530+00:00,0,1
2024-01-23T15:11:51.623845980+00:00,0,0
2024-01-23T15:11:51.770551670+00:00,1,0
2024-01-23T15:11:51.770601680+00:00,0,0
2024-01-23T15:11:51.823847350+00:00,0,1
2024-01-23T15:11:51.823847800+00:00,0,0
2024-01-23T15:11:51.970550860+00:00,1,0
2024-01-23T15:11:51.970600870+00:00,0,0
2024-01-23T15:11:52.023846120+00:00,0,1
2024-01-23T15:11:52.023846570+00:00,0,0
2024-01-23T15:11:52.170550050+00:00,1,0
2024-01-23T15:11:52.170600060+00:00,0,0
2024-01-23T15:11:52.223844840+00:00,0,1
2024-01-23T15:11:52.223845300+00:00,0,0
2024-01-23T15:11:52.370549240+00:00,1,0
2024-01-23T15:11:52.370599250+00:00,0,0
2024-01-23T15:11:52.423840540+00:00,0,1
2024-01-23T15:11:52.423840990+00:00,0,0
2024-01-23T15:11:52.570548430+00:00,1,0
2024-01-23T15:11:52.570598440+00:00,0,0
2024-01-23T15:11:52.623842380+00:00,0,1
2024-01-23T15:11:52.623842840+00:00,0,0
2024-01-23T15:11:52.770547620+00:00,1,0
2024-01-23T15:11:52.770597630+00:00,0,0
2024-01-23T15:11:52.823841150+00:00,0,1
2024-01-23T15:11:52.823841610+00:00,0,0
2024-01-23T15:11:52.970546810+00:00,1,0
2024-01-23T15:11:52.970596820+00:00,0,0
2024-01-23T15:11:53.023839920+00:00,0,1
2024-01-23T15:11:53.023840380+00:00,0,0
2024-01-23T15:11:53.170546000+00:00,1,0
2024-01-23T15:11:53.170596010+00:00,0,0
2024-01-23T15:11:53.223835700+00:00,0,1
2024-01-23T15:11:53.223836150+00:00,0,0
2024-01-23T15:11:53.370545190+00:00,1,0
2024-01-23T15:11:53.370595200+00:00,0,0
2024-01-23T15:11:53.423837470+00:00,0,1
2024-01-23T15:11:53.423837920+00:00,0,0
2024-01-23T15:11:53.570544380+00:00,1,0
2024-01-23T15:11:53.570594390+00:00,0,0
2024-01-23T15:11:53.623837290+00:00,0,1
2024-01-23T15:11:53.623837740+00:00,0,0
2024-01-23T15:11:53.770543570+00:00,1,0
2024-01-23T15:11:53.770593580+00:00,0,0
2024-01-23T15:11:53.823844010+00:00,0,1
2024-01-23T15:11:53.823844460+00:00,0,0
2024-01-23T15:11:53.970542760+00:00,1,0
2024-01-23T15:11:53.970592770+00:00,0,0
2024-01-23T15:11:54.023839780+00:00,0,1
2024-01-23T15:11:54.023840230+00:00,0,0
2024-01-23T15:11:54.170541950+00:00,1,0
2024-01-23T15:11:54.170591960+00:00,0,0
2024-01-23T15:11:54.223841350+00:00,0,1
2024-01-23T15:11:54.223841800+00:00,0,0
2024-01-23T15:11:54.370541140+00:00,1,0
2024-01-23T15:11:54.370591150+00:00,0,0
2024-01-23T15:11:54.423840320+00:00,0,1
2024-01-23T15:11:54.423840770+00:00,0,0
2024-01-23T15:11:54.570540320+00:00,1,0
2024-01-23T15:11:54.570590340+00:00,0,0
2024-01-23T15:11:54.623839090+00:00,0,1
2024-01-23T15:11:54.623839540+00:00,0,0
2024-01-23T15:11:54.770539510+00:00,1,0
2024-01-23T15:11:54.770589530+00:00,0,0
2024-01-23T15:11:54.823833860+00:00,0,1
2024-01-23T15:11:54.823834310+00:00,0,0
2024-01-23T15:11:54.970538700+00:00,1,0
2024-01-23T15:11:54.970588720+00:00,0,0
2024-01-23T15:11:55.023828630+00:00,0,1
2024-01-23T15:11:55.023829080+00:00,0,0
2024-01-23T15:11:55.170537890+00:00,1,0
2024-01-23T15:11:55.170587910+00:00,0,0
2024-01-23T15:11:55.223827450+00:00,0,1
2024-01-23T15:11:55.223827900+00:00,0,0
2024-01-23T15:11:55.370537080+00:00,1,0
2024-01-23T15:11:55.370587100+00:00,0,0
2024-01-23T15:11:55.423826170+00:00,0,1
2024-01-23T15:11:55.423826620+00:00,0,0
2024-01-23T15:11:55.570536270+00:00,1,0
2024-01-23T15:11:55.570586290+00:00,0,0
2024-01-23T15:11:55.623821940+00:00,0,1
2024-01-23T15:11:55.623822400+00:00,0,0
2024-01-23T15:11:55.770535460+00:00,1,0
2024-01-23T15:11:55.770585480+00:00,0,0
2024-01-23T15:11:55.823823760+00:00,0,1
2024-01-23T15:11:55.823824220+00:00,0,0
2024-01-23T15:11:55.970534650+00:00,1,0
2024-01-23T15:11:55.970584670+00:00,0,0
2024-01-23T15:11:56.023822480+00:00,0,1
2024-01-23T15:11:56.023822940+00:00,0,0
2024-01-23T15:11:56.170533840+00:00,1,0
2024-01-23T15:11:56.170583850+00:00,0,0
2024-01-23T15:11:56.223821250+00:00,0,1
2024-01-23T15:11:56.223821710+00:00,0,0
2024-01-23T15:11:56.370533030+00:00,1,0
2024-01-23T15:11:56.370583040+00:00,0,0
2024-01-23T15:11:56.423817950+00:00,0,1
2024-01-23T15:11:56.423818400+00:00,0,0
2024-01-23T15:11:56.570532220+00:00,1,0
2024-01-23T15:11:56.570582230+00:00,0,0
2024-01-23T15:11:56.623818790+00:00,0,1
2024-01-23T15:11:56.623819250+00:00,0,0
2024-01-23T15:11:56.770531400+00:00,1,0
2024-01-23T15:11:56.770581420+00:00,0,0
2024-01-23T15:11:56.823817620+00:00,0,1
2024-01-23T15:11:56.823818070+00:00,0,0
2024-01-23T15:11:56.970530590+00:00,1,0
2024-01-23T15:11:56.970580610+00:00,0,0
2024-01-23T15:11:57.023816340+00:00,0,1
2024-01-23T15:11:57.023816790+00:00,0,0
2024-01-23T15:11:57.170529780+00:00,1,0
2024-01-23T15:11:57.170579800+00:00,0,0
2024-01-23T15:11:57.223812110+00:00,0,1
2024-01-23T15:11:57.223812560+00:00,0,0
2024-01-23T15:11:57.370528970+00:00,1,0
2024-01-23T15:11:57.370578990+00:00,0,0
2024-01-23T15:11:57.423813880+00:00,0,1
2024-01-23T15:11:57.423814330+00:00,0,0
2024-01-23T15:11:57.570528160+00:00,1,0
2024-01-23T15:11:57.570578170+00:00,0,0
2024-01-23T15:11:57.623813650+00:00,0,1
2024-01-23T15:11:57.623814100+00:00,0,0
2024-01-23T15:11:57.770527350+00:00,1,0
2024-01-23T15:11:57.770577360+00:00,0,0
2024-01-23T15:11:57.823811420+00:00,0,1
2024-01-23T15:11:57.823811870+00:00,0,0
2024-01-23T15:11:57.970526530+00:00,1,0
2024-01-23T15:11:57.970576550+00:00,0,0
2024-01-23T15:11:58.023807190+00:00,0,1
2024-01-23T15:11:58.023807640+00:00,0,0
2024-01-23T15:11:58.170525720+00:00,1,0
2024-01-23T15:11:58.170575740+00:00,0,0
2024-01-23T15:11:58.223808760+00:00,0,1
2024-01-23T15:11:58.223809210+00:00,0,0
2024-01-23T15:11:58.370524910+00:00,1,0
2024-01-23T15:11:58.370574930+00:00,0,0
2024-01-23T15:11:58.423807780+00:00,0,1
2024-01-23T15:11:58.423808230+00:00,0,0
2024-01-23T15:11:58.570524100+00:00,1,0
2024-01-23T15:11:58.570574120+00:00,0,0
2024-01-23T15:11:58.623806500+00:00,0,1
2024-01-23T15:11:58.623806950+00:00,0,0
2024-01-23T15:11:58.770523290+00:00,1,0
2024-01-23T15:11:58.770573300+00:00,0,0
2024-01-23T15:11:58.823802270+00:00,0,1
2024-01-23T15:11:58.823802720+00:00,0,0
2024-01-23T15:11:58.970522480+00:00,1,0
2024-01-23T15:11:58.970572490+00:00,0,0
2024-01-23T15:11:59.023804040+00:00,0,1
2024-01-23T15:11:59.023804490+00:00,0,0
2024-01-23T15:11:59.170521660+00:00,1,0
2024-01-23T15:11:59.170571680+00:00,0,0
2024-01-23T15:11:59.223802810+00:00,0,1
2024-01-23T15:11:59.223803270+00:00,0,0
2024-01-23T15:11:59.370520850+00:00,1,0
2024-01-23T15:11:59.370570870+00:00,0,0
2024-01-23T15:11:59.423802580+00:00,0,1
2024-01-23T15:11:59.423803040+00:00,0,0
2024-01-23T15:11:59.570520040+00:00,1,0
2024-01-23T15:11:59.570570060+00:00,0,0
2024-01-23T15:11:59.623797350+00:00,0,1
2024-01-23T15:11:59.623797810+00:00,0,0
2024-01-23T15:11:59.770519230+00:00,1,0
2024-01-23T15:11:59.770569240+00:00,0,0
2024-01-23T15:11:59.823799170+00:00,0,1
2024-01-23T15:11:59.823799630+00:00,0,0
2024-01-23T15:11:59.970518420+00:00,1,0
2024-01-23T15:11:59.970568430+00:00,0,0
2024-01-23T15:12:00.023797940+00:00,0,1
2024-01-23T15:12:00.023798400+00:00,0,0
2024-01-23T15:12:00.170517600+00:00,1,0
2024-01-23T15:12:00.170567620+00:00,0,0
2024-01-23T15:12:00.223796660+00:00,0,1
2024-01-23T15:12:00.223797120+00:00,0,0
2024-01-23T15:12:00.370516790+00:00,1,0
2024-01-23T15:12:00.370566810+00:00,0,0
2024-01-23T15:12:00.423792360+00:00,0,1
2024-01-23T15:12:00.423792810+00:00,0,0
2024-01-23T15:12:00.570515980+00:00,1,0
2024-01-23T15:12:00.570566000+00:00,0,0
2024-01-23T15:12:00.623794210+00:00,0,1
2024-01-23T15:12:00.623794660+00:00,0,0
2024-01-23T15:12:00.770515170+00:00,1,0
2024-01-23T15:12:00.770565180+00:00,0,0
2024-01-23T15:12:00.823792980+00:00,0,1
2024-01-23T15:12:00.823793430+00:00,0,0
2024-01-23T15:12:00.970514360+00:00,1,0
2024-01-23T15:12:00.970564370+00:00,0,0
2024-01-23T15:12:01.023791750+00:00,0,1
2024-01-23T15:12:01.023792200+00:00,0,0
2024-01-23T15:12:01.170513540+00:00,1,0
2024-01-23T15:12:01.170563560+00:00,0,0
2024-01-23T15:12:01.223787520+00:00,0,1
2024-01-23T15:12:01.223787970+00:00,0,0
2024-01-23T15:12:01.370512730+00:00,1,0
2024-01-23T15:12:01.370562750+00:00,0,0
2024-01-23T15:12:01.423789290+00:00,0,1
2024-01-23T15:12:01.423789740+00:00,0,0
2024-01-23T15:12:01.570511920+00:00,1,0
2024-01-23T15:12:01.570561930+00:00,0,0
2024-01-23T15:12:01.623796110+00:00,0,1
2024-01-23T15:12:01.623796560+00:00,0,0
2024-01-23T15:12:01.770511110+00:00,1,0
2024-01-23T15:12:01.770561120+00:00,0,0
2024-01-23T15:12:01.823795830+00:00,0,1
2024-01-23T15:12:01.823796280+00:00,0,0
2024-01-23T15:12:01.970510290+00:00,1,0
2024-01-23T15:12:01.970560310+00:00,0,0
2024-01-23T15:12:02.023791600+00:00,0,1
2024-01-23T15:12:02.023792050+00:00,0,0
2024-01-23T15:12:02.170509480+00:00,1,0
2024-01-23T15:12:02.170559500+00:00,0,0
2024-01-23T15:12:02.223793170+00:00,0,1
2024-01-23T15:12:02.223793620+00:00,0,0
2024-01-23T15:12:02.370508670+00:00,1,0
2024-01-23T15:12:02.370558680+00:00,0,0
2024-01-23T15:12:02.423792140+00:00,0,1
2024-01-23T15:12:02.423792600+00:00,0,0
2024-01-23T15:12:02.570507860+00:00,1,0
2024-01-23T15:12:02.570557870+00:00,0,0
2024-01-23T15:12:02.623790910+00:00,0,1
2024-01-23T15:12:02.623791370+00:00,0,0
2024-01-23T15:12:02.770507040+00:00,1,0
2024-01-23T15:12:02.770557060+00:00,0,0
2024-01-23T15:12:02.823778680+00:00,0,1
2024-01-23T15:12:02.823779140+00:00,0,0
2024-01-23T15:12:02.970506230+00:00,1,0
2024-01-23T15:12:02.970556250+00:00,0,0
2024-01-23T15:12:03.023780450+00:00,0,1
2024-01-23T15:12:03.023780910+00:00,0,0
2024-01-23T15:12:03.170505420+00:00,1,0
2024-01-23T15:12:03.170555430+00:00,0,0
2024-01-23T15:12:03.223779270+00:00,0,1
2024-01-23T15:12:03.223779730+00:00,0,0
2024-01-23T15:12:03.370504610+00:00,1,0
2024-01-23T15:12:03.370554620+00:00,0,0
2024-01-23T15:12:03.423778000+00:00,0,1
2024-01-23T15:12:03.423778450+00:00,0,0
2024-01-23T15:12:03.570503790+00:00,1,0
2024-01-23T15:12:03.570553810+00:00,0,0
2024-01-23T15:12:03.623773770+00:00,0,1
2024-01-23T15:12:03.623774220+00:00,0,0
2024-01-23T15:12:03.770502980+00:00,1,0
2024-01-23T15:12:03.770553000+00:00,0,0
2024-01-23T15:12:03.823775590+00:00,0,1
2024-01-23T15:12:03.823776040+00:00,0,0
2024-01-23T15:12:03.970502170+00:00,1,0
2024-01-23T15:12:03.970552180+00:00,0,0
2024-01-23T15:12:04.023774310+00:00,0,1
2024-01-23T15:12:04.023774760+00:00,0,0
2024-01-23T15:12:04.170501350+00:00,1,0
2024-01-23T15:12:04.170551370+00:00,0,0
2024-01-23T15:12:04.223773080+00:00,0,1
2024-01-23T15:12:04.223773530+00:00,0,0
2024-01-23T15:12:04.370500540+00:00,1,0
2024-01-23T15:12:04.370550560+00:00,0,0
2024-01-23T15:12:04.423768770+00:00,0,1
2024-01-23T15:12:04.423769230+00:00,0,0
2024-01-23T15:12:04.570499730+00:00,1,0
2024-01-23T15:12:04.570549740+00:00,0,0
2024-01-23T15:12:04.623770620+00:00,0,1
2024-01-23T15:12:04.623771070+00:00,0,0
2024-01-23T15:12:04.770498910+00:00,1,0
2024-01-23T15:12:04.770548930+00:00,0,0
2024-01-23T15:12:04.823769440+00:00,0,1
2024-01-23T15:12:04.823769890+00:00,0,0
2024-01-23T15:12:04.970498100+00:00,1,0
2024-01-23T15:12:04.970548120+00:00,0,0
2024-01-23T15:12:05.023768160+00:00,0,1
2024-01-23T15:12:05.023768610+00:00,0,0
2024-01-23T15:12:05.170497290+00:00,1,0
2024-01-23T15:12:05.170547300+00:00,0,0
2024-01-23T15:12:05.223763930+00:00,0,1
2024-01-23T15:12:05.223764390+00:00,0,0
2024-01-23T15:12:05.370496470+00:00,1,0
2024-01-23T15:12:05.370546490+00:00,0,0
2024-01-23T15:12:05.423765700+00:00,0,1
2024-01-23T15:12:05.423766160+00:00,0,0
2024-01-23T15:12:05.570495660+00:00,1,0
2024-01-23T15:12:05.570545680+00:00,0,0
2024-01-23T15:12:05.623764470+00:00,0,1
2024-01-23T15:12:05.623764930+00:00,0,0
2024-01-23T15:12:05.770494850+00:00,1,0
2024-01-23T15:12:05.770544860+00:00,0,0
2024-01-23T15:12:05.823763250+00:00,0,1
2024-01-23T15:12:05.823763700+00:00,0,0
2024-01-23T15:12:05.970494030+00:00,1,0
2024-01-23T15:12:05.970544050+00:00,0,0
2024-01-23T15:12:06.023759010+00:00,0,1
2024-01-23T15:12:06.023759470+00:00,0,0
2024-01-23T15:12:06.170493220+00:00,1,0
2024-01-23T15:12:06.170543240+00:00,0,0
2024-01-23T15:12:06.223760590+00:00,0,1
2024-01-23T15:12:06.223761040+00:00,0,0
2024-01-23T15:12:06.370492410+00:00,1,0
2024-01-23T15:12:06.370542420+00:00,0,0
2024-01-23T15:12:06.423759610+00:00,0,1
2024-01-23T15:12:06.423760060+00:00,0,0
2024-01-23T15:12:06.570491590+00:00,1,0
2024-01-23T15:12:06.570541610+00:00,0,0
2024-01-23T15:12:06.623758330+00:00,0,1
2024-01-23T15:12:06.623758780+00:00,0,0
2024-01-23T15:12:06.770490780+00:00,1,0
2024-01-23T15:12:06.770540800+00:00,0,0
2024-01-23T15:12:06.823754100+00:00,0,1
2024-01-23T15:12:06.823754550+00:00,0,0
2024-01-23T15:12:06.970489970+00:00,1,0
2024-01-23T15:12:06.970539980+00:00,0,0
2024-01-23T15:12:07.023755870+00:00,0,1
2024-01-23T15:12:07.023756320+00:00,0,0
2024-01-23T15:12:07.170489150+00:00,1,0
2024-01-23T15:12:07.170539170+00:00,0,0
2024-01-23T15:12:07.223754640+00:00,0,1
2024-01-23T15:12:07.223755090+00:00,0,0
2024-01-23T15:12:07.370488340+00:00,1,0
2024-01-23T15:12:07.370538360+00:00,0,0
2024-01-23T15:12:07.423753410+00:00,0,1
2024-01-23T15:12:07.423753860+00:00,0,0
2024-01-23T15:12:07.570487530+00:00,1,0
2024-01-23T15:12:07.570537540+00:00,0,0
2024-01-23T15:12:07.623749180+00:00,0,1
2024-01-23T15:12:07.623749640+00:00,0,0
2024-01-23T15:12:07.770486710+00:00,1,0
2024-01-23T15:12:07.770536730+00:00,0,0
