Time [s],Channel 0,Channel 1
2024-01-23T14:57:53.124650000+00:00,0,0
2024-01-23T14:57:53.175817280+00:00,1,0
2024-01-23T14:57:53.175867300+00:00,0,0
2024-01-23T14:57:53.182122780+00:00,0,1
2024-01-23T14:57:53.182123260+00:00,0,0
2024-01-23T14:57:53.375816500+00:00,1,0
2024-01-23T14:57:53.375866520+00:00,0,0
2024-01-23T14:57:53.382121340+00:00,0,1
2024-01-23T14:57:53.382121820+00:00,0,0
2024-01-23T14:57:53.575815720+00:00,1,0
2024-01-23T14:57:53.575865730+00:00,0,0
2024-01-23T14:57:53.582120400+00:00,0,1
2024-01-23T14:57:53.582120880+00:00,0,0
2024-01-23T14:57:53.775814940+00:00,1,0
2024-01-23T14:57:53.775864950+00:00,0,0
2024-01-23T14:57:53.782119260+00:00,0,1
2024-01-23T14:57:53.782119740+00:00,0,0
2024-01-23T14:57:53.975814150+00:00,1,0
2024-01-23T14:57:53.975864170+00:00,0,0
2024-01-23T14:57:53.982118020+00:00,0,1
2024-01-23T14:57:53.982118500+00:00,0,0
2024-01-23T14:57:54.175813370+00:00,1,0
2024-01-23T14:57:54.175863390+00:00,0,0
2024-01-23T14:57:54.182116580+00:00,0,1
2024-01-23T14:57:54.182117050+00:00,0,0
2024-01-23T14:57:54.375812590+00:00,1,0
2024-01-23T14:57:54.375862600+00:00,0,0
2024-01-23T14:57:54.382115640+00:00,0,1
2024-01-23T14:57:54.382116110+00:00,0,0
2024-01-23T14:57:54.575811800+00:00,1,0
2024-01-23T14:57:54.575861820+00:00,0,0
2024-01-23T14:57:54.582114450+00:00,0,1
2024-01-23T14:57:54.582114920+00:00,0,0
2024-01-23T14:57:54.775811020+00:00,1,0
2024-01-23T14:57:54.775861040+00:00,0,0
2024-01-23T14:57:54.782113250+00:00,0,1
2024-01-23T14:57:54.782113730+00:00,0,0
2024-01-23T14:57:54.975810240+00:00,1,0
2024-01-23T14:57:54.975860250+00:00,0,0
2024-01-23T14:57:54.982110810+00:00,0,1
2024-01-23T14:57:54.982111290+00:00,0,0
2024-01-23T14:57:55.175809450+00:00,1,0
2024-01-23T14:57:55.175859470+00:00,0,0
2024-01-23T14:57:55.182109870+00:00,0,1
2024-01-23T14:57:55.182110350+00:00,0,0
2024-01-23T14:57:55.375808670+00:00,1,0
2024-01-23T14:57:55.375858690+00:00,0,0
2024-01-23T14:57:55.382108730+00:00,0,1
2024-01-23T14:57:55.382109210+00:00,0,0
2024-01-23T14:57:55.575807890+00:00,1,0
2024-01-23T14:57:55.575857910+00:00,0,0
2024-01-23T14:57:55.582107490+00:00,0,1
2024-01-23T14:57:55.582107970+00:00,0,0
2024-01-23T14:57:55.775807110+00:00,1,0
2024-01-23T14:57:55.775857120+00:00,0,0
2024-01-23T14:57:55.782106930+00:00,0,1
2024-01-23T14:57:55.782107410+00:00,0,0
2024-01-23T14:57:55.975806320+00:00,1,0
2024-01-23T14:57:55.975856340+00:00,0,0
2024-01-23T14:57:55.982104910+00:00,0,1
2024-01-23T14:57:55.982105390+00:00,0,0
2024-01-23T14:57:56.175805540+00:00,1,0
2024-01-23T14:57:56.175855560+00:00,0,0
2024-01-23T14:57:56.182103920+00:00,0,1
2024-01-23T14:57:56.182104400+00:00,0,0
2024-01-23T14:57:56.375804760+00:00,1,0
2024-01-23T14:57:56.375854770+00:00,0,0
2024-01-23T14:57:56.382102730+00:00,0,1
2024-01-23T14:57:56.382103210+00:00,0,0
2024-01-23T14:57:56.575803970+00:00,1,0
2024-01-23T14:57:56.575853990+00:00,0,0
2024-01-23T14:57:56.582101290+00:00,0,1
2024-01-23T14:57:56.582101770+00:00,0,0
2024-01-23T14:57:56.775803190+00:00,1,0
2024-01-23T14:57:56.775853200+00:00,0,0
2024-01-23T14:57:56.782100350+00:00,0,1
2024-01-23T14:57:56.782100830+00:00,0,0
2024-01-23T14:57:56.975802400+00:00,1,0
2024-01-23T14:57:56.975852420+00:00,0,0
2024-01-23T14:57:56.982098210+00:00,0,1
2024-01-23T14:57:56.982098690+00:00,0,0
2024-01-23T14:57:57.175801620+00:00,1,0
2024-01-23T14:57:57.175851640+00:00,0,0
2024-01-23T14:57:57.182096970+00:00,0,1
2024-01-23T14:57:57.182097450+00:00,0,0
2024-01-23T14:57:57.375800840+00:00,1,0
2024-01-23T14:57:57.375850850+00:00,0,0
2024-01-23T14:57:57.382095530+00:00,0,1
2024-01-23T14:57:57.382096010+00:00,0,0
2024-01-23T14:57:57.575800050+00:00,1,0
2024-01-23T14:57:57.575850070+00:00,0,0
2024-01-23T14:57:57.582094590+00:00,0,1
2024-01-23T14:57:57.582095060+00:00,0,0
2024-01-23T14:57:57.775799270+00:00,1,0
2024-01-23T14:57:57.775849290+00:00,0,0
2024-01-23T14:57:57.782094390+00:00,0,1
2024-01-23T14:57:57.782094870+00:00,0,0
2024-01-23T14:57:57.975798490+00:00,1,0
2024-01-23T14:57:57.975848500+00:00,0,0
2024-01-23T14:57:57.982092200+00:00,0,1
2024-01-23T14:57:57.982092680+00:00,0,0
2024-01-23T14:57:58.175797700+00:00,1,0
2024-01-23T14:57:58.175847720+00:00,0,0
2024-01-23T14:57:58.182090760+00:00,0,1
2024-01-23T14:57:58.182091240+00:00,0,0
2024-01-23T14:57:58.375796920+00:00,1,0
2024-01-23T14:57:58.375846940+00:00,0,0
2024-01-23T14:57:58.382089820+00:00,0,1
2024-01-23T14:57:58.382090300+00:00,0,0
2024-01-23T14:57:58.575796130+00:00,1,0
2024-01-23T14:57:58.575846150+00:00,0,0
2024-01-23T14:57:58.582088680+00:00,0,1
2024-01-23T14:57:58.582089160+00:00,0,0
2024-01-23T14:57:58.775795350+00:00,1,0
2024-01-23T14:57:58.775845370+00:00,0,0
2024-01-23T14:57:58.782087440+00:00,0,1
2024-01-23T14:57:58.782087920+00:00,0,0
2024-01-23T14:57:58.975794570+00:00,1,0
2024-01-23T14:57:58.975844580+00:00,0,0
2024-01-23T14:57:58.982085000+00:00,0,1
2024-01-23T14:57:58.982085480+00:00,0,0
2024-01-23T14:57:59.175793780+00:00,1,0
2024-01-23T14:57:59.175843800+00:00,0,0
2024-01-23T14:57:59.182084060+00:00,0,1
2024-01-23T14:57:59.182084530+00:00,0,0
2024-01-23T14:57:59.375793000+00:00,1,0
2024-01-23T14:57:59.375843010+00:00,0,0
2024-01-23T14:57:59.382082860+00:00,0,1
2024-01-23T14:57:59.382083340+00:00,0,0
2024-01-23T14:57:59.575792210+00:00,1,0
2024-01-23T14:57:59.575842230+00:00,0,0
2024-01-23T14:57:59.582081670+00:00,0,1
2024-01-23T14:57:59.582082150+00:00,0,0
2024-01-23T14:57:59.775791430+00:00,1,0
2024-01-23T14:57:59.775841440+00:00,0,0
2024-01-23T14:57:59.782080100+00:00,0,1
2024-01-23T14:57:59.782080580+00:00,0,0
2024-01-23T14:57:59.975790640+00:00,1,0
2024-01-23T14:57:59.975840660+00:00,0,0
2024-01-23T14:57:59.982079090+00:00,0,1
2024-01-23T14:57:59.982079570+00:00,0,0
2024-01-23T14:58:00.175789860+00:00,1,0
2024-01-23T14:58:00.175839870+00:00,0,0
2024-01-23T14:58:00.182078150+00:00,0,1
2024-01-23T14:58:00.182078620+00:00,0,0
2024-01-23T14:58:00.375789070+00:00,1,0
2024-01-23T14:58:00.375839090+00:00,0,0
2024-01-23T14:58:00.382076900+00:00,0,1
2024-01-23T14:58:00.382077380+00:00,0,0
2024-01-23T14:58:00.575788290+00:00,1,0
2024-01-23T14:58:00.575838300+00:00,0,0
2024-01-23T14:58:00.582075460+00:00,0,1
2024-01-23T14:58:00.582075940+00:00,0,0
2024-01-23T14:58:00.775787500+00:00,1,0
2024-01-23T14:58:00.775837520+00:00,0,0
2024-01-23T14:58:00.782074520+00:00,0,1
2024-01-23T14:58:00.782075000+00:00,0,0
2024-01-23T14:58:00.975786720+00:00,1,0
2024-01-23T14:58:00.975836730+00:00,0,0
2024-01-23T14:58:00.982072330+00:00,0,1
2024-01-23T14:58:00.982072810+00:00,0,0
2024-01-23T14:58:01.175785930+00:00,1,0
2024-01-23T14:58:01.175835950+00:00,0,0
2024-01-23T14:58:01.182071130+00:00,0,1
2024-01-23T14:58:01.182071610+00:00,0,0
2024-01-23T14:58:01.375785150+00:00,1,0
2024-01-23T14:58:01.375835160+00:00,0,0
2024-01-23T14:58:01.382069690+00:00,0,1
2024-01-23T14:58:01.382070170+00:00,0,0
2024-01-23T14:58:01.575784360+00:00,1,0
2024-01-23T14:58:01.575834380+00:00,0,0
2024-01-23T14:58:01.582068750+00:00,0,1
2024-01-23T14:58:01.582069230+00:00,0,0
2024-01-23T14:58:01.775783580+00:00,1,0
2024-01-23T14:58:01.775833590+00:00,0,0
2024-01-23T14:58:01.782068610+00:00,0,1
2024-01-23T14:58:01.782069080+00:00,0,0
2024-01-23T14:58:01.975782790+00:00,1,0
2024-01-23T14:58:01.975832810+00:00,0,0
2024-01-23T14:58:01.982066360+00:00,0,1
2024-01-23T14:58:01.982066840+00:00,0,0
2024-01-23T14:58:02.175782010+00:00,1,0
2024-01-23T14:58:02.175832020+00:00,0,0
2024-01-23T14:58:02.182064920+00:00,0,1
2024-01-23T14:58:02.182065400+00:00,0,0
2024-01-23T14:58:02.375781220+00:00,1,0
2024-01-23T14:58:02.375831240+00:00,0,0
2024-01-23T14:58:02.382063980+00:00,0,1
2024-01-23T14:58:02.382064460+00:00,0,0
2024-01-23T14:58:02.575780430+00:00,1,0
2024-01-23T14:58:02.575830450+00:00,0,0
2024-01-23T14:58:02.582063790+00:00,0,1
2024-01-23T14:58:02.582064260+00:00,0,0
2024-01-23T14:58:02.775779650+00:00,1,0
2024-01-23T14:58:02.775829670+00:00,0,0
2024-01-23T14:58:02.782062590+00:00,0,1
2024-01-23T14:58:02.782063070+00:00,0,0
2024-01-23T14:58:02.975778860+00:00,1,0
2024-01-23T14:58:02.975828880+00:00,0,0
2024-01-23T14:58:02.982061150+00:00,0,1
2024-01-23T14:58:02.982061630+00:00,0,0
2024-01-23T14:58:03.175778080+00:00,1,0
2024-01-23T14:58:03.175828090+00:00,0,0
2024-01-23T14:58:03.182058210+00:00,0,1
2024-01-23T14:58:03.182058690+00:00,0,0
2024-01-23T14:58:03.375777290+00:00,1,0
2024-01-23T14:58:03.375827310+00:00,0,0
2024-01-23T14:58:03.382057060+00:00,0,1
2024-01-23T14:58:03.382057540+00:00,0,0
2024-01-23T14:58:03.575776510+00:00,1,0
2024-01-23T14:58:03.575826520+00:00,0,0
2024-01-23T14:58:03.582055820+00:00,0,1
2024-01-23T14:58:03.582056300+00:00,0,0
2024-01-23T14:58:03.775775720+00:00,1,0
2024-01-23T14:58:03.775825740+00:00,0,0
2024-01-23T14:58:03.782054250+00:00,0,1
2024-01-23T14:58:03.782054730+00:00,0,0
2024-01-23T14:58:03.975774930+00:00,1,0
2024-01-23T14:58:03.975824950+00:00,0,0
2024-01-23T14:58:03.982053240+00:00,0,1
2024-01-23T14:58:03.982053710+00:00,0,0
2024-01-23T14:58:04.175774150+00:00,1,0
2024-01-23T14:58:04.175824160+00:00,0,0
2024-01-23T14:58:04.182052240+00:00,0,1
2024-01-23T14:58:04.182052720+00:00,0,0
2024-01-23T14:58:04.375773360+00:00,1,0
2024-01-23T14:58:04.375823380+00:00,0,0
2024-01-23T14:58:04.382051050+00:00,0,1
2024-01-23T14:58:04.382051530+00:00,0,0
2024-01-23T14:58:04.575772570+00:00,1,0
2024-01-23T14:58:04.575822590+00:00,0,0
2024-01-23T14:58:04.582049610+00:00,0,1
2024-01-23T14:58:04.582050080+00:00,0,0
2024-01-23T14:58:04.775771790+00:00,1,0
2024-01-23T14:58:04.775821800+00:00,0,0
2024-01-23T14:58:04.782049660+00:00,0,1
2024-01-23T14:58:04.782050140+00:00,0,0
2024-01-23T14:58:04.975771000+00:00,1,0
2024-01-23T14:58:04.975821010+00:00,0,0
2024-01-23T14:58:04.982047520+00:00,0,1
2024-01-23T14:58:04.982048000+00:00,0,0
2024-01-23T14:58:05.175770210+00:00,1,0
2024-01-23T14:58:05.175820230+00:00,0,0
2024-01-23T14:58:05.182045270+00:00,0,1
2024-01-23T14:58:05.182045750+00:00,0,0
2024-01-23T14:58:05.375769420+00:00,1,0
2024-01-23T14:58:05.375819440+00:00,0,0
2024-01-23T14:58:05.382043830+00:00,0,1
2024-01-23T14:58:05.382044310+00:00,0,0
2024-01-23T14:58:05.575768640+00:00,1,0
2024-01-23T14:58:05.575818650+00:00,0,0
2024-01-23T14:58:05.582042890+00:00,0,1
2024-01-23T14:58:05.582043370+00:00,0,0
2024-01-23T14:58:05.775767850+00:00,1,0
2024-01-23T14:58:05.775817870+00:00,0,0
2024-01-23T14:58:05.782041690+00:00,0,1
2024-01-23T14:58:05.782042170+00:00,0,0
2024-01-23T14:58:05.975767060+00:00,1,0
2024-01-23T14:58:05.975817080+00:00,0,0
2024-01-23T14:58:05.982040500+00:00,0,1
2024-01-23T14:58:05.982040980+00:00,0,0
2024-01-23T14:58:06.175766280+00:00,1,0
2024-01-23T14:58:06.175816290+00:00,0,0
2024-01-23T14:58:06.182039060+00:00,0,1
2024-01-23T14:58:06.182039540+00:00,0,0
2024-01-23T14:58:06.375765490+00:00,1,0
2024-01-23T14:58:06.375815500+00:00,0,0
2024-01-23T14:58:06.382038110+00:00,0,1
2024-01-23T14:58:06.382038590+00:00,0,0
2024-01-23T14:58:06.575764700+00:00,1,0
2024-01-23T14:58:06.575814720+00:00,0,0
2024-01-23T14:58:06.582036970+00:00,0,1
2024-01-23T14:58:06.582037450+00:00,0,0
2024-01-23T14:58:06.775763910+00:00,1,0
2024-01-23T14:58:06.775813930+00:00,0,0
2024-01-23T14:58:06.782035730+00:00,0,1
2024-01-23T14:58:06.782036200+00:00,0,0
2024-01-23T14:58:06.975763130+00:00,1,0
2024-01-23T14:58:06.975813140+00:00,0,0
2024-01-23T14:58:06.982034280+00:00,0,1
2024-01-23T14:58:06.982034760+00:00,0,0
2024-01-23T14:58:07.175762340+00:00,1,0
2024-01-23T14:58:07.175812350+00:00,0,0
2024-01-23T14:58:07.182032340+00:00,0,1
2024-01-23T14:58:07.182032820+00:00,0,0
2024-01-23T14:58:07.375761550+00:00,1,0
2024-01-23T14:58:07.375811570+00:00,0,0
2024-01-23T14:58:07.382031140+00:00,0,1
2024-01-23T14:58:07.382031620+00:00,0,0
2024-01-23T14:58:07.575760760+00:00,1,0
2024-01-23T14:58:07.575810780+00:00,0,0
2024-01-23T14:58:07.582029950+00:00,0,1
2024-01-23T14:58:07.582030430+00:00,0,0
2024-01-23T14:58:07.775759980+00:00,1,0
2024-01-23T14:58:07.775809990+00:00,0,0
2024-01-23T14:58:07.782029380+00:00,0,1
2024-01-23T14:58:07.782029860+00:00,0,0
2024-01-23T14:58:07.975759190+00:00,1,0
2024-01-23T14:58:07.975809200+00:00,0,0
2024-01-23T14:58:07.982027360+00:00,0,1
2024-01-23T14:58:07.982027840+00:00,0,0
2024-01-23T14:58:08.175758400+00:00,1,0
2024-01-23T14:58:08.175808420+00:00,0,0
2024-01-23T14:58:08.182026410+00:00,0,1
2024-01-23T14:58:08.182026890+00:00,0,0
2024-01-23T14:58:08.375757610+00:00,1,0
2024-01-23T14:58:08.375807630+00:00,0,0
2024-01-23T14:58:08.382025170+00:00,0,1
2024-01-23T14:58:08.382025650+00:00,0,0
2024-01-23T14:58:08.575756820+00:00,1,0
2024-01-23T14:58:08.575806840+00:00,0,0
2024-01-23T14:58:08.582023720+00:00,0,1
2024-01-23T14:58:08.582024200+00:00,0,0
2024-01-23T14:58:08.775756040+00:00,1,0
2024-01-23T14:58:08.775806050+00:00,0,0
2024-01-23T14:58:08.782022780+00:00,0,1
2024-01-23T14:58:08.782023260+00:00,0,0
2024-01-23T14:58:08.975755250+00:00,1,0
2024-01-23T14:58:08.975805260+00:00,0,0
2024-01-23T14:58:08.982021580+00:00,0,1
2024-01-23T14:58:08.982022060+00:00,0,0
2024-01-23T14:58:09.175754460+00:00,1,0
2024-01-23T14:58:09.175804480+00:00,0,0
2024-01-23T14:58:09.182019390+00:00,0,1
2024-01-23T14:58:09.182019870+00:00,0,0
2024-01-23T14:58:09.375753670+00:00,1,0
2024-01-23T14:58:09.375803690+00:00,0,0
2024-01-23T14:58:09.382017940+00:00,0,1
2024-01-23T14:58:09.382018420+00:00,0,0
2024-01-23T14:58:09.575752880+00:00,1,0
2024-01-23T14:58:09.575802900+00:00,0,0
2024-01-23T14:58:09.582017000+00:00,0,1
2024-01-23T14:58:09.582017480+00:00,0,0
2024-01-23T14:58:09.775752090+00:00,1,0
2024-01-23T14:58:09.775802110+00:00,0,0
2024-01-23T14:58:09.782016850+00:00,0,1
2024-01-23T14:58:09.782017330+00:00,0,0
2024-01-23T14:58:09.975751310+00:00,1,0
2024-01-23T14:58:09.975801320+00:00,0,0
2024-01-23T14:58:09.982014610+00:00,0,1
2024-01-23T14:58:09.982015090+00:00,0,0
2024-01-23T14:58:10.175750520+00:00,1,0
2024-01-23T14:58:10.175800530+00:00,0,0
2024-01-23T14:58:10.182013160+00:00,0,1
2024-01-23T14:58:10.182013640+00:00,0,0
2024-01-23T14:58:10.375749730+00:00,1,0
2024-01-23T14:58:10.375799750+00:00,0,0
2024-01-23T14:58:10.382012220+00:00,0,1
2024-01-23T14:58:10.382012700+00:00,0,0
2024-01-23T14:58:10.575748940+00:00,1,0
2024-01-23T14:58:10.575798960+00:00,0,0
2024-01-23T14:58:10.582011020+00:00,0,1
2024-01-23T14:58:10.582011500+00:00,0,0
2024-01-23T14:58:10.775748150+00:00,1,0
2024-01-23T14:58:10.775798170+00:00,0,0
2024-01-23T14:58:10.782009830+00:00,0,1
2024-01-23T14:58:10.782010310+00:00,0,0
2024-01-23T14:58:10.975747360+00:00,1,0
2024-01-23T14:58:10.975797380+00:00,0,0
2024-01-23T14:58:10.982008380+00:00,0,1
2024-01-23T14:58:10.982008860+00:00,0,0
2024-01-23T14:58:11.175746570+00:00,1,0
2024-01-23T14:58:11.175796590+00:00,0,0
2024-01-23T14:58:11.182006440+00:00,0,1
2024-01-23T14:58:11.182006920+00:00,0,0
2024-01-23T14:58:11.375745780+00:00,1,0
2024-01-23T14:58:11.375795800+00:00,0,0
2024-01-23T14:58:11.382005290+00:00,0,1
2024-01-23T14:58:11.382005770+00:00,0,0
2024-01-23T14:58:11.575744990+00:00,1,0
2024-01-23T14:58:11.575795010+00:00,0,0
2024-01-23T14:58:11.582004050+00:00,0,1
2024-01-23T14:58:11.582004520+00:00,0,0
2024-01-23T14:58:11.775744210+00:00,1,0
2024-01-23T14:58:11.775794220+00:00,0,0
2024-01-23T14:58:11.782002470+00:00,0,1
2024-01-23T14:58:11.782002950+00:00,0,0
2024-01-23T14:58:11.975743420+00:00,1,0
2024-01-23T14:58:11.975793430+00:00,0,0
2024-01-23T14:58:11.982001450+00:00,0,1
2024-01-23T14:58:11.982001930+00:00,0,0
2024-01-23T14:58:12.175742630+00:00,1,0
2024-01-23T14:58:12.175792640+00:00,0,0
2024-01-23T14:58:12.182000460+00:00,0,1
2024-01-23T14:58:12.182000940+00:00,0,0
2024-01-23T14:58:12.375741840+00:00,1,0
2024-01-23T14:58:12.375791850+00:00,0,0
2024-01-23T14:58:12.381999260+00:00,0,1
2024-01-23T14:58:12.381999740+00:00,0,0
2024-01-23T14:58:12.575741050+00:00,1,0
2024-01-23T14:58:12.575791070+00:00,0,0
2024-01-23T14:58:12.581997820+00:00,0,1
2024-01-23T14:58:12.581998300+00:00,0,0
2024-01-23T14:58:12.775740260+00:00,1,0
2024-01-23T14:58:12.775790280+00:00,0,0
2024-01-23T14:58:12.781996870+00:00,0,1
2024-01-23T14:58:12.781997350+00:00,0,0
2024-01-23T14:58:12.975739470+00:00,1,0
2024-01-23T14:58:12.975789490+00:00,0,0
2024-01-23T14:58:12.981995730+00:00,0,1
2024-01-23T14:58:12.981996200+00:00,0,0
2024-01-23T14:58:13.175738680+00:00,1,0
2024-01-23T14:58:13.175788700+00:00,0,0
2024-01-23T14:58:13.181994480+00:00,0,1
2024-01-23T14:58:13.181994960+00:00,0,0
2024-01-23T14:58:13.375737890+00:00,1,0
2024-01-23T14:58:13.375787910+00:00,0,0
2024-01-23T14:58:13.381992030+00:00,0,1
2024-01-23T14:58:13.381992510+00:00,0,0
2024-01-23T14:58:13.575737100+00:00,1,0
2024-01-23T14:58:13.575787120+00:00,0,0
2024-01-23T14:58:13.581991090+00:00,0,1
2024-01-23T14:58:13.581991570+00:00,0,0
2024-01-23T14:58:13.775736310+00:00,1,0
2024-01-23T14:58:13.775786330+00:00,0,0
2024-01-23T14:58:13.781989890+00:00,0,1
2024-01-23T14:58:13.781990370+00:00,0,0
2024-01-23T14:58:13.975735520+00:00,1,0
2024-01-23T14:58:13.975785540+00:00,0,0
2024-01-23T14:58:13.981988690+00:00,0,1
2024-01-23T14:58:13.981989170+00:00,0,0
2024-01-23T14:58:14.175734730+00:00,1,0
2024-01-23T14:58:14.175784750+00:00,0,0
2024-01-23T14:58:14.181987250+00:00,0,1
2024-01-23T14:58:14.181987730+00:00,0,0
2024-01-23T14:58:14.375733940+00:00,1,0
2024-01-23T14:58:14.375783960+00:00,0,0
2024-01-23T14:58:14.381986300+00:00,0,1
2024-01-23T14:58:14.381986780+00:00,0,0
2024-01-23T14:58:14.575733150+00:00,1,0
2024-01-23T14:58:14.575783170+00:00,0,0
2024-01-23T14:58:14.581985160+00:00,0,1
2024-01-23T14:58:14.581985630+00:00,0,0
2024-01-23T14:58:14.775732360+00:00,1,0
2024-01-23T14:58:14.775782380+00:00,0,0
2024-01-23T14:58:14.781983910+00:00,0,1
2024-01-23T14:58:14.781984390+00:00,0,0
2024-01-23T14:58:14.975731580+00:00,1,0
2024-01-23T14:58:14.975781590+00:00,0,0
2024-01-23T14:58:14.981982460+00:00,0,1
2024-01-23T14:58:14.981982940+00:00,0,0
2024-01-23T14:58:15.175730790+00:00,1,0
2024-01-23T14:58:15.175780800+00:00,0,0
2024-01-23T14:58:15.181981520+00:00,0,1
2024-01-23T14:58:15.181982000+00:00,0,0
2024-01-23T14:58:15.375730000+00:00,1,0
2024-01-23T14:58:15.375780010+00:00,0,0
2024-01-23T14:58:15.381979320+00:00,0,1
2024-01-23T14:58:15.381979800+00:00,0,0
2024-01-23T14:58:15.575729210+00:00,1,0
2024-01-23T14:58:15.575779220+00:00,0,0
2024-01-23T14:58:15.581978120+00:00,0,1
2024-01-23T14:58:15.581978600+00:00,0,0
2024-01-23T14:58:15.775728420+00:00,1,0
2024-01-23T14:58:15.775778430+00:00,0,0
2024-01-23T14:58:15.781976550+00:00,0,1
2024-01-23T14:58:15.781977030+00:00,0,0
2024-01-23T14:58:15.975727630+00:00,1,0
2024-01-23T14:58:15.975777640+00:00,0,0
2024-01-23T14:58:15.981975530+00:00,0,1
2024-01-23T14:58:15.981976010+00:00,0,0
2024-01-23T14:58:16.175726840+00:00,1,0
2024-01-23T14:58:16.175776850+00:00,0,0
2024-01-23T14:58:16.181974580+00:00,0,1
2024-01-23T14:58:16.181975060+00:00,0,0
2024-01-23T14:58:16.375726050+00:00,1,0
2024-01-23T14:58:16.375776060+00:00,0,0
2024-01-23T14:58:16.381973340+00:00,0,1
2024-01-23T14:58:16.381973820+00:00,0,0
2024-01-23T14:58:16.575725260+00:00,1,0
2024-01-23T14:58:16.575775270+00:00,0,0
2024-01-23T14:58:16.581971890+00:00,0,1
2024-01-23T14:58:16.581972370+00:00,0,0
2024-01-23T14:58:16.775724470+00:00,1,0
2024-01-23T14:58:16.775774480+00:00,0,0
2024-01-23T14:58:16.781970940+00:00,0,1
2024-01-23T14:58:16.781971420+00:00,0,0
2024-01-23T14:58:16.975723680+00:00,1,0
2024-01-23T14:58:16.975773690+00:00,0,0
2024-01-23T14:58:16.981969750+00:00,0,1
2024-01-23T14:58:16.981970230+00:00,0,0
2024-01-23T14:58:17.175722890+00:00,1,0
2024-01-23T14:58:17.175772900+00:00,0,0
2024-01-23T14:58:17.181968550+00:00,0,1
2024-01-23T14:58:17.181969030+00:00,0,0
2024-01-23T14:58:17.375722090+00:00,1,0
2024-01-23T14:58:17.375772110+00:00,0,0
2024-01-23T14:58:17.381966100+00:00,0,1
2024-01-23T14:58:17.381966580+00:00,0,0
2024-01-23T14:58:17.575721300+00:00,1,0
2024-01-23T14:58:17.575771320+00:00,0,0
2024-01-23T14:58:17.581966160+00:00,0,1
2024-01-23T14:58:17.581966640+00:00,0,0
2024-01-23T14:58:17.775720510+00:00,1,0
2024-01-23T14:58:17.775770530+00:00,0,0
2024-01-23T14:58:17.781964010+00:00,0,1
2024-01-23T14:58:17.781964490+00:00,0,0
2024-01-23T14:58:17.975719720+00:00,1,0
2024-01-23T14:58:17.975769740+00:00,0,0
