Time [s],Channel 0,Channel 1
2024-01-23T15:49:56.710478000+00:00,0,0
2024-01-23T15:49:56.756947730+00:00,1,0
2024-01-23T15:49:56.756997750+00:00,0,0
2024-01-23T15:49:56.759665880+00:00,0,1
2024-01-23T15:49:56.759666360+00:00,0,0
2024-01-23T15:49:56.956946920+00:00,1,0
2024-01-23T15:49:56.956996930+00:00,0,0
2024-01-23T15:49:56.959664550+00:00,0,1
2024-01-23T15:49:56.959665020+00:00,0,0
2024-01-23T15:49:57.156946100+00:00,1,0
2024-01-23T15:49:57.156996120+00:00,0,0
2024-01-23T15:49:57.159663060+00:00,0,1
2024-01-23T15:49:57.159663540+00:00,0,0
2024-01-23T15:49:57.356945280+00:00,1,0
2024-01-23T15:49:57.356995300+00:00,0,0
2024-01-23T15:49:57.359662120+00:00,0,1
2024-01-23T15:49:57.359662600+00:00,0,0
2024-01-23T15:49:57.556944470+00:00,1,0
2024-01-23T15:49:57.556994480+00:00,0,0
2024-01-23T15:49:57.559660890+00:00,0,1
2024-01-23T15:49:57.559661370+00:00,0,0
2024-01-23T15:49:57.756943650+00:00,1,0
2024-01-23T15:49:57.756993660+00:00,0,0
2024-01-23T15:49:57.759659600+00:00,0,1
2024-01-23T15:49:57.759660080+00:00,0,0
2024-01-23T15:49:57.956942830+00:00,1,0
2024-01-23T15:49:57.956992850+00:00,0,0
2024-01-23T15:49:57.959658120+00:00,0,1
2024-01-23T15:49:57.959658590+00:00,0,0
2024-01-23T15:49:58.156942010+00:00,1,0
2024-01-23T15:49:58.156992030+00:00,0,0
2024-01-23T15:49:58.159657180+00:00,0,1
2024-01-23T15:49:58.159657660+00:00,0,0
2024-01-23T15:49:58.356941200+00:00,1,0
2024-01-23T15:49:58.356991210+00:00,0,0
2024-01-23T15:49:58.359654990+00:00,0,1
2024-01-23T15:49:58.359655470+00:00,0,0
2024-01-23T15:49:58.556940380+00:00,1,0
2024-01-23T15:49:58.556990400+00:00,0,0
2024-01-23T15:49:58.559653660+00:00,0,1
2024-01-23T15:49:58.559654140+00:00,0,0
2024-01-23T15:49:58.756939560+00:00,1,0
2024-01-23T15:49:58.756989580+00:00,0,0
2024-01-23T15:49:58.759652170+00:00,0,1
2024-01-23T15:49:58.759652650+00:00,0,0
2024-01-23T15:49:58.956938750+00:00,1,0
2024-01-23T15:49:58.956988760+00:00,0,0
2024-01-23T15:49:58.959651230+00:00,0,1
2024-01-23T15:49:58.959651710+00:00,0,0
2024-01-23T15:49:59.156937930+00:00,1,0
2024-01-23T15:49:59.156987940+00:00,0,0
2024-01-23T15:49:59.159650000+00:00,0,1
2024-01-23T15:49:59.159650480+00:00,0,0
2024-01-23T15:49:59.356937110+00:00,1,0
2024-01-23T15:49:59.356987130+00:00,0,0
2024-01-23T15:49:59.359648710+00:00,0,1
2024-01-23T15:49:59.359649190+00:00,0,0
2024-01-23T15:49:59.556936290+00:00,1,0
2024-01-23T15:49:59.556986310+00:00,0,0
2024-01-23T15:49:59.559647100+00:00,0,1
2024-01-23T15:49:59.559647580+00:00,0,0
2024-01-23T15:49:59.756935480+00:00,1,0
2024-01-23T15:49:59.756985490+00:00,0,0
2024-01-23T15:49:59.759646110+00:00,0,1
2024-01-23T15:49:59.759646590+00:00,0,0
2024-01-23T15:49:59.956934660+00:00,1,0
2024-01-23T15:49:59.956984680+00:00,0,0
2024-01-23T15:49:59.959645100+00:00,0,1
2024-01-23T15:49:59.959645580+00:00,0,0
2024-01-23T15:50:00.156933840+00:00,1,0
2024-01-23T15:50:00.156983860+00:00,0,0
2024-01-23T15:50:00.159642770+00:00,0,1
2024-01-23T15:50:00.159643240+00:00,0,0
2024-01-23T15:50:00.356933030+00:00,1,0
2024-01-23T15:50:00.356983040+00:00,0,0
2024-01-23T15:50:00.359641280+00:00,0,1
2024-01-23T15:50:00.359641760+00:00,0,0
2024-01-23T15:50:00.556932210+00:00,1,0
2024-01-23T15:50:00.556982230+00:00,0,0
2024-01-23T15:50:00.559640340+00:00,0,1
2024-01-23T15:50:00.559640820+00:00,0,0
2024-01-23T15:50:00.756931390+00:00,1,0
2024-01-23T15:50:00.756981410+00:00,0,0
2024-01-23T15:50:00.759639100+00:00,0,1
2024-01-23T15:50:00.759639580+00:00,0,0
2024-01-23T15:50:00.956930570+00:00,1,0
2024-01-23T15:50:00.956980590+00:00,0,0
2024-01-23T15:50:00.959637820+00:00,0,1
2024-01-23T15:50:00.959638300+00:00,0,0
2024-01-23T15:50:01.156929760+00:00,1,0
2024-01-23T15:50:01.156979770+00:00,0,0
2024-01-23T15:50:01.159636330+00:00,0,1
2024-01-23T15:50:01.159636810+00:00,0,0
2024-01-23T15:50:01.356928940+00:00,1,0
2024-01-23T15:50:01.356978960+00:00,0,0
2024-01-23T15:50:01.359635390+00:00,0,1
2024-01-23T15:50:01.359635870+00:00,0,0
2024-01-23T15:50:01.556928120+00:00,1,0
2024-01-23T15:50:01.556978140+00:00,0,0
2024-01-23T15:50:01.559634210+00:00,0,1
2024-01-23T15:50:01.559634680+00:00,0,0
2024-01-23T15:50:01.756927300+00:00,1,0
2024-01-23T15:50:01.756977320+00:00,0,0
2024-01-23T15:50:01.759631870+00:00,0,1
2024-01-23T15:50:01.759632350+00:00,0,0
2024-01-23T15:50:01.956926490+00:00,1,0
2024-01-23T15:50:01.956976500+00:00,0,0
2024-01-23T15:50:01.959630380+00:00,0,1
2024-01-23T15:50:01.959630860+00:00,0,0
2024-01-23T15:50:02.156925670+00:00,1,0
2024-01-23T15:50:02.156975680+00:00,0,0
2024-01-23T15:50:02.159629440+00:00,0,1
2024-01-23T15:50:02.159629920+00:00,0,0
2024-01-23T15:50:02.356924850+00:00,1,0
2024-01-23T15:50:02.356974870+00:00,0,0
2024-01-23T15:50:02.359628210+00:00,0,1
2024-01-23T15:50:02.359628690+00:00,0,0
2024-01-23T15:50:02.556924030+00:00,1,0
2024-01-23T15:50:02.556974050+00:00,0,0
2024-01-23T15:50:02.559626920+00:00,0,1
2024-01-23T15:50:02.559627400+00:00,0,0
2024-01-23T15:50:02.756923210+00:00,1,0
2024-01-23T15:50:02.756973230+00:00,0,0
2024-01-23T15:50:02.759625430+00:00,0,1
2024-01-23T15:50:02.759625910+00:00,0,0
2024-01-23T15:50:02.956922400+00:00,1,0
2024-01-23T15:50:02.956972410+00:00,0,0
2024-01-23T15:50:02.959624490+00:00,0,1
2024-01-23T15:50:02.959624970+00:00,0,0
2024-01-23T15:50:03.156921580+00:00,1,0
2024-01-23T15:50:03.156971590+00:00,0,0
2024-01-23T15:50:03.159623310+00:00,0,1
2024-01-23T15:50:03.159623790+00:00,0,0
2024-01-23T15:50:03.356920760+00:00,1,0
2024-01-23T15:50:03.356970770+00:00,0,0
2024-01-23T15:50:03.359620970+00:00,0,1
2024-01-23T15:50:03.359621450+00:00,0,0
2024-01-23T15:50:03.556919940+00:00,1,0
2024-01-23T15:50:03.556969960+00:00,0,0
2024-01-23T15:50:03.559619360+00:00,0,1
2024-01-23T15:50:03.559619840+00:00,0,0
2024-01-23T15:50:03.756919120+00:00,1,0
2024-01-23T15:50:03.756969140+00:00,0,0
2024-01-23T15:50:03.759618370+00:00,0,1
2024-01-23T15:50:03.759618850+00:00,0,0
2024-01-23T15:50:03.956918300+00:00,1,0
2024-01-23T15:50:03.956968320+00:00,0,0
2024-01-23T15:50:03.959617310+00:00,0,1
2024-01-23T15:50:03.959617780+00:00,0,0
2024-01-23T15:50:04.156917480+00:00,1,0
2024-01-23T15:50:04.156967500+00:00,0,0
2024-01-23T15:50:04.159616020+00:00,0,1
2024-01-23T15:50:04.159616500+00:00,0,0
2024-01-23T15:50:04.356916660+00:00,1,0
2024-01-23T15:50:04.356966680+00:00,0,0
2024-01-23T15:50:04.359614530+00:00,0,1
2024-01-23T15:50:04.359615010+00:00,0,0
2024-01-23T15:50:04.556915850+00:00,1,0
2024-01-23T15:50:04.556965860+00:00,0,0
2024-01-23T15:50:04.559613590+00:00,0,1
2024-01-23T15:50:04.559614070+00:00,0,0
2024-01-23T15:50:04.756915030+00:00,1,0
2024-01-23T15:50:04.756965040+00:00,0,0
2024-01-23T15:50:04.759612400+00:00,0,1
2024-01-23T15:50:04.759612880+00:00,0,0
2024-01-23T15:50:04.956914210+00:00,1,0
2024-01-23T15:50:04.956964220+00:00,0,0
2024-01-23T15:50:04.959610070+00:00,0,1
2024-01-23T15:50:04.959610540+00:00,0,0
2024-01-23T15:50:05.156913390+00:00,1,0
2024-01-23T15:50:05.156963400+00:00,0,0
2024-01-23T15:50:05.159608580+00:00,0,1
2024-01-23T15:50:05.159609060+00:00,0,0
2024-01-23T15:50:05.356912570+00:00,1,0
2024-01-23T15:50:05.356962590+00:00,0,0
2024-01-23T15:50:05.359607640+00:00,0,1
2024-01-23T15:50:05.359608120+00:00,0,0
2024-01-23T15:50:05.556911750+00:00,1,0
2024-01-23T15:50:05.556961770+00:00,0,0
2024-01-23T15:50:05.559606400+00:00,0,1
2024-01-23T15:50:05.559606880+00:00,0,0
2024-01-23T15:50:05.756910930+00:00,1,0
2024-01-23T15:50:05.756960950+00:00,0,0
2024-01-23T15:50:05.759605110+00:00,0,1
2024-01-23T15:50:05.759605590+00:00,0,0
2024-01-23T15:50:05.956910110+00:00,1,0
2024-01-23T15:50:05.956960130+00:00,0,0
2024-01-23T15:50:05.959603620+00:00,0,1
2024-01-23T15:50:05.959604100+00:00,0,0
2024-01-23T15:50:06.156909290+00:00,1,0
2024-01-23T15:50:06.156959310+00:00,0,0
2024-01-23T15:50:06.159602690+00:00,0,1
2024-01-23T15:50:06.159603160+00:00,0,0
2024-01-23T15:50:06.356908470+00:00,1,0
2024-01-23T15:50:06.356958490+00:00,0,0
2024-01-23T15:50:06.359601500+00:00,0,1
2024-01-23T15:50:06.359601980+00:00,0,0
2024-01-23T15:50:06.556907650+00:00,1,0
2024-01-23T15:50:06.556957670+00:00,0,0
2024-01-23T15:50:06.559600160+00:00,0,1
2024-01-23T15:50:06.559600640+00:00,0,0
2024-01-23T15:50:06.756906830+00:00,1,0
2024-01-23T15:50:06.756956850+00:00,0,0
2024-01-23T15:50:06.759597670+00:00,0,1
2024-01-23T15:50:06.759598150+00:00,0,0
2024-01-23T15:50:06.956906010+00:00,1,0
2024-01-23T15:50:06.956956030+00:00,0,0
2024-01-23T15:50:06.959596730+00:00,0,1
2024-01-23T15:50:06.959597210+00:00,0,0
2024-01-23T15:50:07.156905190+00:00,1,0
2024-01-23T15:50:07.156955210+00:00,0,0
2024-01-23T15:50:07.159595490+00:00,0,1
2024-01-23T15:50:07.159595970+00:00,0,0
2024-01-23T15:50:07.356904370+00:00,1,0
2024-01-23T15:50:07.356954390+00:00,0,0
2024-01-23T15:50:07.359594200+00:00,0,1
2024-01-23T15:50:07.359594680+00:00,0,0
2024-01-23T15:50:07.556903550+00:00,1,0
2024-01-23T15:50:07.556953570+00:00,0,0
2024-01-23T15:50:07.559592590+00:00,0,1
2024-01-23T15:50:07.559593070+00:00,0,0
2024-01-23T15:50:07.756902730+00:00,1,0
2024-01-23T15:50:07.756952750+00:00,0,0
2024-01-23T15:50:07.759591600+00:00,0,1
2024-01-23T15:50:07.759592080+00:00,0,0
2024-01-23T15:50:07.956901910+00:00,1,0
2024-01-23T15:50:07.956951930+00:00,0,0
2024-01-23T15:50:07.959590590+00:00,0,1
2024-01-23T15:50:07.959591060+00:00,0,0
2024-01-23T15:50:08.156901090+00:00,1,0
2024-01-23T15:50:08.156951110+00:00,0,0
2024-01-23T15:50:08.159589250+00:00,0,1
2024-01-23T15:50:08.159589720+00:00,0,0
2024-01-23T15:50:08.356900270+00:00,1,0
2024-01-23T15:50:08.356950290+00:00,0,0
2024-01-23T15:50:08.359586760+00:00,0,1
2024-01-23T15:50:08.359587240+00:00,0,0
2024-01-23T15:50:08.556899450+00:00,1,0
2024-01-23T15:50:08.556949470+00:00,0,0
2024-01-23T15:50:08.559585820+00:00,0,1
2024-01-23T15:50:08.559586300+00:00,0,0
2024-01-23T15:50:08.756898630+00:00,1,0
2024-01-23T15:50:08.756948640+00:00,0,0
2024-01-23T15:50:08.759584580+00:00,0,1
2024-01-23T15:50:08.759585060+00:00,0,0
2024-01-23T15:50:08.956897810+00:00,1,0
2024-01-23T15:50:08.956947820+00:00,0,0
2024-01-23T15:50:08.959583290+00:00,0,1
2024-01-23T15:50:08.959583770+00:00,0,0
2024-01-23T15:50:09.156896990+00:00,1,0
2024-01-23T15:50:09.156947000+00:00,0,0
2024-01-23T15:50:09.159581800+00:00,0,1
2024-01-23T15:50:09.159582280+00:00,0,0
2024-01-23T15:50:09.356896170+00:00,1,0
2024-01-23T15:50:09.356946180+00:00,0,0
2024-01-23T15:50:09.359580860+00:00,0,1
2024-01-23T15:50:09.359581340+00:00,0,0
2024-01-23T15:50:09.556895350+00:00,1,0
2024-01-23T15:50:09.556945360+00:00,0,0
2024-01-23T15:50:09.559579670+00:00,0,1
2024-01-23T15:50:09.559580150+00:00,0,0
2024-01-23T15:50:09.756894520+00:00,1,0
2024-01-23T15:50:09.756944540+00:00,0,0
2024-01-23T15:50:09.759578330+00:00,0,1
2024-01-23T15:50:09.759578810+00:00,0,0
2024-01-23T15:50:09.956893700+00:00,1,0
2024-01-23T15:50:09.956943720+00:00,0,0
2024-01-23T15:50:09.959575840+00:00,0,1
2024-01-23T15:50:09.959576320+00:00,0,0
2024-01-23T15:50:10.156892880+00:00,1,0
2024-01-23T15:50:10.156942900+00:00,0,0
2024-01-23T15:50:10.159574900+00:00,0,1
2024-01-23T15:50:10.159575380+00:00,0,0
2024-01-23T15:50:10.356892060+00:00,1,0
2024-01-23T15:50:10.356942080+00:00,0,0
2024-01-23T15:50:10.359573660+00:00,0,1
2024-01-23T15:50:10.359574140+00:00,0,0
2024-01-23T15:50:10.556891240+00:00,1,0
2024-01-23T15:50:10.556941260+00:00,0,0
2024-01-23T15:50:10.559572370+00:00,0,1
2024-01-23T15:50:10.559572850+00:00,0,0
2024-01-23T15:50:10.756890420+00:00,1,0
2024-01-23T15:50:10.756940430+00:00,0,0
2024-01-23T15:50:10.759570880+00:00,0,1
2024-01-23T15:50:10.759571360+00:00,0,0
2024-01-23T15:50:10.956889600+00:00,1,0
2024-01-23T15:50:10.956939610+00:00,0,0
2024-01-23T15:50:10.959569940+00:00,0,1
2024-01-23T15:50:10.959570420+00:00,0,0
2024-01-23T15:50:11.156888780+00:00,1,0
2024-01-23T15:50:11.156938790+00:00,0,0
2024-01-23T15:50:11.159568750+00:00,0,1
2024-01-23T15:50:11.159569230+00:00,0,0
2024-01-23T15:50:11.356887950+00:00,1,0
2024-01-23T15:50:11.356937970+00:00,0,0
2024-01-23T15:50:11.359567410+00:00,0,1
2024-01-23T15:50:11.359567890+00:00,0,0
2024-01-23T15:50:11.556887130+00:00,1,0
2024-01-23T15:50:11.556937150+00:00,0,0
2024-01-23T15:50:11.559564790+00:00,0,1
2024-01-23T15:50:11.559565270+00:00,0,0
2024-01-23T15:50:11.756886310+00:00,1,0
2024-01-23T15:50:11.756936330+00:00,0,0
2024-01-23T15:50:11.759563800+00:00,0,1
2024-01-23T15:50:11.759564280+00:00,0,0
2024-01-23T15:50:11.956885490+00:00,1,0
2024-01-23T15:50:11.956935510+00:00,0,0
2024-01-23T15:50:11.959562740+00:00,0,1
2024-01-23T15:50:11.959563210+00:00,0,0
2024-01-23T15:50:12.156884670+00:00,1,0
2024-01-23T15:50:12.156934680+00:00,0,0
2024-01-23T15:50:12.159561450+00:00,0,1
2024-01-23T15:50:12.159561920+00:00,0,0
2024-01-23T15:50:12.356883850+00:00,1,0
2024-01-23T15:50:12.356933860+00:00,0,0
2024-01-23T15:50:12.359559950+00:00,0,1
2024-01-23T15:50:12.359560430+00:00,0,0
2024-01-23T15:50:12.556883020+00:00,1,0
2024-01-23T15:50:12.556933040+00:00,0,0
2024-01-23T15:50:12.559559010+00:00,0,1
2024-01-23T15:50:12.559559490+00:00,0,0
2024-01-23T15:50:12.756882200+00:00,1,0
2024-01-23T15:50:12.756932220+00:00,0,0
2024-01-23T15:50:12.759557820+00:00,0,1
2024-01-23T15:50:12.759558300+00:00,0,0
2024-01-23T15:50:12.956881380+00:00,1,0
2024-01-23T15:50:12.956931400+00:00,0,0
2024-01-23T15:50:12.959556480+00:00,0,1
2024-01-23T15:50:12.959556960+00:00,0,0
2024-01-23T15:50:13.156880560+00:00,1,0
2024-01-23T15:50:13.156930570+00:00,0,0
2024-01-23T15:50:13.159554990+00:00,0,1
2024-01-23T15:50:13.159555470+00:00,0,0
2024-01-23T15:50:13.356879740+00:00,1,0
2024-01-23T15:50:13.356929750+00:00,0,0
2024-01-23T15:50:13.359553050+00:00,0,1
2024-01-23T15:50:13.359553530+00:00,0,0
2024-01-23T15:50:13.556878910+00:00,1,0
2024-01-23T15:50:13.556928930+00:00,0,0
2024-01-23T15:50:13.559551810+00:00,0,1
2024-01-23T15:50:13.559552290+00:00,0,0
2024-01-23T15:50:13.756878090+00:00,1,0
2024-01-23T15:50:13.756928110+00:00,0,0
2024-01-23T15:50:13.759550520+00:00,0,1
2024-01-23T15:50:13.759551000+00:00,0,0
2024-01-23T15:50:13.956877270+00:00,1,0
2024-01-23T15:50:13.956927290+00:00,0,0
2024-01-23T15:50:13.959549030+00:00,0,1
2024-01-23T15:50:13.959549500+00:00,0,0
2024-01-23T15:50:14.156876450+00:00,1,0
2024-01-23T15:50:14.156926460+00:00,0,0
2024-01-23T15:50:14.159548080+00:00,0,1
2024-01-23T15:50:14.159548560+00:00,0,0
2024-01-23T15:50:14.356875630+00:00,1,0
2024-01-23T15:50:14.356925640+00:00,0,0
2024-01-23T15:50:14.359546890+00:00,0,1
2024-01-23T15:50:14.359547370+00:00,0,0
2024-01-23T15:50:14.556874800+00:00,1,0
2024-01-23T15:50:14.556924820+00:00,0,0
2024-01-23T15:50:14.559545550+00:00,0,1
2024-01-23T15:50:14.559546030+00:00,0,0
2024-01-23T15:50:14.756873980+00:00,1,0
2024-01-23T15:50:14.756924000+00:00,0,0
2024-01-23T15:50:14.759544060+00:00,0,1
2024-01-23T15:50:14.759544540+00:00,0,0
2024-01-23T15:50:14.956873160+00:00,1,0
2024-01-23T15:50:14.956923170+00:00,0,0
2024-01-23T15:50:14.959542120+00:00,0,1
2024-01-23T15:50:14.959542600+00:00,0,0
2024-01-23T15:50:15.156872330+00:00,1,0
2024-01-23T15:50:15.156922350+00:00,0,0
2024-01-23T15:50:15.159540880+00:00,0,1
2024-01-23T15:50:15.159541360+00:00,0,0
2024-01-23T15:50:15.356871510+00:00,1,0
2024-01-23T15:50:15.356921530+00:00,0,0
2024-01-23T15:50:15.359539590+00:00,0,1
2024-01-23T15:50:15.359540060+00:00,0,0
2024-01-23T15:50:15.556870690+00:00,1,0
2024-01-23T15:50:15.556920710+00:00,0,0
2024-01-23T15:50:15.559537970+00:00,0,1
2024-01-23T15:50:15.559538450+00:00,0,0
2024-01-23T15:50:15.756869870+00:00,1,0
2024-01-23T15:50:15.756919880+00:00,0,0
2024-01-23T15:50:15.759536980+00:00,0,1
2024-01-23T15:50:15.759537460+00:00,0,0
2024-01-23T15:50:15.956869040+00:00,1,0
2024-01-23T15:50:15.956919060+00:00,0,0
2024-01-23T15:50:15.959535960+00:00,0,1
2024-01-23T15:50:15.959536440+00:00,0,0
2024-01-23T15:50:16.156868220+00:00,1,0
2024-01-23T15:50:16.156918240+00:00,0,0
2024-01-23T15:50:16.159534620+00:00,0,1
2024-01-23T15:50:16.159535100+00:00,0,0
2024-01-23T15:50:16.356867400+00:00,1,0
2024-01-23T15:50:16.356917420+00:00,0,0
2024-01-23T15:50:16.359533130+00:00,0,1
2024-01-23T15:50:16.359533610+00:00,0,0
2024-01-23T15:50:16.556866580+00:00,1,0
2024-01-23T15:50:16.556916590+00:00,0,0
2024-01-23T15:50:16.559531190+00:00,0,1
2024-01-23T15:50:16.559531660+00:00,0,0
2024-01-23T15:50:16.756865750+00:00,1,0
2024-01-23T15:50:16.756915770+00:00,0,0
2024-01-23T15:50:16.759529940+00:00,0,1
2024-01-23T15:50:16.759530420+00:00,0,0
2024-01-23T15:50:16.956864930+00:00,1,0
2024-01-23T15:50:16.956914950+00:00,0,0
2024-01-23T15:50:16.959528650+00:00,0,1
2024-01-23T15:50:16.959529130+00:00,0,0
2024-01-23T15:50:17.156864110+00:00,1,0
2024-01-23T15:50:17.156914120+00:00,0,0
2024-01-23T15:50:17.159527160+00:00,0,1
2024-01-23T15:50:17.159527640+00:00,0,0
2024-01-23T15:50:17.356863280+00:00,1,0
2024-01-23T15:50:17.356913300+00:00,0,0
2024-01-23T15:50:17.359526220+00:00,0,1
2024-01-23T15:50:17.359526700+00:00,0,0
2024-01-23T15:50:17.556862460+00:00,1,0
2024-01-23T15:50:17.556912480+00:00,0,0
2024-01-23T15:50:17.559525030+00:00,0,1
2024-01-23T15:50:17.559525500+00:00,0,0
2024-01-23T15:50:17.756861640+00:00,1,0
2024-01-23T15:50:17.756911650+00:00,0,0
2024-01-23T15:50:17.759523680+00:00,0,1
2024-01-23T15:50:17.759524160+00:00,0,0
2024-01-23T15:50:17.956860820+00:00,1,0
2024-01-23T15:50:17.956910830+00:00,0,0
2024-01-23T15:50:17.959522190+00:00,0,1
2024-01-23T15:50:17.959522670+00:00,0,0
2024-01-23T15:50:18.156859990+00:00,1,0
2024-01-23T15:50:18.156910010+00:00,0,0
2024-01-23T15:50:18.159521250+00:00,0,1
2024-01-23T15:50:18.159521730+00:00,0,0
2024-01-23T15:50:18.356859170+00:00,1,0
2024-01-23T15:50:18.356909190+00:00,0,0
2024-01-23T15:50:18.359519010+00:00,0,1
2024-01-23T15:50:18.359519480+00:00,0,0
2024-01-23T15:50:18.556858350+00:00,1,0
2024-01-23T15:50:18.556908360+00:00,0,0
2024-01-23T15:50:18.559517710+00:00,0,1
2024-01-23T15:50:18.559518190+00:00,0,0
2024-01-23T15:50:18.756857520+00:00,1,0
2024-01-23T15:50:18.756907540+00:00,0,0
2024-01-23T15:50:18.759516220+00:00,0,1
2024-01-23T15:50:18.759516700+00:00,0,0
2024-01-23T15:50:18.956856700+00:00,1,0
2024-01-23T15:50:18.956906710+00:00,0,0
2024-01-23T15:50:18.959515280+00:00,0,1
2024-01-23T15:50:18.959515760+00:00,0,0
2024-01-23T15:50:19.156855870+00:00,1,0
2024-01-23T15:50:19.156905890+00:00,0,0
2024-01-23T15:50:19.159514090+00:00,0,1
2024-01-23T15:50:19.159514570+00:00,0,0
2024-01-23T15:50:19.356855050+00:00,1,0
2024-01-23T15:50:19.356905070+00:00,0,0
2024-01-23T15:50:19.359512740+00:00,0,1
2024-01-23T15:50:19.359513220+00:00,0,0
2024-01-23T15:50:19.556854230+00:00,1,0
2024-01-23T15:50:19.556904240+00:00,0,0
2024-01-23T15:50:19.559511130+00:00,0,1
2024-01-23T15:50:19.559511600+00:00,0,0
2024-01-23T15:50:19.756853400+00:00,1,0
2024-01-23T15:50:19.756903420+00:00,0,0
2024-01-23T15:50:19.759510130+00:00,0,1
2024-01-23T15:50:19.759510610+00:00,0,0
2024-01-23T15:50:19.956852580+00:00,1,0
2024-01-23T15:50:19.956902600+00:00,0,0
2024-01-23T15:50:19.959508070+00:00,0,1
2024-01-23T15:50:19.959508540+00:00,0,0
2024-01-23T15:50:20.156851760+00:00,1,0
2024-01-23T15:50:20.156901770+00:00,0,0
2024-01-23T15:50:20.159506770+00:00,0,1
2024-01-23T15:50:20.159507250+00:00,0,0
2024-01-23T15:50:20.356850940+00:00,1,0
2024-01-23T15:50:20.356900950+00:00,0,0
2024-01-23T15:50:20.359505280+00:00,0,1
2024-01-23T15:50:20.359505760+00:00,0,0
2024-01-23T15:50:20.556850110+00:00,1,0
2024-01-23T15:50:20.556900130+00:00,0,0
2024-01-23T15:50:20.559504340+00:00,0,1
2024-01-23T15:50:20.559504820+00:00,0,0
2024-01-23T15:50:20.756849290+00:00,1,0
2024-01-23T15:50:20.756899300+00:00,0,0
2024-01-23T15:50:20.759503150+00:00,0,1
2024-01-23T15:50:20.759503620+00:00,0,0
2024-01-23T15:50:20.956848470+00:00,1,0
2024-01-23T15:50:20.956898480+00:00,0,0
2024-01-23T15:50:20.959501800+00:00,0,1
2024-01-23T15:50:20.959502280+00:00,0,0
2024-01-23T15:50:21.156847640+00:00,1,0
2024-01-23T15:50:21.156897660+00:00,0,0
2024-01-23T15:50:21.159500310+00:00,0,1
2024-01-23T15:50:21.159500790+00:00,0,0
2024-01-23T15:50:21.356846820+00:00,1,0
2024-01-23T15:50:21.356896830+00:00,0,0
2024-01-23T15:50:21.359499370+00:00,0,1
2024-01-23T15:50:21.359499850+00:00,0,0
2024-01-23T15:50:21.556845990+00:00,1,0
2024-01-23T15:50:21.556896010+00:00,0,0
