Time [s],Channel 0,Channel 1
2024-02-03T06:15:19.505110000+00:00,0,0
2024-02-03T06:15:19.523106660+00:00,1,0
2024-02-03T06:15:19.523156670+00:00,0,0
2024-02-03T06:15:19.535162240+00:00,0,1
2024-02-03T06:15:19.535170660+00:00,0,0
2024-02-03T06:15:19.723105870+00:00,1,0
2024-02-03T06:15:19.723155880+00:00,0,0
2024-02-03T06:15:19.732796130+00:00,0,1
2024-02-03T06:15:19.732804560+00:00,0,0
2024-02-03T06:15:19.923105070+00:00,1,0
2024-02-03T06:15:19.923155080+00:00,0,0
2024-02-03T06:15:19.930345940+00:00,0,1
2024-02-03T06:15:19.930354360+00:00,0,0
2024-02-03T06:15:20.123104280+00:00,1,0
2024-02-03T06:15:20.123154290+00:00,0,0
2024-02-03T06:15:20.130047720+00:00,0,1
2024-02-03T06:15:20.130056150+00:00,0,0
2024-02-03T06:15:20.323103480+00:00,1,0
2024-02-03T06:15:20.323153490+00:00,0,0
2024-02-03T06:15:20.334838020+00:00,0,1
2024-02-03T06:15:20.334846440+00:00,0,0
2024-02-03T06:15:20.523102690+00:00,1,0
2024-02-03T06:15:20.523152700+00:00,0,0
2024-02-03T06:15:20.532540840+00:00,0,1
2024-02-03T06:15:20.532549280+00:00,0,0
2024-02-03T06:15:20.723101890+00:00,1,0
2024-02-03T06:15:20.723151900+00:00,0,0
2024-02-03T06:15:20.731721590+00:00,0,1
2024-02-03T06:15:20.731726000+00:00,0,0
2024-02-03T06:15:20.923101100+00:00,1,0
2024-02-03T06:15:20.923151110+00:00,0,0
2024-02-03T06:15:20.930564880+00:00,0,1
2024-02-03T06:15:20.930577330+00:00,0,0
2024-02-03T06:15:21.123100300+00:00,1,0
2024-02-03T06:15:21.123150310+00:00,0,0
2024-02-03T06:15:21.133704630+00:00,0,1
2024-02-03T06:15:21.133713060+00:00,0,0
2024-02-03T06:15:21.323099510+00:00,1,0
2024-02-03T06:15:21.323149510+00:00,0,0
2024-02-03T06:15:21.330953260+00:00,0,1
2024-02-03T06:15:21.330961690+00:00,0,0
2024-02-03T06:15:21.523098710+00:00,1,0
2024-02-03T06:15:21.523148720+00:00,0,0
2024-02-03T06:15:21.531372040+00:00,0,1
2024-02-03T06:15:21.531380470+00:00,0,0
2024-02-03T06:15:21.723097910+00:00,1,0
2024-02-03T06:15:21.723147920+00:00,0,0
2024-02-03T06:15:21.732839550+00:00,0,1
2024-02-03T06:15:21.732848120+00:00,0,0
2024-02-03T06:15:21.923097120+00:00,1,0
2024-02-03T06:15:21.923147130+00:00,0,0
2024-02-03T06:15:21.931653560+00:00,0,1
2024-02-03T06:15:21.931661990+00:00,0,0
2024-02-03T06:15:22.123096320+00:00,1,0
2024-02-03T06:15:22.123146330+00:00,0,0
2024-02-03T06:15:22.132079320+00:00,0,1
2024-02-03T06:15:22.132087750+00:00,0,0
2024-02-03T06:15:22.323095530+00:00,1,0
2024-02-03T06:15:22.323145540+00:00,0,0
2024-02-03T06:15:22.331079390+00:00,0,1
2024-02-03T06:15:22.331087810+00:00,0,0
2024-02-03T06:15:22.523094730+00:00,1,0
2024-02-03T06:15:22.523144740+00:00,0,0
2024-02-03T06:15:22.532478750+00:00,0,1
2024-02-03T06:15:22.532491210+00:00,0,0
2024-02-03T06:15:22.723093940+00:00,1,0
2024-02-03T06:15:22.723143950+00:00,0,0
2024-02-03T06:15:22.736124470+00:00,0,1
2024-02-03T06:15:22.736136920+00:00,0,0
2024-02-03T06:15:22.923093140+00:00,1,0
2024-02-03T06:15:22.923143150+00:00,0,0
2024-02-03T06:15:22.930598570+00:00,0,1
2024-02-03T06:15:22.930607000+00:00,0,0
2024-02-03T06:15:23.123092350+00:00,1,0
2024-02-03T06:15:23.123142350+00:00,0,0
2024-02-03T06:15:23.130360980+00:00,0,1
2024-02-03T06:15:23.130369410+00:00,0,0
2024-02-03T06:15:23.323091550+00:00,1,0
2024-02-03T06:15:23.323141560+00:00,0,0
2024-02-03T06:15:23.333995090+00:00,0,1
2024-02-03T06:15:23.334003520+00:00,0,0
2024-02-03T06:15:23.523090750+00:00,1,0
2024-02-03T06:15:23.523140760+00:00,0,0
2024-02-03T06:15:23.530659570+00:00,0,1
2024-02-03T06:15:23.530668000+00:00,0,0
2024-02-03T06:15:23.723089960+00:00,1,0
2024-02-03T06:15:23.723139970+00:00,0,0
2024-02-03T06:15:23.731184270+00:00,0,1
2024-02-03T06:15:23.731192700+00:00,0,0
2024-02-03T06:15:23.923089160+00:00,1,0
2024-02-03T06:15:23.923139170+00:00,0,0
2024-02-03T06:15:23.930089120+00:00,0,1
2024-02-03T06:15:23.930097560+00:00,0,0
2024-02-03T06:15:24.123088370+00:00,1,0
2024-02-03T06:15:24.123138380+00:00,0,0
2024-02-03T06:15:24.130620690+00:00,0,1
2024-02-03T06:15:24.130629120+00:00,0,0
2024-02-03T06:15:24.323087570+00:00,1,0
2024-02-03T06:15:24.323137580+00:00,0,0
2024-02-03T06:15:24.330854820+00:00,0,1
2024-02-03T06:15:24.330863250+00:00,0,0
2024-02-03T06:15:24.523086770+00:00,1,0
2024-02-03T06:15:24.523136780+00:00,0,0
2024-02-03T06:15:24.532056610+00:00,0,1
2024-02-03T06:15:24.532065040+00:00,0,0
2024-02-03T06:15:24.723085980+00:00,1,0
2024-02-03T06:15:24.723135990+00:00,0,0
2024-02-03T06:15:24.730428120+00:00,0,1
2024-02-03T06:15:24.730436550+00:00,0,0
2024-02-03T06:15:24.923085180+00:00,1,0
2024-02-03T06:15:24.923135190+00:00,0,0
2024-02-03T06:15:24.932290510+00:00,0,1
2024-02-03T06:15:24.932294920+00:00,0,0
2024-02-03T06:15:25.123084390+00:00,1,0
2024-02-03T06:15:25.123134390+00:00,0,0
2024-02-03T06:15:25.132547110+00:00,0,1
2024-02-03T06:15:25.132559570+00:00,0,0
2024-02-03T06:15:25.323083590+00:00,1,0
2024-02-03T06:15:25.323133600+00:00,0,0
2024-02-03T06:15:25.330906010+00:00,0,1
2024-02-03T06:15:25.330914440+00:00,0,0
2024-02-03T06:15:25.523082790+00:00,1,0
2024-02-03T06:15:25.523132800+00:00,0,0
2024-02-03T06:15:25.536487590+00:00,0,1
2024-02-03T06:15:25.536496020+00:00,0,0
2024-02-03T06:15:25.723082000+00:00,1,0
2024-02-03T06:15:25.723132010+00:00,0,0
2024-02-03T06:15:25.743352310+00:00,0,1
2024-02-03T06:15:25.743360740+00:00,0,0
2024-02-03T06:15:25.923081200+00:00,1,0
2024-02-03T06:15:25.923131210+00:00,0,0
2024-02-03T06:15:25.932159820+00:00,0,1
2024-02-03T06:15:25.932168250+00:00,0,0
2024-02-03T06:15:26.123080400+00:00,1,0
2024-02-03T06:15:26.123130410+00:00,0,0
2024-02-03T06:15:26.130657300+00:00,0,1
2024-02-03T06:15:26.130665730+00:00,0,0
2024-02-03T06:15:26.323079610+00:00,1,0
2024-02-03T06:15:26.323129620+00:00,0,0
2024-02-03T06:15:26.330910660+00:00,0,1
2024-02-03T06:15:26.330919090+00:00,0,0
2024-02-03T06:15:26.523078810+00:00,1,0
2024-02-03T06:15:26.523128820+00:00,0,0
2024-02-03T06:15:26.532001500+00:00,0,1
2024-02-03T06:15:26.532013960+00:00,0,0
2024-02-03T06:15:26.723078010+00:00,1,0
2024-02-03T06:15:26.723128020+00:00,0,0
2024-02-03T06:15:26.734514210+00:00,0,1
2024-02-03T06:15:26.734522640+00:00,0,0
2024-02-03T06:15:26.923077220+00:00,1,0
2024-02-03T06:15:26.923127230+00:00,0,0
2024-02-03T06:15:26.932972110+00:00,0,1
2024-02-03T06:15:26.932980540+00:00,0,0
2024-02-03T06:15:27.123076420+00:00,1,0
2024-02-03T06:15:27.123126430+00:00,0,0
2024-02-03T06:15:27.131695290+00:00,0,1
2024-02-03T06:15:27.131699700+00:00,0,0
2024-02-03T06:15:27.323075620+00:00,1,0
2024-02-03T06:15:27.323125630+00:00,0,0
2024-02-03T06:15:27.332454830+00:00,0,1
2024-02-03T06:15:27.332455290+00:00,0,0
2024-02-03T06:15:27.523074830+00:00,1,0
2024-02-03T06:15:27.523124840+00:00,0,0
2024-02-03T06:15:27.531735670+00:00,0,1
2024-02-03T06:15:27.531748120+00:00,0,0
2024-02-03T06:15:27.723074030+00:00,1,0
2024-02-03T06:15:27.723124040+00:00,0,0
2024-02-03T06:15:27.730977450+00:00,0,1
2024-02-03T06:15:27.730986010+00:00,0,0
2024-02-03T06:15:27.923073230+00:00,1,0
2024-02-03T06:15:27.923123240+00:00,0,0
2024-02-03T06:15:27.935240580+00:00,0,1
2024-02-03T06:15:27.935249020+00:00,0,0
2024-02-03T06:15:28.123072430+00:00,1,0
2024-02-03T06:15:28.123122440+00:00,0,0
2024-02-03T06:15:28.132496030+00:00,0,1
2024-02-03T06:15:28.132504460+00:00,0,0
2024-02-03T06:15:28.323071640+00:00,1,0
2024-02-03T06:15:28.323121650+00:00,0,0
2024-02-03T06:15:28.332426320+00:00,0,1
2024-02-03T06:15:28.332434750+00:00,0,0
2024-02-03T06:15:28.523070840+00:00,1,0
2024-02-03T06:15:28.523120850+00:00,0,0
2024-02-03T06:15:28.531725060+00:00,0,1
2024-02-03T06:15:28.531733490+00:00,0,0
2024-02-03T06:15:28.723070040+00:00,1,0
2024-02-03T06:15:28.723120050+00:00,0,0
2024-02-03T06:15:28.732569650+00:00,0,1
2024-02-03T06:15:28.732578090+00:00,0,0
2024-02-03T06:15:28.923069250+00:00,1,0
2024-02-03T06:15:28.923119250+00:00,0,0
2024-02-03T06:15:28.930283660+00:00,0,1
2024-02-03T06:15:28.930292110+00:00,0,0
2024-02-03T06:15:29.123068450+00:00,1,0
2024-02-03T06:15:29.123118460+00:00,0,0
2024-02-03T06:15:29.131067700+00:00,0,1
2024-02-03T06:15:29.131076130+00:00,0,0
2024-02-03T06:15:29.323067650+00:00,1,0
2024-02-03T06:15:29.323117660+00:00,0,0
2024-02-03T06:15:29.334910890+00:00,0,1
2024-02-03T06:15:29.334919320+00:00,0,0
2024-02-03T06:15:29.523066850+00:00,1,0
2024-02-03T06:15:29.523116860+00:00,0,0
2024-02-03T06:15:29.530894350+00:00,0,1
2024-02-03T06:15:29.530902780+00:00,0,0
2024-02-03T06:15:29.723066050+00:00,1,0
2024-02-03T06:15:29.723116060+00:00,0,0
2024-02-03T06:15:29.733844070+00:00,0,1
2024-02-03T06:15:29.733852500+00:00,0,0
2024-02-03T06:15:29.923065260+00:00,1,0
2024-02-03T06:15:29.923115270+00:00,0,0
2024-02-03T06:15:29.931106640+00:00,0,1
2024-02-03T06:15:29.931115070+00:00,0,0
2024-02-03T06:15:30.123064460+00:00,1,0
2024-02-03T06:15:30.123114470+00:00,0,0
2024-02-03T06:15:30.130214020+00:00,0,1
2024-02-03T06:15:30.130222450+00:00,0,0
2024-02-03T06:15:30.323063660+00:00,1,0
2024-02-03T06:15:30.323113670+00:00,0,0
2024-02-03T06:15:30.334442360+00:00,0,1
2024-02-03T06:15:30.334450790+00:00,0,0
2024-02-03T06:15:30.523062860+00:00,1,0
2024-02-03T06:15:30.523112870+00:00,0,0
2024-02-03T06:15:30.530383360+00:00,0,1
2024-02-03T06:15:30.530391790+00:00,0,0
2024-02-03T06:15:30.723062060+00:00,1,0
2024-02-03T06:15:30.723112070+00:00,0,0
2024-02-03T06:15:30.732740330+00:00,0,1
2024-02-03T06:15:30.732748760+00:00,0,0
2024-02-03T06:15:30.923061270+00:00,1,0
2024-02-03T06:15:30.923111270+00:00,0,0
2024-02-03T06:15:30.930696500+00:00,0,1
2024-02-03T06:15:30.930704930+00:00,0,0
2024-02-03T06:15:31.123060470+00:00,1,0
2024-02-03T06:15:31.123110480+00:00,0,0
2024-02-03T06:15:31.131326250+00:00,0,1
2024-02-03T06:15:31.131334680+00:00,0,0
2024-02-03T06:15:31.323059670+00:00,1,0
2024-02-03T06:15:31.323109680+00:00,0,0
2024-02-03T06:15:31.334572660+00:00,0,1
2024-02-03T06:15:31.334581090+00:00,0,0
2024-02-03T06:15:31.523058870+00:00,1,0
2024-02-03T06:15:31.523108880+00:00,0,0
2024-02-03T06:15:31.531088800+00:00,0,1
2024-02-03T06:15:31.531097230+00:00,0,0
2024-02-03T06:15:31.723058070+00:00,1,0
2024-02-03T06:15:31.723108080+00:00,0,0
2024-02-03T06:15:31.734978960+00:00,0,1
2024-02-03T06:15:31.734987380+00:00,0,0
2024-02-03T06:15:31.923057270+00:00,1,0
2024-02-03T06:15:31.923107280+00:00,0,0
2024-02-03T06:15:31.930646440+00:00,0,1
2024-02-03T06:15:31.930654870+00:00,0,0
2024-02-03T06:15:32.123056480+00:00,1,0
2024-02-03T06:15:32.123106480+00:00,0,0
2024-02-03T06:15:32.130386660+00:00,0,1
2024-02-03T06:15:32.130395080+00:00,0,0
2024-02-03T06:15:32.323055680+00:00,1,0
2024-02-03T06:15:32.323105690+00:00,0,0
2024-02-03T06:15:32.331813400+00:00,0,1
2024-02-03T06:15:32.331821830+00:00,0,0
2024-02-03T06:15:32.523054880+00:00,1,0
2024-02-03T06:15:32.523104890+00:00,0,0
2024-02-03T06:15:32.530998570+00:00,0,1
2024-02-03T06:15:32.531007010+00:00,0,0
2024-02-03T06:15:32.723054080+00:00,1,0
2024-02-03T06:15:32.723104090+00:00,0,0
2024-02-03T06:15:32.733282480+00:00,0,1
2024-02-03T06:15:32.733290910+00:00,0,0
2024-02-03T06:15:32.923053280+00:00,1,0
2024-02-03T06:15:32.923103290+00:00,0,0
2024-02-03T06:15:32.930595100+00:00,0,1
2024-02-03T06:15:32.930603530+00:00,0,0
2024-02-03T06:15:33.123052480+00:00,1,0
2024-02-03T06:15:33.123102490+00:00,0,0
2024-02-03T06:15:33.134764760+00:00,0,1
2024-02-03T06:15:33.134773180+00:00,0,0
2024-02-03T06:15:33.323051680+00:00,1,0
2024-02-03T06:15:33.323101690+00:00,0,0
2024-02-03T06:15:33.331473050+00:00,0,1
2024-02-03T06:15:33.331481480+00:00,0,0
2024-02-03T06:15:33.523050880+00:00,1,0
2024-02-03T06:15:33.523100890+00:00,0,0
2024-02-03T06:15:33.531362670+00:00,0,1
2024-02-03T06:15:33.531371100+00:00,0,0
2024-02-03T06:15:33.723050090+00:00,1,0
2024-02-03T06:15:33.723100090+00:00,0,0
2024-02-03T06:15:33.732347820+00:00,0,1
2024-02-03T06:15:33.732356250+00:00,0,0
2024-02-03T06:15:33.923049290+00:00,1,0
2024-02-03T06:15:33.923099300+00:00,0,0
2024-02-03T06:15:33.932124770+00:00,0,1
2024-02-03T06:15:33.932133200+00:00,0,0
2024-02-03T06:15:34.123048490+00:00,1,0
2024-02-03T06:15:34.123098500+00:00,0,0
2024-02-03T06:15:34.133408560+00:00,0,1
2024-02-03T06:15:34.133421010+00:00,0,0
2024-02-03T06:15:34.323047690+00:00,1,0
2024-02-03T06:15:34.323097700+00:00,0,0
2024-02-03T06:15:34.330412990+00:00,0,1
2024-02-03T06:15:34.330421410+00:00,0,0
2024-02-03T06:15:34.523046890+00:00,1,0
2024-02-03T06:15:34.523096900+00:00,0,0
2024-02-03T06:15:34.531887580+00:00,0,1
2024-02-03T06:15:34.531896010+00:00,0,0
2024-02-03T06:15:34.723046090+00:00,1,0
2024-02-03T06:15:34.723096100+00:00,0,0
2024-02-03T06:15:34.736942190+00:00,0,1
2024-02-03T06:15:34.736950620+00:00,0,0
2024-02-03T06:15:34.923045290+00:00,1,0
2024-02-03T06:15:34.923095300+00:00,0,0
2024-02-03T06:15:34.931166000+00:00,0,1
2024-02-03T06:15:34.931178460+00:00,0,0
2024-02-03T06:15:35.123044490+00:00,1,0
2024-02-03T06:15:35.123094500+00:00,0,0
2024-02-03T06:15:35.132782570+00:00,0,1
2024-02-03T06:15:35.132791000+00:00,0,0
2024-02-03T06:15:35.323043690+00:00,1,0
2024-02-03T06:15:35.323093700+00:00,0,0
2024-02-03T06:15:35.332272870+00:00,0,1
2024-02-03T06:15:35.332281300+00:00,0,0
2024-02-03T06:15:35.523042890+00:00,1,0
2024-02-03T06:15:35.523092900+00:00,0,0
2024-02-03T06:15:35.531974300+00:00,0,1
2024-02-03T06:15:35.531982730+00:00,0,0
2024-02-03T06:15:35.723042090+00:00,1,0
2024-02-03T06:15:35.723092100+00:00,0,0
2024-02-03T06:15:35.731328920+00:00,0,1
2024-02-03T06:15:35.731337350+00:00,0,0
2024-02-03T06:15:35.923041290+00:00,1,0
2024-02-03T06:15:35.923091300+00:00,0,0
2024-02-03T06:15:35.930418250+00:00,0,1
2024-02-03T06:15:35.930426670+00:00,0,0
2024-02-03T06:15:36.123040490+00:00,1,0
2024-02-03T06:15:36.123090500+00:00,0,0
2024-02-03T06:15:36.132691940+00:00,0,1
2024-02-03T06:15:36.132700370+00:00,0,0
2024-02-03T06:15:36.323039690+00:00,1,0
2024-02-03T06:15:36.323089700+00:00,0,0
2024-02-03T06:15:36.337413280+00:00,0,1
2024-02-03T06:15:36.337417690+00:00,0,0
2024-02-03T06:15:36.523038900+00:00,1,0
2024-02-03T06:15:36.523088900+00:00,0,0
2024-02-03T06:15:36.533524440+00:00,0,1
2024-02-03T06:15:36.533536890+00:00,0,0
2024-02-03T06:15:36.723038100+00:00,1,0
2024-02-03T06:15:36.723088100+00:00,0,0
2024-02-03T06:15:36.730812010+00:00,0,1
2024-02-03T06:15:36.730820430+00:00,0,0
2024-02-03T06:15:36.923037300+00:00,1,0
2024-02-03T06:15:36.923087300+00:00,0,0
2024-02-03T06:15:36.933155030+00:00,0,1
2024-02-03T06:15:36.933163450+00:00,0,0
2024-02-03T06:15:37.123036500+00:00,1,0
2024-02-03T06:15:37.123086510+00:00,0,0
2024-02-03T06:15:37.130165590+00:00,0,1
2024-02-03T06:15:37.130174020+00:00,0,0
2024-02-03T06:15:37.323035700+00:00,1,0
2024-02-03T06:15:37.323085710+00:00,0,0
2024-02-03T06:15:37.332684940+00:00,0,1
2024-02-03T06:15:37.332693370+00:00,0,0
2024-02-03T06:15:37.523034900+00:00,1,0
2024-02-03T06:15:37.523084910+00:00,0,0
2024-02-03T06:15:37.533937440+00:00,0,1
2024-02-03T06:15:37.533945880+00:00,0,0
2024-02-03T06:15:37.723034100+00:00,1,0
2024-02-03T06:15:37.723084110+00:00,0,0
2024-02-03T06:15:37.730342540+00:00,0,1
2024-02-03T06:15:37.730350970+00:00,0,0
2024-02-03T06:15:37.923033300+00:00,1,0
2024-02-03T06:15:37.923083310+00:00,0,0
2024-02-03T06:15:37.930396970+00:00,0,1
2024-02-03T06:15:37.930409430+00:00,0,0
2024-02-03T06:15:38.123032500+00:00,1,0
2024-02-03T06:15:38.123082510+00:00,0,0
2024-02-03T06:15:38.132046080+00:00,0,1
2024-02-03T06:15:38.132054510+00:00,0,0
2024-02-03T06:15:38.323031700+00:00,1,0
2024-02-03T06:15:38.323081710+00:00,0,0
2024-02-03T06:15:38.336118220+00:00,0,1
2024-02-03T06:15:38.336126650+00:00,0,0
2024-02-03T06:15:38.523030900+00:00,1,0
2024-02-03T06:15:38.523080910+00:00,0,0
2024-02-03T06:15:38.530100210+00:00,0,1
2024-02-03T06:15:38.530108640+00:00,0,0
2024-02-03T06:15:38.723030100+00:00,1,0
2024-02-03T06:15:38.723080110+00:00,0,0
2024-02-03T06:15:38.735806710+00:00,0,1
2024-02-03T06:15:38.735811130+00:00,0,0
2024-02-03T06:15:38.923029300+00:00,1,0
2024-02-03T06:15:38.923079310+00:00,0,0
2024-02-03T06:15:38.934369520+00:00,0,1
2024-02-03T06:15:38.934381980+00:00,0,0
2024-02-03T06:15:39.123028500+00:00,1,0
2024-02-03T06:15:39.123078510+00:00,0,0
2024-02-03T06:15:39.130280900+00:00,0,1
2024-02-03T06:15:39.130289320+00:00,0,0
2024-02-03T06:15:39.323027700+00:00,1,0
2024-02-03T06:15:39.323077710+00:00,0,0
2024-02-03T06:15:39.331264080+00:00,0,1
2024-02-03T06:15:39.331272510+00:00,0,0
2024-02-03T06:15:39.523026900+00:00,1,0
2024-02-03T06:15:39.523076910+00:00,0,0
2024-02-03T06:15:39.531573820+00:00,0,1
2024-02-03T06:15:39.531582250+00:00,0,0
2024-02-03T06:15:39.723026100+00:00,1,0
2024-02-03T06:15:39.723076110+00:00,0,0
2024-02-03T06:15:39.732646790+00:00,0,1
2024-02-03T06:15:39.732655220+00:00,0,0
2024-02-03T06:15:39.923025300+00:00,1,0
2024-02-03T06:15:39.923075310+00:00,0,0
2024-02-03T06:15:39.931510710+00:00,0,1
2024-02-03T06:15:39.931519140+00:00,0,0
2024-02-03T06:15:40.123024500+00:00,1,0
2024-02-03T06:15:40.123074510+00:00,0,0
2024-02-03T06:15:40.131991190+00:00,0,1
2024-02-03T06:15:40.131999620+00:00,0,0
2024-02-03T06:15:40.323023700+00:00,1,0
2024-02-03T06:15:40.323073700+00:00,0,0
2024-02-03T06:15:40.330900290+00:00,0,1
2024-02-03T06:15:40.330908720+00:00,0,0
2024-02-03T06:15:40.523022900+00:00,1,0
2024-02-03T06:15:40.523072900+00:00,0,0
2024-02-03T06:15:40.535011870+00:00,0,1
2024-02-03T06:15:40.535020310+00:00,0,0
2024-02-03T06:15:40.723022100+00:00,1,0
2024-02-03T06:15:40.723072100+00:00,0,0
2024-02-03T06:15:40.732306200+00:00,0,1
2024-02-03T06:15:40.732314620+00:00,0,0
2024-02-03T06:15:40.923021290+00:00,1,0
2024-02-03T06:15:40.923071300+00:00,0,0
2024-02-03T06:15:40.931945490+00:00,0,1
2024-02-03T06:15:40.931953920+00:00,0,0
2024-02-03T06:15:41.123020490+00:00,1,0
2024-02-03T06:15:41.123070500+00:00,0,0
2024-02-03T06:15:41.132068420+00:00,0,1
2024-02-03T06:15:41.132076850+00:00,0,0
2024-02-03T06:15:41.323019690+00:00,1,0
2024-02-03T06:15:41.323069700+00:00,0,0
2024-02-03T06:15:41.333578030+00:00,0,1
2024-02-03T06:15:41.333586450+00:00,0,0
2024-02-03T06:15:41.523018890+00:00,1,0
2024-02-03T06:15:41.523068900+00:00,0,0
2024-02-03T06:15:41.530999870+00:00,0,1
2024-02-03T06:15:41.531008300+00:00,0,0
2024-02-03T06:15:41.723018090+00:00,1,0
2024-02-03T06:15:41.723068100+00:00,0,0
2024-02-03T06:15:41.730772460+00:00,0,1
2024-02-03T06:15:41.730780890+00:00,0,0
2024-02-03T06:15:41.923017290+00:00,1,0
2024-02-03T06:15:41.923067300+00:00,0,0
2024-02-03T06:15:41.931624770+00:00,0,1
2024-02-03T06:15:41.931633200+00:00,0,0
2024-02-03T06:15:42.123016490+00:00,1,0
2024-02-03T06:15:42.123066500+00:00,0,0
2024-02-03T06:15:42.131266620+00:00,0,1
2024-02-03T06:15:42.131275050+00:00,0,0
2024-02-03T06:15:42.323015690+00:00,1,0
2024-02-03T06:15:42.323065700+00:00,0,0
2024-02-03T06:15:42.335533650+00:00,0,1
2024-02-03T06:15:42.335542080+00:00,0,0
2024-02-03T06:15:42.523014890+00:00,1,0
2024-02-03T06:15:42.523064900+00:00,0,0
2024-02-03T06:15:42.534452940+00:00,0,1
2024-02-03T06:15:42.534461370+00:00,0,0
2024-02-03T06:15:42.723014090+00:00,1,0
2024-02-03T06:15:42.723064100+00:00,0,0
2024-02-03T06:15:42.734489760+00:00,0,1
2024-02-03T06:15:42.734494190+00:00,0,0
2024-02-03T06:15:42.923013290+00:00,1,0
2024-02-03T06:15:42.923063300+00:00,0,0
2024-02-03T06:15:42.933524540+00:00,0,1
2024-02-03T06:15:42.933525020+00:00,0,0
2024-02-03T06:15:43.123012490+00:00,1,0
2024-02-03T06:15:43.123062500+00:00,0,0
2024-02-03T06:15:43.135139440+00:00,0,1
2024-02-03T06:15:43.135147470+00:00,0,0
2024-02-03T06:15:43.323011690+00:00,1,0
2024-02-03T06:15:43.323061700+00:00,0,0
2024-02-03T06:15:43.332731440+00:00,0,1
2024-02-03T06:15:43.332743890+00:00,0,0
2024-02-03T06:15:43.523010890+00:00,1,0
2024-02-03T06:15:43.523060900+00:00,0,0
2024-02-03T06:15:43.531716280+00:00,0,1
2024-02-03T06:15:43.531724710+00:00,0,0
2024-02-03T06:15:43.723010090+00:00,1,0
2024-02-03T06:15:43.723060100+00:00,0,0
2024-02-03T06:15:43.732976290+00:00,0,1
2024-02-03T06:15:43.732984720+00:00,0,0
2024-02-03T06:15:43.923009290+00:00,1,0
2024-02-03T06:15:43.923059290+00:00,0,0
2024-02-03T06:15:43.932153010+00:00,0,1
2024-02-03T06:15:43.932161440+00:00,0,0
2024-02-03T06:15:44.123008490+00:00,1,0
2024-02-03T06:15:44.123058490+00:00,0,0
2024-02-03T06:15:44.131727830+00:00,0,1
2024-02-03T06:15:44.131736250+00:00,0,0
2024-02-03T06:15:44.323007680+00:00,1,0
2024-02-03T06:15:44.323057690+00:00,0,0
