Time [s],Channel 0,Channel 1
2024-02-03T05:53:34.721825000+00:00,0,0
2024-02-03T05:53:34.787132250+00:00,1,0
2024-02-03T05:53:34.787182260+00:00,0,0
2024-02-03T05:53:34.791625610+00:00,0,1
2024-02-03T05:53:34.791626140+00:00,0,0
2024-02-03T05:53:34.987131470+00:00,1,0
2024-02-03T05:53:34.987181480+00:00,0,0
2024-02-03T05:53:34.994872980+00:00,0,1
2024-02-03T05:53:34.994873510+00:00,0,0
2024-02-03T05:53:35.187130690+00:00,1,0
2024-02-03T05:53:35.187180700+00:00,0,0
2024-02-03T05:53:35.192552220+00:00,0,1
2024-02-03T05:53:35.192552750+00:00,0,0
2024-02-03T05:53:35.387129910+00:00,1,0
2024-02-03T05:53:35.387179920+00:00,0,0
2024-02-03T05:53:35.391049470+00:00,0,1
2024-02-03T05:53:35.391050000+00:00,0,0
2024-02-03T05:53:35.587129130+00:00,1,0
2024-02-03T05:53:35.587179140+00:00,0,0
2024-02-03T05:53:35.591782690+00:00,0,1
2024-02-03T05:53:35.591783220+00:00,0,0
2024-02-03T05:53:35.787128350+00:00,1,0
2024-02-03T05:53:35.787178360+00:00,0,0
2024-02-03T05:53:35.791981680+00:00,0,1
2024-02-03T05:53:35.791982210+00:00,0,0
2024-02-03T05:53:35.987127570+00:00,1,0
2024-02-03T05:53:35.987177580+00:00,0,0
2024-02-03T05:53:35.991085430+00:00,0,1
2024-02-03T05:53:35.991085960+00:00,0,0
2024-02-03T05:53:36.187126790+00:00,1,0
2024-02-03T05:53:36.187176800+00:00,0,0
2024-02-03T05:53:36.191139120+00:00,0,1
2024-02-03T05:53:36.191139650+00:00,0,0
2024-02-03T05:53:36.387126010+00:00,1,0
2024-02-03T05:53:36.387176020+00:00,0,0
2024-02-03T05:53:36.391022000+00:00,0,1
2024-02-03T05:53:36.391022520+00:00,0,0
2024-02-03T05:53:36.587125230+00:00,1,0
2024-02-03T05:53:36.587175240+00:00,0,0
2024-02-03T05:53:36.591192040+00:00,0,1
2024-02-03T05:53:36.591192570+00:00,0,0
2024-02-03T05:53:36.787124450+00:00,1,0
2024-02-03T05:53:36.787174460+00:00,0,0
2024-02-03T05:53:36.791238560+00:00,0,1
2024-02-03T05:53:36.791239090+00:00,0,0
2024-02-03T05:53:36.987123670+00:00,1,0
2024-02-03T05:53:36.987173680+00:00,0,0
2024-02-03T05:53:36.992725140+00:00,0,1
2024-02-03T05:53:36.992726420+00:00,0,0
2024-02-03T05:53:37.187122890+00:00,1,0
2024-02-03T05:53:37.187172900+00:00,0,0
2024-02-03T05:53:37.191323470+00:00,0,1
2024-02-03T05:53:37.191324000+00:00,0,0
2024-02-03T05:53:37.387122110+00:00,1,0
2024-02-03T05:53:37.387172120+00:00,0,0
2024-02-03T05:53:37.390780900+00:00,0,1
2024-02-03T05:53:37.390781420+00:00,0,0
2024-02-03T05:53:37.587121330+00:00,1,0
2024-02-03T05:53:37.587171340+00:00,0,0
2024-02-03T05:53:37.591645910+00:00,0,1
2024-02-03T05:53:37.591646440+00:00,0,0
2024-02-03T05:53:37.787120550+00:00,1,0
2024-02-03T05:53:37.787170560+00:00,0,0
2024-02-03T05:53:37.791368980+00:00,0,1
2024-02-03T05:53:37.791369510+00:00,0,0
2024-02-03T05:53:37.987119770+00:00,1,0
2024-02-03T05:53:37.987169780+00:00,0,0
2024-02-03T05:53:37.991013880+00:00,0,1
2024-02-03T05:53:37.991014410+00:00,0,0
2024-02-03T05:53:38.187118990+00:00,1,0
2024-02-03T05:53:38.187169000+00:00,0,0
2024-02-03T05:53:38.191731800+00:00,0,1
2024-02-03T05:53:38.191732330+00:00,0,0
2024-02-03T05:53:38.387118210+00:00,1,0
2024-02-03T05:53:38.387168220+00:00,0,0
2024-02-03T05:53:38.392197910+00:00,0,1
2024-02-03T05:53:38.392198440+00:00,0,0
2024-02-03T05:53:38.587117430+00:00,1,0
2024-02-03T05:53:38.587167440+00:00,0,0
2024-02-03T05:53:38.590957770+00:00,0,1
2024-02-03T05:53:38.590958300+00:00,0,0
2024-02-03T05:53:38.787116650+00:00,1,0
2024-02-03T05:53:38.787166660+00:00,0,0
2024-02-03T05:53:38.797049950+00:00,0,1
2024-02-03T05:53:38.797050480+00:00,0,0
2024-02-03T05:53:38.987115870+00:00,1,0
2024-02-03T05:53:38.987165880+00:00,0,0
2024-02-03T05:53:38.991315110+00:00,0,1
2024-02-03T05:53:38.991315630+00:00,0,0
2024-02-03T05:53:39.187115090+00:00,1,0
2024-02-03T05:53:39.187165090+00:00,0,0
2024-02-03T05:53:39.192147170+00:00,0,1
2024-02-03T05:53:39.192147700+00:00,0,0
2024-02-03T05:53:39.387114300+00:00,1,0
2024-02-03T05:53:39.387164310+00:00,0,0
2024-02-03T05:53:39.390803600+00:00,0,1
2024-02-03T05:53:39.390804130+00:00,0,0
2024-02-03T05:53:39.587113520+00:00,1,0
2024-02-03T05:53:39.587163530+00:00,0,0
2024-02-03T05:53:39.592699710+00:00,0,1
2024-02-03T05:53:39.592700240+00:00,0,0
2024-02-03T05:53:39.787112740+00:00,1,0
2024-02-03T05:53:39.787162750+00:00,0,0
2024-02-03T05:53:39.790976460+00:00,0,1
2024-02-03T05:53:39.790976990+00:00,0,0
2024-02-03T05:53:39.987111960+00:00,1,0
2024-02-03T05:53:39.987161970+00:00,0,0
2024-02-03T05:53:39.992490000+00:00,0,1
2024-02-03T05:53:39.992490530+00:00,0,0
2024-02-03T05:53:40.187111180+00:00,1,0
2024-02-03T05:53:40.187161190+00:00,0,0
2024-02-03T05:53:40.193939340+00:00,0,1
2024-02-03T05:53:40.193939860+00:00,0,0
2024-02-03T05:53:40.387110400+00:00,1,0
2024-02-03T05:53:40.387160410+00:00,0,0
2024-02-03T05:53:40.391047250+00:00,0,1
2024-02-03T05:53:40.391047780+00:00,0,0
2024-02-03T05:53:40.587109620+00:00,1,0
2024-02-03T05:53:40.587159630+00:00,0,0
2024-02-03T05:53:40.591025350+00:00,0,1
2024-02-03T05:53:40.591025870+00:00,0,0
2024-02-03T05:53:40.787108840+00:00,1,0
2024-02-03T05:53:40.787158850+00:00,0,0
2024-02-03T05:53:40.791520860+00:00,0,1
2024-02-03T05:53:40.791521390+00:00,0,0
2024-02-03T05:53:40.987108050+00:00,1,0
2024-02-03T05:53:40.987158060+00:00,0,0
2024-02-03T05:53:40.991041710+00:00,0,1
2024-02-03T05:53:40.991042240+00:00,0,0
2024-02-03T05:53:41.187107270+00:00,1,0
2024-02-03T05:53:41.187157280+00:00,0,0
2024-02-03T05:53:41.191044230+00:00,0,1
2024-02-03T05:53:41.191044760+00:00,0,0
2024-02-03T05:53:41.387106490+00:00,1,0
2024-02-03T05:53:41.387156500+00:00,0,0
2024-02-03T05:53:41.391321850+00:00,0,1
2024-02-03T05:53:41.391322380+00:00,0,0
2024-02-03T05:53:41.587105710+00:00,1,0
2024-02-03T05:53:41.587155720+00:00,0,0
2024-02-03T05:53:41.592588140+00:00,0,1
2024-02-03T05:53:41.592588670+00:00,0,0
2024-02-03T05:53:41.787104930+00:00,1,0
2024-02-03T05:53:41.787154940+00:00,0,0
2024-02-03T05:53:41.793892130+00:00,0,1
2024-02-03T05:53:41.793892650+00:00,0,0
2024-02-03T05:53:41.987104150+00:00,1,0
2024-02-03T05:53:41.987154160+00:00,0,0
2024-02-03T05:53:41.991092560+00:00,0,1
2024-02-03T05:53:41.991093090+00:00,0,0
2024-02-03T05:53:42.187103360+00:00,1,0
2024-02-03T05:53:42.187153370+00:00,0,0
2024-02-03T05:53:42.190843240+00:00,0,1
2024-02-03T05:53:42.190843760+00:00,0,0
2024-02-03T05:53:42.387102580+00:00,1,0
2024-02-03T05:53:42.387152590+00:00,0,0
2024-02-03T05:53:42.393178420+00:00,0,1
2024-02-03T05:53:42.393178940+00:00,0,0
2024-02-03T05:53:42.587101800+00:00,1,0
2024-02-03T05:53:42.587151810+00:00,0,0
2024-02-03T05:53:42.597446680+00:00,0,1
2024-02-03T05:53:42.597447210+00:00,0,0
2024-02-03T05:53:42.787101020+00:00,1,0
2024-02-03T05:53:42.787151030+00:00,0,0
2024-02-03T05:53:42.791495520+00:00,0,1
2024-02-03T05:53:42.791496050+00:00,0,0
2024-02-03T05:53:42.987100230+00:00,1,0
2024-02-03T05:53:42.987150240+00:00,0,0
2024-02-03T05:53:42.991726510+00:00,0,1
2024-02-03T05:53:42.991727040+00:00,0,0
2024-02-03T05:53:43.187099450+00:00,1,0
2024-02-03T05:53:43.187149460+00:00,0,0
2024-02-03T05:53:43.191412460+00:00,0,1
2024-02-03T05:53:43.191412990+00:00,0,0
2024-02-03T05:53:43.387098670+00:00,1,0
2024-02-03T05:53:43.387148680+00:00,0,0
2024-02-03T05:53:43.393942290+00:00,0,1
2024-02-03T05:53:43.393942820+00:00,0,0
2024-02-03T05:53:43.587097890+00:00,1,0
2024-02-03T05:53:43.587147900+00:00,0,0
2024-02-03T05:53:43.591274220+00:00,0,1
2024-02-03T05:53:43.591274750+00:00,0,0
2024-02-03T05:53:43.787097110+00:00,1,0
2024-02-03T05:53:43.787147120+00:00,0,0
2024-02-03T05:53:43.791748640+00:00,0,1
2024-02-03T05:53:43.791749170+00:00,0,0
2024-02-03T05:53:43.987096320+00:00,1,0
2024-02-03T05:53:43.987146330+00:00,0,0
2024-02-03T05:53:43.991276340+00:00,0,1
2024-02-03T05:53:43.991276870+00:00,0,0
2024-02-03T05:53:44.187095540+00:00,1,0
2024-02-03T05:53:44.187145550+00:00,0,0
2024-02-03T05:53:44.193854840+00:00,0,1
2024-02-03T05:53:44.193855370+00:00,0,0
2024-02-03T05:53:44.387094760+00:00,1,0
2024-02-03T05:53:44.387144770+00:00,0,0
2024-02-03T05:53:44.391705180+00:00,0,1
2024-02-03T05:53:44.391705710+00:00,0,0
2024-02-03T05:53:44.587093980+00:00,1,0
2024-02-03T05:53:44.587143990+00:00,0,0
2024-02-03T05:53:44.590881580+00:00,0,1
2024-02-03T05:53:44.590882110+00:00,0,0
2024-02-03T05:53:44.787093190+00:00,1,0
2024-02-03T05:53:44.787143200+00:00,0,0
2024-02-03T05:53:44.791817620+00:00,0,1
2024-02-03T05:53:44.791818150+00:00,0,0
2024-02-03T05:53:44.987092410+00:00,1,0
2024-02-03T05:53:44.987142420+00:00,0,0
2024-02-03T05:53:44.991143220+00:00,0,1
2024-02-03T05:53:44.991143750+00:00,0,0
2024-02-03T05:53:45.187091630+00:00,1,0
2024-02-03T05:53:45.187141640+00:00,0,0
2024-02-03T05:53:45.190718190+00:00,0,1
2024-02-03T05:53:45.190718720+00:00,0,0
2024-02-03T05:53:45.387090840+00:00,1,0
2024-02-03T05:53:45.387140850+00:00,0,0
2024-02-03T05:53:45.391033810+00:00,0,1
2024-02-03T05:53:45.391034330+00:00,0,0
2024-02-03T05:53:45.587090060+00:00,1,0
2024-02-03T05:53:45.587140070+00:00,0,0
2024-02-03T05:53:45.592041620+00:00,0,1
2024-02-03T05:53:45.592042150+00:00,0,0
2024-02-03T05:53:45.787089280+00:00,1,0
2024-02-03T05:53:45.787139290+00:00,0,0
2024-02-03T05:53:45.791182800+00:00,0,1
2024-02-03T05:53:45.791183320+00:00,0,0
2024-02-03T05:53:45.987088490+00:00,1,0
2024-02-03T05:53:45.987138500+00:00,0,0
2024-02-03T05:53:45.991014220+00:00,0,1
2024-02-03T05:53:45.991014750+00:00,0,0
2024-02-03T05:53:46.187087710+00:00,1,0
2024-02-03T05:53:46.187137720+00:00,0,0
2024-02-03T05:53:46.190858190+00:00,0,1
2024-02-03T05:53:46.190858720+00:00,0,0
2024-02-03T05:53:46.387086930+00:00,1,0
2024-02-03T05:53:46.387136940+00:00,0,0
2024-02-03T05:53:46.391365310+00:00,0,1
2024-02-03T05:53:46.391365830+00:00,0,0
2024-02-03T05:53:46.587086140+00:00,1,0
2024-02-03T05:53:46.587136150+00:00,0,0
2024-02-03T05:53:46.591098080+00:00,0,1
2024-02-03T05:53:46.591098610+00:00,0,0
2024-02-03T05:53:46.787085360+00:00,1,0
2024-02-03T05:53:46.787135370+00:00,0,0
2024-02-03T05:53:46.796178410+00:00,0,1
2024-02-03T05:53:46.796178940+00:00,0,0
2024-02-03T05:53:46.987084580+00:00,1,0
2024-02-03T05:53:46.987134590+00:00,0,0
2024-02-03T05:53:46.991321790+00:00,0,1
2024-02-03T05:53:46.991322320+00:00,0,0
2024-02-03T05:53:47.187083790+00:00,1,0
2024-02-03T05:53:47.187133800+00:00,0,0
2024-02-03T05:53:47.191775330+00:00,0,1
2024-02-03T05:53:47.191775860+00:00,0,0
2024-02-03T05:53:47.387083010+00:00,1,0
2024-02-03T05:53:47.387133020+00:00,0,0
2024-02-03T05:53:47.390940160+00:00,0,1
2024-02-03T05:53:47.390940690+00:00,0,0
2024-02-03T05:53:47.587082230+00:00,1,0
2024-02-03T05:53:47.587132230+00:00,0,0
2024-02-03T05:53:47.592877690+00:00,0,1
2024-02-03T05:53:47.592878220+00:00,0,0
2024-02-03T05:53:47.787081440+00:00,1,0
2024-02-03T05:53:47.787131450+00:00,0,0
2024-02-03T05:53:47.793015240+00:00,0,1
2024-02-03T05:53:47.793015770+00:00,0,0
2024-02-03T05:53:47.987080660+00:00,1,0
2024-02-03T05:53:47.987130670+00:00,0,0
2024-02-03T05:53:47.991014650+00:00,0,1
2024-02-03T05:53:47.991015180+00:00,0,0
2024-02-03T05:53:48.187079870+00:00,1,0
2024-02-03T05:53:48.187129880+00:00,0,0
2024-02-03T05:53:48.195991510+00:00,0,1
2024-02-03T05:53:48.195992040+00:00,0,0
2024-02-03T05:53:48.387079090+00:00,1,0
2024-02-03T05:53:48.387129100+00:00,0,0
2024-02-03T05:53:48.391159910+00:00,0,1
2024-02-03T05:53:48.391160440+00:00,0,0
2024-02-03T05:53:48.587078310+00:00,1,0
2024-02-03T05:53:48.587128310+00:00,0,0
2024-02-03T05:53:48.591377980+00:00,0,1
2024-02-03T05:53:48.591378510+00:00,0,0
2024-02-03T05:53:48.787077520+00:00,1,0
2024-02-03T05:53:48.787127530+00:00,0,0
2024-02-03T05:53:48.800704440+00:00,0,1
2024-02-03T05:53:48.800704970+00:00,0,0
2024-02-03T05:53:48.987076740+00:00,1,0
2024-02-03T05:53:48.987126750+00:00,0,0
2024-02-03T05:53:48.991182050+00:00,0,1
2024-02-03T05:53:48.991182570+00:00,0,0
2024-02-03T05:53:49.187075950+00:00,1,0
2024-02-03T05:53:49.187125960+00:00,0,0
2024-02-03T05:53:49.191944260+00:00,0,1
2024-02-03T05:53:49.191944790+00:00,0,0
2024-02-03T05:53:49.387075170+00:00,1,0
2024-02-03T05:53:49.387125180+00:00,0,0
2024-02-03T05:53:49.391146460+00:00,0,1
2024-02-03T05:53:49.391146990+00:00,0,0
2024-02-03T05:53:49.587074380+00:00,1,0
2024-02-03T05:53:49.587124390+00:00,0,0
2024-02-03T05:53:49.592291650+00:00,0,1
2024-02-03T05:53:49.592292180+00:00,0,0
2024-02-03T05:53:49.787073600+00:00,1,0
2024-02-03T05:53:49.787123610+00:00,0,0
2024-02-03T05:53:49.791337070+00:00,0,1
2024-02-03T05:53:49.791337600+00:00,0,0
2024-02-03T05:53:49.987072820+00:00,1,0
2024-02-03T05:53:49.987122820+00:00,0,0
2024-02-03T05:53:49.992376040+00:00,0,1
2024-02-03T05:53:49.992376560+00:00,0,0
2024-02-03T05:53:50.187072030+00:00,1,0
2024-02-03T05:53:50.187122040+00:00,0,0
2024-02-03T05:53:50.190737390+00:00,0,1
2024-02-03T05:53:50.190737920+00:00,0,0
2024-02-03T05:53:50.387071250+00:00,1,0
2024-02-03T05:53:50.387121260+00:00,0,0
2024-02-03T05:53:50.391037710+00:00,0,1
2024-02-03T05:53:50.391038240+00:00,0,0
2024-02-03T05:53:50.587070460+00:00,1,0
2024-02-03T05:53:50.587120470+00:00,0,0
2024-02-03T05:53:50.592768370+00:00,0,1
2024-02-03T05:53:50.592768900+00:00,0,0
2024-02-03T05:53:50.787069680+00:00,1,0
2024-02-03T05:53:50.787119690+00:00,0,0
2024-02-03T05:53:50.791095550+00:00,0,1
2024-02-03T05:53:50.791096080+00:00,0,0
2024-02-03T05:53:50.987068890+00:00,1,0
2024-02-03T05:53:50.987118900+00:00,0,0
2024-02-03T05:53:50.992287740+00:00,0,1
2024-02-03T05:53:50.992288260+00:00,0,0
2024-02-03T05:53:51.187068110+00:00,1,0
2024-02-03T05:53:51.187118120+00:00,0,0
2024-02-03T05:53:51.190903610+00:00,0,1
2024-02-03T05:53:51.190904140+00:00,0,0
2024-02-03T05:53:51.387067320+00:00,1,0
2024-02-03T05:53:51.387117330+00:00,0,0
2024-02-03T05:53:51.390720540+00:00,0,1
2024-02-03T05:53:51.390721060+00:00,0,0
2024-02-03T05:53:51.587066540+00:00,1,0
2024-02-03T05:53:51.587116550+00:00,0,0
2024-02-03T05:53:51.591084180+00:00,0,1
2024-02-03T05:53:51.591084710+00:00,0,0
2024-02-03T05:53:51.787065750+00:00,1,0
2024-02-03T05:53:51.787115760+00:00,0,0
2024-02-03T05:53:51.792658810+00:00,0,1
2024-02-03T05:53:51.792659340+00:00,0,0
2024-02-03T05:53:51.987064970+00:00,1,0
2024-02-03T05:53:51.987114980+00:00,0,0
2024-02-03T05:53:51.992595510+00:00,0,1
2024-02-03T05:53:51.992596040+00:00,0,0
2024-02-03T05:53:52.187064180+00:00,1,0
2024-02-03T05:53:52.187114190+00:00,0,0
2024-02-03T05:53:52.190655140+00:00,0,1
2024-02-03T05:53:52.190655670+00:00,0,0
2024-02-03T05:53:52.387063400+00:00,1,0
2024-02-03T05:53:52.387113410+00:00,0,0
2024-02-03T05:53:52.391753850+00:00,0,1
2024-02-03T05:53:52.391754380+00:00,0,0
2024-02-03T05:53:52.587062610+00:00,1,0
2024-02-03T05:53:52.587112620+00:00,0,0
2024-02-03T05:53:52.590814250+00:00,0,1
2024-02-03T05:53:52.590814780+00:00,0,0
2024-02-03T05:53:52.787061830+00:00,1,0
2024-02-03T05:53:52.787111840+00:00,0,0
2024-02-03T05:53:52.791863590+00:00,0,1
2024-02-03T05:53:52.791864120+00:00,0,0
2024-02-03T05:53:52.987061040+00:00,1,0
2024-02-03T05:53:52.987111050+00:00,0,0
2024-02-03T05:53:52.994355290+00:00,0,1
2024-02-03T05:53:52.994355820+00:00,0,0
2024-02-03T05:53:53.187060260+00:00,1,0
2024-02-03T05:53:53.187110270+00:00,0,0
2024-02-03T05:53:53.190956210+00:00,0,1
2024-02-03T05:53:53.190956740+00:00,0,0
2024-02-03T05:53:53.387059470+00:00,1,0
2024-02-03T05:53:53.387109480+00:00,0,0
2024-02-03T05:53:53.391374180+00:00,0,1
2024-02-03T05:53:53.391374710+00:00,0,0
2024-02-03T05:53:53.587058690+00:00,1,0
2024-02-03T05:53:53.587108700+00:00,0,0
2024-02-03T05:53:53.590944900+00:00,0,1
2024-02-03T05:53:53.590945430+00:00,0,0
2024-02-03T05:53:53.787057900+00:00,1,0
2024-02-03T05:53:53.787107910+00:00,0,0
2024-02-03T05:53:53.790984650+00:00,0,1
2024-02-03T05:53:53.790985170+00:00,0,0
2024-02-03T05:53:53.987057120+00:00,1,0
2024-02-03T05:53:53.987107130+00:00,0,0
2024-02-03T05:53:53.994500570+00:00,0,1
2024-02-03T05:53:53.994501100+00:00,0,0
2024-02-03T05:53:54.187056330+00:00,1,0
2024-02-03T05:53:54.187106340+00:00,0,0
2024-02-03T05:53:54.193011650+00:00,0,1
2024-02-03T05:53:54.193012180+00:00,0,0
2024-02-03T05:53:54.387055550+00:00,1,0
2024-02-03T05:53:54.387105550+00:00,0,0
2024-02-03T05:53:54.390676760+00:00,0,1
2024-02-03T05:53:54.390677290+00:00,0,0
2024-02-03T05:53:54.587054760+00:00,1,0
2024-02-03T05:53:54.587104770+00:00,0,0
2024-02-03T05:53:54.594093850+00:00,0,1
2024-02-03T05:53:54.594094380+00:00,0,0
2024-02-03T05:53:54.787053970+00:00,1,0
2024-02-03T05:53:54.787103980+00:00,0,0
2024-02-03T05:53:54.800381280+00:00,0,1
2024-02-03T05:53:54.800381810+00:00,0,0
2024-02-03T05:53:54.987053190+00:00,1,0
2024-02-03T05:53:54.987103200+00:00,0,0
2024-02-03T05:53:54.991354310+00:00,0,1
2024-02-03T05:53:54.991354840+00:00,0,0
2024-02-03T05:53:55.187052400+00:00,1,0
2024-02-03T05:53:55.187102410+00:00,0,0
2024-02-03T05:53:55.191414230+00:00,0,1
2024-02-03T05:53:55.191414760+00:00,0,0
2024-02-03T05:53:55.387051620+00:00,1,0
2024-02-03T05:53:55.387101630+00:00,0,0
2024-02-03T05:53:55.395632150+00:00,0,1
2024-02-03T05:53:55.395632680+00:00,0,0
2024-02-03T05:53:55.587050830+00:00,1,0
2024-02-03T05:53:55.587100840+00:00,0,0
2024-02-03T05:53:55.590722400+00:00,0,1
2024-02-03T05:53:55.590722930+00:00,0,0
2024-02-03T05:53:55.787050050+00:00,1,0
2024-02-03T05:53:55.787100060+00:00,0,0
2024-02-03T05:53:55.790748470+00:00,0,1
2024-02-03T05:53:55.790749000+00:00,0,0
2024-02-03T05:53:55.987049260+00:00,1,0
2024-02-03T05:53:55.987099270+00:00,0,0
2024-02-03T05:53:55.990997610+00:00,0,1
2024-02-03T05:53:55.990998140+00:00,0,0
2024-02-03T05:53:56.187048470+00:00,1,0
2024-02-03T05:53:56.187098480+00:00,0,0
2024-02-03T05:53:56.194076080+00:00,0,1
2024-02-03T05:53:56.194076610+00:00,0,0
2024-02-03T05:53:56.387047690+00:00,1,0
2024-02-03T05:53:56.387097700+00:00,0,0
2024-02-03T05:53:56.393538660+00:00,0,1
2024-02-03T05:53:56.393539190+00:00,0,0
2024-02-03T05:53:56.587046900+00:00,1,0
2024-02-03T05:53:56.587096910+00:00,0,0
2024-02-03T05:53:56.590918740+00:00,0,1
2024-02-03T05:53:56.590919270+00:00,0,0
2024-02-03T05:53:56.787046120+00:00,1,0
2024-02-03T05:53:56.787096130+00:00,0,0
2024-02-03T05:53:56.791049260+00:00,0,1
2024-02-03T05:53:56.791049790+00:00,0,0
2024-02-03T05:53:56.987045330+00:00,1,0
2024-02-03T05:53:56.987095340+00:00,0,0
2024-02-03T05:53:56.990944860+00:00,0,1
2024-02-03T05:53:56.990945390+00:00,0,0
2024-02-03T05:53:57.187044540+00:00,1,0
2024-02-03T05:53:57.187094550+00:00,0,0
2024-02-03T05:53:57.190847080+00:00,0,1
2024-02-03T05:53:57.190847600+00:00,0,0
2024-02-03T05:53:57.387043760+00:00,1,0
2024-02-03T05:53:57.387093770+00:00,0,0
2024-02-03T05:53:57.390834940+00:00,0,1
2024-02-03T05:53:57.390835470+00:00,0,0
2024-02-03T05:53:57.587042970+00:00,1,0
2024-02-03T05:53:57.587092980+00:00,0,0
2024-02-03T05:53:57.591534010+00:00,0,1
2024-02-03T05:53:57.591534540+00:00,0,0
2024-02-03T05:53:57.787042190+00:00,1,0
2024-02-03T05:53:57.787092200+00:00,0,0
2024-02-03T05:53:57.790930180+00:00,0,1
2024-02-03T05:53:57.790930710+00:00,0,0
2024-02-03T05:53:57.987041400+00:00,1,0
2024-02-03T05:53:57.987091410+00:00,0,0
2024-02-03T05:53:57.991090750+00:00,0,1
2024-02-03T05:53:57.991091280+00:00,0,0
2024-02-03T05:53:58.187040620+00:00,1,0
2024-02-03T05:53:58.187090620+00:00,0,0
2024-02-03T05:53:58.192546480+00:00,0,1
2024-02-03T05:53:58.192547010+00:00,0,0
2024-02-03T05:53:58.387039830+00:00,1,0
2024-02-03T05:53:58.387089840+00:00,0,0
2024-02-03T05:53:58.392620900+00:00,0,1
2024-02-03T05:53:58.392621430+00:00,0,0
2024-02-03T05:53:58.587039040+00:00,1,0
2024-02-03T05:53:58.587089050+00:00,0,0
2024-02-03T05:53:58.590929200+00:00,0,1
2024-02-03T05:53:58.590929730+00:00,0,0
2024-02-03T05:53:58.787038260+00:00,1,0
2024-02-03T05:53:58.787088270+00:00,0,0
2024-02-03T05:53:58.791322570+00:00,0,1
2024-02-03T05:53:58.791323100+00:00,0,0
2024-02-03T05:53:58.987037470+00:00,1,0
2024-02-03T05:53:58.987087480+00:00,0,0
2024-02-03T05:53:58.991513560+00:00,0,1
2024-02-03T05:53:58.991514090+00:00,0,0
2024-02-03T05:53:59.187036680+00:00,1,0
2024-02-03T05:53:59.187086690+00:00,0,0
2024-02-03T05:53:59.191110630+00:00,0,1
2024-02-03T05:53:59.191111160+00:00,0,0
2024-02-03T05:53:59.387035900+00:00,1,0
2024-02-03T05:53:59.387085910+00:00,0,0
2024-02-03T05:53:59.390631570+00:00,0,1
2024-02-03T05:53:59.390632100+00:00,0,0
2024-02-03T05:53:59.587035110+00:00,1,0
2024-02-03T05:53:59.587085120+00:00,0,0
