Time [s],Channel 0,Channel 1
2023-11-28T01:30:23.412533000+00:00,0,0
2023-11-28T01:30:23.494797770+00:00,1,0
2023-11-28T01:30:23.494847790+00:00,0,0
2023-11-28T01:30:23.507057570+00:00,0,1
2023-11-28T01:30:23.507057630+00:00,0,0
2023-11-28T01:30:23.594797570+00:00,1,0
2023-11-28T01:30:23.594847600+00:00,0,0
2023-11-28T01:30:23.612317290+00:00,0,1
2023-11-28T01:30:23.612317360+00:00,0,0
2023-11-28T01:30:23.694797380+00:00,1,0
2023-11-28T01:30:23.694847400+00:00,0,0
2023-11-28T01:30:23.712306890+00:00,0,1
2023-11-28T01:30:23.712306950+00:00,0,0
2023-11-28T01:30:23.794797180+00:00,1,0
2023-11-28T01:30:23.794847200+00:00,0,0
2023-11-28T01:30:23.812307270+00:00,0,1
2023-11-28T01:30:23.812307340+00:00,0,0
2023-11-28T01:30:23.894796980+00:00,1,0
2023-11-28T01:30:23.894847010+00:00,0,0
2023-11-28T01:30:23.903536010+00:00,0,1
2023-11-28T01:30:23.903536070+00:00,0,0
2023-11-28T01:30:23.994796790+00:00,1,0
2023-11-28T01:30:23.994846810+00:00,0,0
2023-11-28T01:30:24.013536660+00:00,0,1
2023-11-28T01:30:24.013536730+00:00,0,0
2023-11-28T01:30:24.094796590+00:00,1,0
2023-11-28T01:30:24.094846610+00:00,0,0
2023-11-28T01:30:24.112171740+00:00,0,1
2023-11-28T01:30:24.112171810+00:00,0,0
2023-11-28T01:30:24.194796390+00:00,1,0
2023-11-28T01:30:24.194846410+00:00,0,0
2023-11-28T01:30:24.212159090+00:00,0,1
2023-11-28T01:30:24.212159150+00:00,0,0
2023-11-28T01:30:24.294796190+00:00,1,0
2023-11-28T01:30:24.294846220+00:00,0,0
2023-11-28T01:30:24.308525710+00:00,0,1
2023-11-28T01:30:24.308525780+00:00,0,0
2023-11-28T01:30:24.394796000+00:00,1,0
2023-11-28T01:30:24.394846020+00:00,0,0
2023-11-28T01:30:24.413371120+00:00,0,1
2023-11-28T01:30:24.413371180+00:00,0,0
2023-11-28T01:30:24.494795800+00:00,1,0
2023-11-28T01:30:24.494845820+00:00,0,0
2023-11-28T01:30:24.512058150+00:00,0,1
2023-11-28T01:30:24.512058220+00:00,0,0
2023-11-28T01:30:24.594795600+00:00,1,0
2023-11-28T01:30:24.594845620+00:00,0,0
2023-11-28T01:30:24.612071680+00:00,0,1
2023-11-28T01:30:24.612071750+00:00,0,0
2023-11-28T01:30:24.694795410+00:00,1,0
2023-11-28T01:30:24.694845430+00:00,0,0
2023-11-28T01:30:24.712063420+00:00,0,1
2023-11-28T01:30:24.712063490+00:00,0,0
2023-11-28T01:30:24.794795210+00:00,1,0
2023-11-28T01:30:24.794845230+00:00,0,0
2023-11-28T01:30:24.813444270+00:00,0,1
2023-11-28T01:30:24.813444340+00:00,0,0
2023-11-28T01:30:24.894795010+00:00,1,0
2023-11-28T01:30:24.894845030+00:00,0,0
2023-11-28T01:30:24.912068370+00:00,0,1
2023-11-28T01:30:24.912068440+00:00,0,0
2023-11-28T01:30:24.994794810+00:00,1,0
2023-11-28T01:30:24.994844830+00:00,0,0
2023-11-28T01:30:25.012066750+00:00,0,1
2023-11-28T01:30:25.012066820+00:00,0,0
2023-11-28T01:30:25.094794610+00:00,1,0
2023-11-28T01:30:25.094844640+00:00,0,0
2023-11-28T01:30:25.104812720+00:00,0,1
2023-11-28T01:30:25.104812790+00:00,0,0
2023-11-28T01:30:25.194794420+00:00,1,0
2023-11-28T01:30:25.194844440+00:00,0,0
2023-11-28T01:30:25.212069640+00:00,0,1
2023-11-28T01:30:25.212069710+00:00,0,0
2023-11-28T01:30:25.294794220+00:00,1,0
2023-11-28T01:30:25.294844240+00:00,0,0
2023-11-28T01:30:25.312376130+00:00,0,1
2023-11-28T01:30:25.312376200+00:00,0,0
2023-11-28T01:30:25.394794020+00:00,1,0
2023-11-28T01:30:25.394844040+00:00,0,0
2023-11-28T01:30:25.412074760+00:00,0,1
2023-11-28T01:30:25.412074830+00:00,0,0
2023-11-28T01:30:25.494793820+00:00,1,0
2023-11-28T01:30:25.494843850+00:00,0,0
2023-11-28T01:30:25.512075150+00:00,0,1
2023-11-28T01:30:25.512075220+00:00,0,0
2023-11-28T01:30:25.594793630+00:00,1,0
2023-11-28T01:30:25.594843650+00:00,0,0
2023-11-28T01:30:25.612077710+00:00,0,1
2023-11-28T01:30:25.612077780+00:00,0,0
2023-11-28T01:30:25.694793430+00:00,1,0
2023-11-28T01:30:25.694843450+00:00,0,0
2023-11-28T01:30:25.705754960+00:00,0,1
2023-11-28T01:30:25.705755020+00:00,0,0
2023-11-28T01:30:25.794793230+00:00,1,0
2023-11-28T01:30:25.794843250+00:00,0,0
2023-11-28T01:30:25.812115480+00:00,0,1
2023-11-28T01:30:25.812115550+00:00,0,0
2023-11-28T01:30:25.894793030+00:00,1,0
2023-11-28T01:30:25.894843060+00:00,0,0
2023-11-28T01:30:25.916009960+00:00,0,1
2023-11-28T01:30:25.916010030+00:00,0,0
2023-11-28T01:30:25.994792840+00:00,1,0
2023-11-28T01:30:25.994842860+00:00,0,0
2023-11-28T01:30:26.013290590+00:00,0,1
2023-11-28T01:30:26.013290650+00:00,0,0
2023-11-28T01:30:26.094792640+00:00,1,0
2023-11-28T01:30:26.094842660+00:00,0,0
2023-11-28T01:30:26.119713980+00:00,0,1
2023-11-28T01:30:26.119714040+00:00,0,0
2023-11-28T01:30:26.194792440+00:00,1,0
2023-11-28T01:30:26.194842460+00:00,0,0
2023-11-28T01:30:26.212216940+00:00,0,1
2023-11-28T01:30:26.212217000+00:00,0,0
2023-11-28T01:30:26.294792240+00:00,1,0
2023-11-28T01:30:26.294842270+00:00,0,0
2023-11-28T01:30:26.312199810+00:00,0,1
2023-11-28T01:30:26.312199880+00:00,0,0
2023-11-28T01:30:26.394792040+00:00,1,0
2023-11-28T01:30:26.394842070+00:00,0,0
2023-11-28T01:30:26.415981550+00:00,0,1
2023-11-28T01:30:26.415981610+00:00,0,0
2023-11-28T01:30:26.494791850+00:00,1,0
2023-11-28T01:30:26.494841870+00:00,0,0
2023-11-28T01:30:26.513392280+00:00,0,1
2023-11-28T01:30:26.513392350+00:00,0,0
2023-11-28T01:30:26.594791650+00:00,1,0
2023-11-28T01:30:26.594841670+00:00,0,0
2023-11-28T01:30:26.612086030+00:00,0,1
2023-11-28T01:30:26.612086100+00:00,0,0
2023-11-28T01:30:26.694791450+00:00,1,0
2023-11-28T01:30:26.694841470+00:00,0,0
2023-11-28T01:30:26.712108120+00:00,0,1
2023-11-28T01:30:26.712108190+00:00,0,0
2023-11-28T01:30:26.794791250+00:00,1,0
2023-11-28T01:30:26.794841270+00:00,0,0
2023-11-28T01:30:26.803597320+00:00,0,1
2023-11-28T01:30:26.803597390+00:00,0,0
2023-11-28T01:30:26.894791060+00:00,1,0
2023-11-28T01:30:26.894841080+00:00,0,0
2023-11-28T01:30:26.912093610+00:00,0,1
2023-11-28T01:30:26.912093670+00:00,0,0
2023-11-28T01:30:26.994790860+00:00,1,0
2023-11-28T01:30:26.994840880+00:00,0,0
2023-11-28T01:30:27.012426200+00:00,0,1
2023-11-28T01:30:27.012426270+00:00,0,0
2023-11-28T01:30:27.094790660+00:00,1,0
2023-11-28T01:30:27.094840680+00:00,0,0
2023-11-28T01:30:27.112096580+00:00,0,1
2023-11-28T01:30:27.112096650+00:00,0,0
2023-11-28T01:30:27.194790460+00:00,1,0
2023-11-28T01:30:27.194840480+00:00,0,0
2023-11-28T01:30:27.212105710+00:00,0,1
2023-11-28T01:30:27.212105780+00:00,0,0
2023-11-28T01:30:27.294790260+00:00,1,0
2023-11-28T01:30:27.294840290+00:00,0,0
2023-11-28T01:30:27.312093080+00:00,0,1
2023-11-28T01:30:27.312093150+00:00,0,0
2023-11-28T01:30:27.394790070+00:00,1,0
2023-11-28T01:30:27.394840090+00:00,0,0
2023-11-28T01:30:27.406128550+00:00,0,1
2023-11-28T01:30:27.406128620+00:00,0,0
2023-11-28T01:30:27.494789870+00:00,1,0
2023-11-28T01:30:27.494839890+00:00,0,0
2023-11-28T01:30:27.515857700+00:00,0,1
2023-11-28T01:30:27.515857770+00:00,0,0
2023-11-28T01:30:27.594789670+00:00,1,0
2023-11-28T01:30:27.594839690+00:00,0,0
2023-11-28T01:30:27.603613410+00:00,0,1
2023-11-28T01:30:27.603613480+00:00,0,0
2023-11-28T01:30:27.694789470+00:00,1,0
2023-11-28T01:30:27.694839490+00:00,0,0
2023-11-28T01:30:27.713581450+00:00,0,1
2023-11-28T01:30:27.713581520+00:00,0,0
2023-11-28T01:30:27.794789270+00:00,1,0
2023-11-28T01:30:27.794839300+00:00,0,0
2023-11-28T01:30:27.813356090+00:00,0,1
2023-11-28T01:30:27.813356160+00:00,0,0
2023-11-28T01:30:27.894789080+00:00,1,0
2023-11-28T01:30:27.894839100+00:00,0,0
2023-11-28T01:30:27.912427470+00:00,0,1
2023-11-28T01:30:27.912427530+00:00,0,0
2023-11-28T01:30:27.994788880+00:00,1,0
2023-11-28T01:30:27.994838900+00:00,0,0
2023-11-28T01:30:28.012108810+00:00,0,1
2023-11-28T01:30:28.012108880+00:00,0,0
2023-11-28T01:30:28.094788680+00:00,1,0
2023-11-28T01:30:28.094838700+00:00,0,0
2023-11-28T01:30:28.112115810+00:00,0,1
2023-11-28T01:30:28.112115870+00:00,0,0
2023-11-28T01:30:28.194788480+00:00,1,0
2023-11-28T01:30:28.194838500+00:00,0,0
2023-11-28T01:30:28.212087910+00:00,0,1
2023-11-28T01:30:28.212087980+00:00,0,0
2023-11-28T01:30:28.294788280+00:00,1,0
2023-11-28T01:30:28.294838300+00:00,0,0
2023-11-28T01:30:28.312442170+00:00,0,1
2023-11-28T01:30:28.312442230+00:00,0,0
2023-11-28T01:30:28.394788080+00:00,1,0
2023-11-28T01:30:28.394838110+00:00,0,0
2023-11-28T01:30:28.412123450+00:00,0,1
2023-11-28T01:30:28.412123520+00:00,0,0
2023-11-28T01:30:28.494787890+00:00,1,0
2023-11-28T01:30:28.494837910+00:00,0,0
2023-11-28T01:30:28.512247560+00:00,0,1
2023-11-28T01:30:28.512247630+00:00,0,0
2023-11-28T01:30:28.594787690+00:00,1,0
2023-11-28T01:30:28.594837710+00:00,0,0
2023-11-28T01:30:28.612161070+00:00,0,1
2023-11-28T01:30:28.612161140+00:00,0,0
2023-11-28T01:30:28.694787490+00:00,1,0
2023-11-28T01:30:28.694837510+00:00,0,0
2023-11-28T01:30:28.705764510+00:00,0,1
2023-11-28T01:30:28.705764580+00:00,0,0
2023-11-28T01:30:28.794787290+00:00,1,0
2023-11-28T01:30:28.794837310+00:00,0,0
2023-11-28T01:30:28.819763550+00:00,0,1
2023-11-28T01:30:28.819763620+00:00,0,0
2023-11-28T01:30:28.894787090+00:00,1,0
2023-11-28T01:30:28.894837110+00:00,0,0
2023-11-28T01:30:28.904855860+00:00,0,1
2023-11-28T01:30:28.904855930+00:00,0,0
2023-11-28T01:30:28.994786890+00:00,1,0
2023-11-28T01:30:28.994836910+00:00,0,0
2023-11-28T01:30:29.012136520+00:00,0,1
2023-11-28T01:30:29.012136580+00:00,0,0
2023-11-28T01:30:29.094786690+00:00,1,0
2023-11-28T01:30:29.094836720+00:00,0,0
2023-11-28T01:30:29.103634460+00:00,0,1
2023-11-28T01:30:29.103634520+00:00,0,0
2023-11-28T01:30:29.194786500+00:00,1,0
2023-11-28T01:30:29.194836520+00:00,0,0
2023-11-28T01:30:29.213389740+00:00,0,1
2023-11-28T01:30:29.213389800+00:00,0,0
2023-11-28T01:30:29.294786300+00:00,1,0
2023-11-28T01:30:29.294836320+00:00,0,0
2023-11-28T01:30:29.314497230+00:00,0,1
2023-11-28T01:30:29.314497300+00:00,0,0
2023-11-28T01:30:29.394786100+00:00,1,0
2023-11-28T01:30:29.394836120+00:00,0,0
2023-11-28T01:30:29.412135980+00:00,0,1
2023-11-28T01:30:29.412136050+00:00,0,0
2023-11-28T01:30:29.494785900+00:00,1,0
2023-11-28T01:30:29.494835920+00:00,0,0
2023-11-28T01:30:29.512134250+00:00,0,1
2023-11-28T01:30:29.512134310+00:00,0,0
2023-11-28T01:30:29.594785700+00:00,1,0
2023-11-28T01:30:29.594835720+00:00,0,0
2023-11-28T01:30:29.603638590+00:00,0,1
2023-11-28T01:30:29.603638660+00:00,0,0
2023-11-28T01:30:29.694785500+00:00,1,0
2023-11-28T01:30:29.694835520+00:00,0,0
2023-11-28T01:30:29.712454110+00:00,0,1
2023-11-28T01:30:29.712454170+00:00,0,0
2023-11-28T01:30:29.794785300+00:00,1,0
2023-11-28T01:30:29.794835330+00:00,0,0
2023-11-28T01:30:29.812146120+00:00,0,1
2023-11-28T01:30:29.812146190+00:00,0,0
2023-11-28T01:30:29.894785100+00:00,1,0
2023-11-28T01:30:29.894835130+00:00,0,0
2023-11-28T01:30:29.912146680+00:00,0,1
2023-11-28T01:30:29.912146750+00:00,0,0
2023-11-28T01:30:29.994784910+00:00,1,0
2023-11-28T01:30:29.994834930+00:00,0,0
2023-11-28T01:30:30.012138290+00:00,0,1
2023-11-28T01:30:30.012138350+00:00,0,0
2023-11-28T01:30:30.094784710+00:00,1,0
2023-11-28T01:30:30.094834730+00:00,0,0
2023-11-28T01:30:30.112477270+00:00,0,1
2023-11-28T01:30:30.112477340+00:00,0,0
2023-11-28T01:30:30.194784510+00:00,1,0
2023-11-28T01:30:30.194834530+00:00,0,0
2023-11-28T01:30:30.212143380+00:00,0,1
2023-11-28T01:30:30.212143450+00:00,0,0
2023-11-28T01:30:30.294784310+00:00,1,0
2023-11-28T01:30:30.294834330+00:00,0,0
2023-11-28T01:30:30.314935380+00:00,0,1
2023-11-28T01:30:30.314935440+00:00,0,0
2023-11-28T01:30:30.394784110+00:00,1,0
2023-11-28T01:30:30.394834130+00:00,0,0
2023-11-28T01:30:30.412144220+00:00,0,1
2023-11-28T01:30:30.412144290+00:00,0,0
2023-11-28T01:30:30.494783910+00:00,1,0
2023-11-28T01:30:30.494833930+00:00,0,0
2023-11-28T01:30:30.505020460+00:00,0,1
2023-11-28T01:30:30.505020530+00:00,0,0
2023-11-28T01:30:30.594783710+00:00,1,0
2023-11-28T01:30:30.594833730+00:00,0,0
2023-11-28T01:30:30.613275980+00:00,0,1
2023-11-28T01:30:30.613276050+00:00,0,0
2023-11-28T01:30:30.694783510+00:00,1,0
2023-11-28T01:30:30.694833530+00:00,0,0
2023-11-28T01:30:30.712145360+00:00,0,1
2023-11-28T01:30:30.712145420+00:00,0,0
2023-11-28T01:30:30.794783310+00:00,1,0
2023-11-28T01:30:30.794833340+00:00,0,0
2023-11-28T01:30:30.812158720+00:00,0,1
2023-11-28T01:30:30.812158790+00:00,0,0
2023-11-28T01:30:30.894783110+00:00,1,0
2023-11-28T01:30:30.894833140+00:00,0,0
2023-11-28T01:30:30.913433310+00:00,0,1
2023-11-28T01:30:30.913433380+00:00,0,0
2023-11-28T01:30:30.994782920+00:00,1,0
2023-11-28T01:30:30.994832940+00:00,0,0
2023-11-28T01:30:31.012218180+00:00,0,1
2023-11-28T01:30:31.012218250+00:00,0,0
2023-11-28T01:30:31.094782720+00:00,1,0
2023-11-28T01:30:31.094832740+00:00,0,0
2023-11-28T01:30:31.103672740+00:00,0,1
2023-11-28T01:30:31.103672810+00:00,0,0
2023-11-28T01:30:31.194782520+00:00,1,0
2023-11-28T01:30:31.194832540+00:00,0,0
2023-11-28T01:30:31.212158150+00:00,0,1
2023-11-28T01:30:31.212158220+00:00,0,0
2023-11-28T01:30:31.294782320+00:00,1,0
2023-11-28T01:30:31.294832340+00:00,0,0
2023-11-28T01:30:31.314941270+00:00,0,1
2023-11-28T01:30:31.314941340+00:00,0,0
2023-11-28T01:30:31.394782120+00:00,1,0
2023-11-28T01:30:31.394832140+00:00,0,0
2023-11-28T01:30:31.412482380+00:00,0,1
2023-11-28T01:30:31.412482440+00:00,0,0
2023-11-28T01:30:31.494781920+00:00,1,0
2023-11-28T01:30:31.494831940+00:00,0,0
2023-11-28T01:30:31.512159360+00:00,0,1
2023-11-28T01:30:31.512159420+00:00,0,0
2023-11-28T01:30:31.594781720+00:00,1,0
2023-11-28T01:30:31.594831740+00:00,0,0
2023-11-28T01:30:31.612161850+00:00,0,1
2023-11-28T01:30:31.612161920+00:00,0,0
2023-11-28T01:30:31.694781520+00:00,1,0
2023-11-28T01:30:31.694831540+00:00,0,0
2023-11-28T01:30:31.712164440+00:00,0,1
2023-11-28T01:30:31.712164510+00:00,0,0
2023-11-28T01:30:31.794781320+00:00,1,0
2023-11-28T01:30:31.794831340+00:00,0,0
2023-11-28T01:30:31.812494820+00:00,0,1
2023-11-28T01:30:31.812494890+00:00,0,0
2023-11-28T01:30:31.894781120+00:00,1,0
2023-11-28T01:30:31.894831140+00:00,0,0
2023-11-28T01:30:31.912169570+00:00,0,1
2023-11-28T01:30:31.912169640+00:00,0,0
2023-11-28T01:30:31.994780920+00:00,1,0
2023-11-28T01:30:31.994830940+00:00,0,0
2023-11-28T01:30:32.012176530+00:00,0,1
2023-11-28T01:30:32.012176600+00:00,0,0
2023-11-28T01:30:32.094780720+00:00,1,0
2023-11-28T01:30:32.094830740+00:00,0,0
2023-11-28T01:30:32.112168130+00:00,0,1
2023-11-28T01:30:32.112168190+00:00,0,0
2023-11-28T01:30:32.194780520+00:00,1,0
2023-11-28T01:30:32.194830540+00:00,0,0
2023-11-28T01:30:32.217434610+00:00,0,1
2023-11-28T01:30:32.217434680+00:00,0,0
2023-11-28T01:30:32.294780320+00:00,1,0
2023-11-28T01:30:32.294830340+00:00,0,0
2023-11-28T01:30:32.312173220+00:00,0,1
2023-11-28T01:30:32.312173280+00:00,0,0
2023-11-28T01:30:32.394780120+00:00,1,0
2023-11-28T01:30:32.394830140+00:00,0,0
2023-11-28T01:30:32.403684190+00:00,0,1
2023-11-28T01:30:32.403684260+00:00,0,0
2023-11-28T01:30:32.494779920+00:00,1,0
2023-11-28T01:30:32.494829940+00:00,0,0
2023-11-28T01:30:32.512184960+00:00,0,1
2023-11-28T01:30:32.512185030+00:00,0,0
2023-11-28T01:30:32.594779720+00:00,1,0
2023-11-28T01:30:32.594829740+00:00,0,0
2023-11-28T01:30:32.607446780+00:00,0,1
2023-11-28T01:30:32.607446840+00:00,0,0
2023-11-28T01:30:32.694779520+00:00,1,0
2023-11-28T01:30:32.694829540+00:00,0,0
2023-11-28T01:30:32.712502670+00:00,0,1
2023-11-28T01:30:32.712502740+00:00,0,0
2023-11-28T01:30:32.794779320+00:00,1,0
2023-11-28T01:30:32.794829340+00:00,0,0
2023-11-28T01:30:32.812181670+00:00,0,1
2023-11-28T01:30:32.812181740+00:00,0,0
2023-11-28T01:30:32.894779120+00:00,1,0
2023-11-28T01:30:32.894829140+00:00,0,0
2023-11-28T01:30:32.912182160+00:00,0,1
2023-11-28T01:30:32.912182230+00:00,0,0
2023-11-28T01:30:32.994778920+00:00,1,0
2023-11-28T01:30:32.994828940+00:00,0,0
2023-11-28T01:30:33.014939290+00:00,0,1
2023-11-28T01:30:33.014939360+00:00,0,0
2023-11-28T01:30:33.094778720+00:00,1,0
2023-11-28T01:30:33.094828740+00:00,0,0
2023-11-28T01:30:33.113404900+00:00,0,1
2023-11-28T01:30:33.113404970+00:00,0,0
2023-11-28T01:30:33.194778520+00:00,1,0
2023-11-28T01:30:33.194828540+00:00,0,0
2023-11-28T01:30:33.226205770+00:00,0,1
2023-11-28T01:30:33.226205840+00:00,0,0
2023-11-28T01:30:33.294778320+00:00,1,0
2023-11-28T01:30:33.294828340+00:00,0,0
2023-11-28T01:30:33.312324700+00:00,0,1
2023-11-28T01:30:33.312324770+00:00,0,0
2023-11-28T01:30:33.394778120+00:00,1,0
2023-11-28T01:30:33.394828140+00:00,0,0
2023-11-28T01:30:33.412333930+00:00,0,1
2023-11-28T01:30:33.412334000+00:00,0,0
2023-11-28T01:30:33.494777920+00:00,1,0
2023-11-28T01:30:33.494827940+00:00,0,0
2023-11-28T01:30:33.513415280+00:00,0,1
2023-11-28T01:30:33.513415350+00:00,0,0
2023-11-28T01:30:33.594777720+00:00,1,0
2023-11-28T01:30:33.594827740+00:00,0,0
2023-11-28T01:30:33.612256550+00:00,0,1
2023-11-28T01:30:33.612256620+00:00,0,0
2023-11-28T01:30:33.694777520+00:00,1,0
2023-11-28T01:30:33.694827540+00:00,0,0
2023-11-28T01:30:33.703700230+00:00,0,1
2023-11-28T01:30:33.703700300+00:00,0,0
2023-11-28T01:30:33.794777320+00:00,1,0
2023-11-28T01:30:33.794827340+00:00,0,0
2023-11-28T01:30:33.812205160+00:00,0,1
2023-11-28T01:30:33.812205230+00:00,0,0
2023-11-28T01:30:33.894777120+00:00,1,0
2023-11-28T01:30:33.894827140+00:00,0,0
2023-11-28T01:30:33.913505890+00:00,0,1
2023-11-28T01:30:33.913505950+00:00,0,0
2023-11-28T01:30:33.994776920+00:00,1,0
2023-11-28T01:30:33.994826940+00:00,0,0
2023-11-28T01:30:34.012199480+00:00,0,1
2023-11-28T01:30:34.012199550+00:00,0,0
2023-11-28T01:30:34.094776720+00:00,1,0
2023-11-28T01:30:34.094826740+00:00,0,0
2023-11-28T01:30:34.112197610+00:00,0,1
2023-11-28T01:30:34.112197680+00:00,0,0
2023-11-28T01:30:34.194776520+00:00,1,0
2023-11-28T01:30:34.194826540+00:00,0,0
2023-11-28T01:30:34.213450480+00:00,0,1
2023-11-28T01:30:34.213450540+00:00,0,0
2023-11-28T01:30:34.294776320+00:00,1,0
2023-11-28T01:30:34.294826340+00:00,0,0
2023-11-28T01:30:34.313500850+00:00,0,1
2023-11-28T01:30:34.313500920+00:00,0,0
2023-11-28T01:30:34.394776120+00:00,1,0
2023-11-28T01:30:34.394826140+00:00,0,0
2023-11-28T01:30:34.403683290+00:00,0,1
2023-11-28T01:30:34.403683360+00:00,0,0
2023-11-28T01:30:34.494775920+00:00,1,0
2023-11-28T01:30:34.494825940+00:00,0,0
2023-11-28T01:30:34.512205720+00:00,0,1
2023-11-28T01:30:34.512205790+00:00,0,0
2023-11-28T01:30:34.594775720+00:00,1,0
2023-11-28T01:30:34.594825740+00:00,0,0
2023-11-28T01:30:34.612216950+00:00,0,1
2023-11-28T01:30:34.612217020+00:00,0,0
2023-11-28T01:30:34.694775520+00:00,1,0
2023-11-28T01:30:34.694825540+00:00,0,0
2023-11-28T01:30:34.712447430+00:00,0,1
2023-11-28T01:30:34.712447500+00:00,0,0
2023-11-28T01:30:34.794775320+00:00,1,0
2023-11-28T01:30:34.794825340+00:00,0,0
2023-11-28T01:30:34.812530430+00:00,0,1
2023-11-28T01:30:34.812530490+00:00,0,0
2023-11-28T01:30:34.894775120+00:00,1,0
2023-11-28T01:30:34.894825140+00:00,0,0
2023-11-28T01:30:34.912209420+00:00,0,1
2023-11-28T01:30:34.912209490+00:00,0,0
2023-11-28T01:30:34.994774920+00:00,1,0
2023-11-28T01:30:34.994824940+00:00,0,0
2023-11-28T01:30:35.012207660+00:00,0,1
2023-11-28T01:30:35.012207730+00:00,0,0
2023-11-28T01:30:35.094774720+00:00,1,0
2023-11-28T01:30:35.094824740+00:00,0,0
2023-11-28T01:30:35.112225400+00:00,0,1
2023-11-28T01:30:35.112225460+00:00,0,0
2023-11-28T01:30:35.194774520+00:00,1,0
2023-11-28T01:30:35.194824540+00:00,0,0
2023-11-28T01:30:35.212505800+00:00,0,1
2023-11-28T01:30:35.212505870+00:00,0,0
2023-11-28T01:30:35.294774320+00:00,1,0
2023-11-28T01:30:35.294824340+00:00,0,0
2023-11-28T01:30:35.314900400+00:00,0,1
2023-11-28T01:30:35.314900470+00:00,0,0
2023-11-28T01:30:35.394774110+00:00,1,0
2023-11-28T01:30:35.394824140+00:00,0,0
2023-11-28T01:30:35.412215720+00:00,0,1
2023-11-28T01:30:35.412215780+00:00,0,0
2023-11-28T01:30:35.494773910+00:00,1,0
2023-11-28T01:30:35.494823940+00:00,0,0
2023-11-28T01:30:35.512211690+00:00,0,1
2023-11-28T01:30:35.512211760+00:00,0,0
2023-11-28T01:30:35.594773710+00:00,1,0
2023-11-28T01:30:35.594823730+00:00,0,0
2023-11-28T01:30:35.612546440+00:00,0,1
2023-11-28T01:30:35.612546500+00:00,0,0
2023-11-28T01:30:35.694773510+00:00,1,0
2023-11-28T01:30:35.694823540+00:00,0,0
2023-11-28T01:30:35.716147830+00:00,0,1
2023-11-28T01:30:35.716147900+00:00,0,0
2023-11-28T01:30:35.794773310+00:00,1,0
2023-11-28T01:30:35.794823330+00:00,0,0
2023-11-28T01:30:35.812471280+00:00,0,1
2023-11-28T01:30:35.812471340+00:00,0,0
2023-11-28T01:30:35.894773110+00:00,1,0
2023-11-28T01:30:35.894823130+00:00,0,0
