Time [s],Channel 0,Channel 1
2023-11-28T01:20:49.184649000+00:00,0,0
2023-11-28T01:20:49.218762810+00:00,1,0
2023-11-28T01:20:49.218812830+00:00,0,0
2023-11-28T01:20:49.293104940+00:00,0,1
2023-11-28T01:20:49.293105010+00:00,0,0
2023-11-28T01:20:49.368762690+00:00,1,0
2023-11-28T01:20:49.368812720+00:00,0,0
2023-11-28T01:20:49.427605940+00:00,0,1
2023-11-28T01:20:49.427606010+00:00,0,0
2023-11-28T01:20:49.518762580+00:00,1,0
2023-11-28T01:20:49.518812600+00:00,0,0
2023-11-28T01:20:49.579791380+00:00,0,1
2023-11-28T01:20:49.579791450+00:00,0,0
2023-11-28T01:20:49.668762470+00:00,1,0
2023-11-28T01:20:49.668812490+00:00,0,0
2023-11-28T01:20:49.735339330+00:00,0,1
2023-11-28T01:20:49.735339400+00:00,0,0
2023-11-28T01:20:49.818762350+00:00,1,0
2023-11-28T01:20:49.818812370+00:00,0,0
2023-11-28T01:20:49.879732100+00:00,0,1
2023-11-28T01:20:49.879732170+00:00,0,0
2023-11-28T01:20:49.968762240+00:00,1,0
2023-11-28T01:20:49.968812260+00:00,0,0
2023-11-28T01:20:50.034105690+00:00,0,1
2023-11-28T01:20:50.034105750+00:00,0,0
2023-11-28T01:20:50.118762120+00:00,1,0
2023-11-28T01:20:50.118812140+00:00,0,0
2023-11-28T01:20:50.179384100+00:00,0,1
2023-11-28T01:20:50.179384170+00:00,0,0
2023-11-28T01:20:50.268762010+00:00,1,0
2023-11-28T01:20:50.268812030+00:00,0,0
2023-11-28T01:20:50.334098450+00:00,0,1
2023-11-28T01:20:50.334098520+00:00,0,0
2023-11-28T01:20:50.418761890+00:00,1,0
2023-11-28T01:20:50.418811920+00:00,0,0
2023-11-28T01:20:50.484781840+00:00,0,1
2023-11-28T01:20:50.484781910+00:00,0,0
2023-11-28T01:20:50.568761780+00:00,1,0
2023-11-28T01:20:50.568811800+00:00,0,0
2023-11-28T01:20:50.634108510+00:00,0,1
2023-11-28T01:20:50.634108570+00:00,0,0
2023-11-28T01:20:50.718761660+00:00,1,0
2023-11-28T01:20:50.718811690+00:00,0,0
2023-11-28T01:20:50.779860290+00:00,0,1
2023-11-28T01:20:50.779860360+00:00,0,0
2023-11-28T01:20:50.868761550+00:00,1,0
2023-11-28T01:20:50.868811570+00:00,0,0
2023-11-28T01:20:50.940359320+00:00,0,1
2023-11-28T01:20:50.940359390+00:00,0,0
2023-11-28T01:20:51.018761430+00:00,1,0
2023-11-28T01:20:51.018811460+00:00,0,0
2023-11-28T01:20:51.079870220+00:00,0,1
2023-11-28T01:20:51.079870280+00:00,0,0
2023-11-28T01:20:51.168761320+00:00,1,0
2023-11-28T01:20:51.168811340+00:00,0,0
2023-11-28T01:20:51.233393040+00:00,0,1
2023-11-28T01:20:51.233393100+00:00,0,0
2023-11-28T01:20:51.318761210+00:00,1,0
2023-11-28T01:20:51.318811230+00:00,0,0
2023-11-28T01:20:51.382704450+00:00,0,1
2023-11-28T01:20:51.382704520+00:00,0,0
2023-11-28T01:20:51.468761090+00:00,1,0
2023-11-28T01:20:51.468811110+00:00,0,0
2023-11-28T01:20:51.540618380+00:00,0,1
2023-11-28T01:20:51.540618440+00:00,0,0
2023-11-28T01:20:51.618760980+00:00,1,0
2023-11-28T01:20:51.618810990+00:00,0,0
2023-11-28T01:20:51.682106890+00:00,0,1
2023-11-28T01:20:51.682106950+00:00,0,0
2023-11-28T01:20:51.768760860+00:00,1,0
2023-11-28T01:20:51.768810880+00:00,0,0
2023-11-28T01:20:51.839219820+00:00,0,1
2023-11-28T01:20:51.839219890+00:00,0,0
2023-11-28T01:20:51.918760740+00:00,1,0
2023-11-28T01:20:51.918810760+00:00,0,0
2023-11-28T01:20:51.983102350+00:00,0,1
2023-11-28T01:20:51.983102420+00:00,0,0
2023-11-28T01:20:52.068760630+00:00,1,0
2023-11-28T01:20:52.068810650+00:00,0,0
2023-11-28T01:20:52.129676720+00:00,0,1
2023-11-28T01:20:52.129676790+00:00,0,0
2023-11-28T01:20:52.218760510+00:00,1,0
2023-11-28T01:20:52.218810530+00:00,0,0
2023-11-28T01:20:52.280900540+00:00,0,1
2023-11-28T01:20:52.280900610+00:00,0,0
2023-11-28T01:20:52.368760400+00:00,1,0
2023-11-28T01:20:52.368810420+00:00,0,0
2023-11-28T01:20:52.427824470+00:00,0,1
2023-11-28T01:20:52.427824530+00:00,0,0
2023-11-28T01:20:52.518760280+00:00,1,0
2023-11-28T01:20:52.518810300+00:00,0,0
2023-11-28T01:20:52.575162770+00:00,0,1
2023-11-28T01:20:52.575162830+00:00,0,0
2023-11-28T01:20:52.668760170+00:00,1,0
2023-11-28T01:20:52.668810190+00:00,0,0
2023-11-28T01:20:52.725166800+00:00,0,1
2023-11-28T01:20:52.725166870+00:00,0,0
2023-11-28T01:20:52.818760050+00:00,1,0
2023-11-28T01:20:52.818810070+00:00,0,0
2023-11-28T01:20:52.897124830+00:00,0,1
2023-11-28T01:20:52.897124890+00:00,0,0
2023-11-28T01:20:52.968759930+00:00,1,0
2023-11-28T01:20:52.968809950+00:00,0,0
2023-11-28T01:20:53.029485690+00:00,0,1
2023-11-28T01:20:53.029485750+00:00,0,0
2023-11-28T01:20:53.118759820+00:00,1,0
2023-11-28T01:20:53.118809840+00:00,0,0
2023-11-28T01:20:53.189455150+00:00,0,1
2023-11-28T01:20:53.189455220+00:00,0,0
2023-11-28T01:20:53.268759700+00:00,1,0
2023-11-28T01:20:53.268809720+00:00,0,0
2023-11-28T01:20:53.333396570+00:00,0,1
2023-11-28T01:20:53.333396630+00:00,0,0
2023-11-28T01:20:53.418759580+00:00,1,0
2023-11-28T01:20:53.418809610+00:00,0,0
2023-11-28T01:20:53.480305080+00:00,0,1
2023-11-28T01:20:53.480305150+00:00,0,0
2023-11-28T01:20:53.568759470+00:00,1,0
2023-11-28T01:20:53.568809490+00:00,0,0
2023-11-28T01:20:53.628487890+00:00,0,1
2023-11-28T01:20:53.628487960+00:00,0,0
2023-11-28T01:20:53.718759350+00:00,1,0
2023-11-28T01:20:53.718809370+00:00,0,0
2023-11-28T01:20:53.777619130+00:00,0,1
2023-11-28T01:20:53.777619200+00:00,0,0
2023-11-28T01:20:53.868759230+00:00,1,0
2023-11-28T01:20:53.868809250+00:00,0,0
2023-11-28T01:20:53.931417590+00:00,0,1
2023-11-28T01:20:53.931417660+00:00,0,0
2023-11-28T01:20:54.018759120+00:00,1,0
2023-11-28T01:20:54.018809140+00:00,0,0
2023-11-28T01:20:54.092105450+00:00,0,1
2023-11-28T01:20:54.092105520+00:00,0,0
2023-11-28T01:20:54.168759000+00:00,1,0
2023-11-28T01:20:54.168809020+00:00,0,0
2023-11-28T01:20:54.230578890+00:00,0,1
2023-11-28T01:20:54.230578960+00:00,0,0
2023-11-28T01:20:54.318758880+00:00,1,0
2023-11-28T01:20:54.318808900+00:00,0,0
2023-11-28T01:20:54.383372190+00:00,0,1
2023-11-28T01:20:54.383372260+00:00,0,0
2023-11-28T01:20:54.468758760+00:00,1,0
2023-11-28T01:20:54.468808790+00:00,0,0
2023-11-28T01:20:54.539608080+00:00,0,1
2023-11-28T01:20:54.539608140+00:00,0,0
2023-11-28T01:20:54.618758650+00:00,1,0
2023-11-28T01:20:54.618808670+00:00,0,0
2023-11-28T01:20:54.682917700+00:00,0,1
2023-11-28T01:20:54.682917770+00:00,0,0
2023-11-28T01:20:54.768758530+00:00,1,0
2023-11-28T01:20:54.768808550+00:00,0,0
2023-11-28T01:20:54.844875530+00:00,0,1
2023-11-28T01:20:54.844875600+00:00,0,0
2023-11-28T01:20:54.918758410+00:00,1,0
2023-11-28T01:20:54.918808430+00:00,0,0
2023-11-28T01:20:54.981981430+00:00,0,1
2023-11-28T01:20:54.981981490+00:00,0,0
2023-11-28T01:20:55.068758290+00:00,1,0
2023-11-28T01:20:55.068808320+00:00,0,0
2023-11-28T01:20:55.131692360+00:00,0,1
2023-11-28T01:20:55.131692430+00:00,0,0
2023-11-28T01:20:55.218758180+00:00,1,0
2023-11-28T01:20:55.218808200+00:00,0,0
2023-11-28T01:20:55.284364260+00:00,0,1
2023-11-28T01:20:55.284364330+00:00,0,0
2023-11-28T01:20:55.368758060+00:00,1,0
2023-11-28T01:20:55.368808080+00:00,0,0
2023-11-28T01:20:55.437007550+00:00,0,1
2023-11-28T01:20:55.437007620+00:00,0,0
2023-11-28T01:20:55.518757940+00:00,1,0
2023-11-28T01:20:55.518807960+00:00,0,0
2023-11-28T01:20:55.579783280+00:00,0,1
2023-11-28T01:20:55.579783340+00:00,0,0
2023-11-28T01:20:55.668757820+00:00,1,0
2023-11-28T01:20:55.668807840+00:00,0,0
2023-11-28T01:20:55.735919520+00:00,0,1
2023-11-28T01:20:55.735919590+00:00,0,0
2023-11-28T01:20:55.818757700+00:00,1,0
2023-11-28T01:20:55.818807720+00:00,0,0
2023-11-28T01:20:55.882936530+00:00,0,1
2023-11-28T01:20:55.882936600+00:00,0,0
2023-11-28T01:20:55.968757580+00:00,1,0
2023-11-28T01:20:55.968807610+00:00,0,0
2023-11-28T01:20:56.024464070+00:00,0,1
2023-11-28T01:20:56.024464130+00:00,0,0
2023-11-28T01:20:56.118757470+00:00,1,0
2023-11-28T01:20:56.118807490+00:00,0,0
2023-11-28T01:20:56.183500180+00:00,0,1
2023-11-28T01:20:56.183500250+00:00,0,0
2023-11-28T01:20:56.268757350+00:00,1,0
2023-11-28T01:20:56.268807370+00:00,0,0
2023-11-28T01:20:56.344233730+00:00,0,1
2023-11-28T01:20:56.344233800+00:00,0,0
2023-11-28T01:20:56.418757230+00:00,1,0
2023-11-28T01:20:56.418807250+00:00,0,0
2023-11-28T01:20:56.477056870+00:00,0,1
2023-11-28T01:20:56.477056940+00:00,0,0
2023-11-28T01:20:56.568757110+00:00,1,0
2023-11-28T01:20:56.568807130+00:00,0,0
2023-11-28T01:20:56.632776200+00:00,0,1
2023-11-28T01:20:56.632776270+00:00,0,0
2023-11-28T01:20:56.718756990+00:00,1,0
2023-11-28T01:20:56.718807010+00:00,0,0
2023-11-28T01:20:56.786051390+00:00,0,1
2023-11-28T01:20:56.786051460+00:00,0,0
2023-11-28T01:20:56.868756870+00:00,1,0
2023-11-28T01:20:56.868806890+00:00,0,0
2023-11-28T01:20:56.931933290+00:00,0,1
2023-11-28T01:20:56.931933350+00:00,0,0
2023-11-28T01:20:57.018756750+00:00,1,0
2023-11-28T01:20:57.018806770+00:00,0,0
2023-11-28T01:20:57.076543010+00:00,0,1
2023-11-28T01:20:57.076543080+00:00,0,0
2023-11-28T01:20:57.168756630+00:00,1,0
2023-11-28T01:20:57.168806650+00:00,0,0
2023-11-28T01:20:57.234224660+00:00,0,1
2023-11-28T01:20:57.234224730+00:00,0,0
2023-11-28T01:20:57.318756510+00:00,1,0
2023-11-28T01:20:57.318806530+00:00,0,0
2023-11-28T01:20:57.370284190+00:00,0,1
2023-11-28T01:20:57.370284260+00:00,0,0
2023-11-28T01:20:57.468756390+00:00,1,0
2023-11-28T01:20:57.468806410+00:00,0,0
2023-11-28T01:20:57.535409080+00:00,0,1
2023-11-28T01:20:57.535409150+00:00,0,0
2023-11-28T01:20:57.618756270+00:00,1,0
2023-11-28T01:20:57.618806290+00:00,0,0
2023-11-28T01:20:57.686715560+00:00,0,1
2023-11-28T01:20:57.686715630+00:00,0,0
2023-11-28T01:20:57.768756150+00:00,1,0
2023-11-28T01:20:57.768806170+00:00,0,0
2023-11-28T01:20:57.845330500+00:00,0,1
2023-11-28T01:20:57.845330570+00:00,0,0
2023-11-28T01:20:57.918756030+00:00,1,0
2023-11-28T01:20:57.918806050+00:00,0,0
2023-11-28T01:20:57.980806110+00:00,0,1
2023-11-28T01:20:57.980806170+00:00,0,0
2023-11-28T01:20:58.068755910+00:00,1,0
2023-11-28T01:20:58.068805930+00:00,0,0
2023-11-28T01:20:58.134745680+00:00,0,1
2023-11-28T01:20:58.134745750+00:00,0,0
2023-11-28T01:20:58.218755790+00:00,1,0
2023-11-28T01:20:58.218805810+00:00,0,0
2023-11-28T01:20:58.281955910+00:00,0,1
2023-11-28T01:20:58.281955980+00:00,0,0
2023-11-28T01:20:58.368755670+00:00,1,0
2023-11-28T01:20:58.368805690+00:00,0,0
2023-11-28T01:20:58.426222820+00:00,0,1
2023-11-28T01:20:58.426222890+00:00,0,0
2023-11-28T01:20:58.518755550+00:00,1,0
2023-11-28T01:20:58.518805570+00:00,0,0
2023-11-28T01:20:58.591493220+00:00,0,1
2023-11-28T01:20:58.591493290+00:00,0,0
2023-11-28T01:20:58.668755430+00:00,1,0
2023-11-28T01:20:58.668805450+00:00,0,0
2023-11-28T01:20:58.741026080+00:00,0,1
2023-11-28T01:20:58.741026150+00:00,0,0
2023-11-28T01:20:58.818755310+00:00,1,0
2023-11-28T01:20:58.818805330+00:00,0,0
2023-11-28T01:20:58.886734360+00:00,0,1
2023-11-28T01:20:58.886734430+00:00,0,0
2023-11-28T01:20:58.968755190+00:00,1,0
2023-11-28T01:20:58.968805210+00:00,0,0
2023-11-28T01:20:59.042160590+00:00,0,1
2023-11-28T01:20:59.042160660+00:00,0,0
2023-11-28T01:20:59.118755060+00:00,1,0
2023-11-28T01:20:59.118805090+00:00,0,0
2023-11-28T01:20:59.183197490+00:00,0,1
2023-11-28T01:20:59.183197560+00:00,0,0
2023-11-28T01:20:59.268754940+00:00,1,0
2023-11-28T01:20:59.268804960+00:00,0,0
2023-11-28T01:20:59.330785610+00:00,0,1
2023-11-28T01:20:59.330785680+00:00,0,0
2023-11-28T01:20:59.418754820+00:00,1,0
2023-11-28T01:20:59.418804840+00:00,0,0
2023-11-28T01:20:59.483016490+00:00,0,1
2023-11-28T01:20:59.483016550+00:00,0,0
2023-11-28T01:20:59.568754700+00:00,1,0
2023-11-28T01:20:59.568804720+00:00,0,0
2023-11-28T01:20:59.629328190+00:00,0,1
2023-11-28T01:20:59.629328260+00:00,0,0
2023-11-28T01:20:59.718754580+00:00,1,0
2023-11-28T01:20:59.718804600+00:00,0,0
2023-11-28T01:20:59.775416310+00:00,0,1
2023-11-28T01:20:59.775416370+00:00,0,0
2023-11-28T01:20:59.868754460+00:00,1,0
2023-11-28T01:20:59.868804480+00:00,0,0
2023-11-28T01:20:59.928003350+00:00,0,1
2023-11-28T01:20:59.928003410+00:00,0,0
2023-11-28T01:21:00.018754340+00:00,1,0
2023-11-28T01:21:00.018804360+00:00,0,0
2023-11-28T01:21:00.079976160+00:00,0,1
2023-11-28T01:21:00.079976230+00:00,0,0
2023-11-28T01:21:00.168754210+00:00,1,0
2023-11-28T01:21:00.168804230+00:00,0,0
2023-11-28T01:21:00.230742130+00:00,0,1
2023-11-28T01:21:00.230742200+00:00,0,0
2023-11-28T01:21:00.318754090+00:00,1,0
2023-11-28T01:21:00.318804110+00:00,0,0
2023-11-28T01:21:00.377787440+00:00,0,1
2023-11-28T01:21:00.377787500+00:00,0,0
2023-11-28T01:21:00.468753970+00:00,1,0
2023-11-28T01:21:00.468803990+00:00,0,0
2023-11-28T01:21:00.537149110+00:00,0,1
2023-11-28T01:21:00.537149180+00:00,0,0
2023-11-28T01:21:00.618753850+00:00,1,0
2023-11-28T01:21:00.618803870+00:00,0,0
2023-11-28T01:21:00.676091250+00:00,0,1
2023-11-28T01:21:00.676091320+00:00,0,0
2023-11-28T01:21:00.768753720+00:00,1,0
2023-11-28T01:21:00.768803740+00:00,0,0
2023-11-28T01:21:00.847990810+00:00,0,1
2023-11-28T01:21:00.847990870+00:00,0,0
2023-11-28T01:21:00.918753600+00:00,1,0
2023-11-28T01:21:00.918803620+00:00,0,0
2023-11-28T01:21:00.986739850+00:00,0,1
2023-11-28T01:21:00.986739920+00:00,0,0
2023-11-28T01:21:01.068753480+00:00,1,0
2023-11-28T01:21:01.068803500+00:00,0,0
2023-11-28T01:21:01.137332120+00:00,0,1
2023-11-28T01:21:01.137332190+00:00,0,0
2023-11-28T01:21:01.218753360+00:00,1,0
2023-11-28T01:21:01.218803380+00:00,0,0
2023-11-28T01:21:01.282007040+00:00,0,1
2023-11-28T01:21:01.282007100+00:00,0,0
2023-11-28T01:21:01.368753230+00:00,1,0
2023-11-28T01:21:01.368803250+00:00,0,0
2023-11-28T01:21:01.437218500+00:00,0,1
2023-11-28T01:21:01.437218560+00:00,0,0
2023-11-28T01:21:01.518753110+00:00,1,0
2023-11-28T01:21:01.518803130+00:00,0,0
2023-11-28T01:21:01.573590640+00:00,0,1
2023-11-28T01:21:01.573590710+00:00,0,0
2023-11-28T01:21:01.668752990+00:00,1,0
2023-11-28T01:21:01.668803010+00:00,0,0
2023-11-28T01:21:01.726058280+00:00,0,1
2023-11-28T01:21:01.726058340+00:00,0,0
2023-11-28T01:21:01.818752860+00:00,1,0
2023-11-28T01:21:01.818802880+00:00,0,0
2023-11-28T01:21:01.875949400+00:00,0,1
2023-11-28T01:21:01.875949470+00:00,0,0
2023-11-28T01:21:01.968752740+00:00,1,0
2023-11-28T01:21:01.968802760+00:00,0,0
2023-11-28T01:21:02.029280970+00:00,0,1
2023-11-28T01:21:02.029281040+00:00,0,0
2023-11-28T01:21:02.118752620+00:00,1,0
2023-11-28T01:21:02.118802640+00:00,0,0
2023-11-28T01:21:02.177984710+00:00,0,1
2023-11-28T01:21:02.177984780+00:00,0,0
2023-11-28T01:21:02.268752490+00:00,1,0
2023-11-28T01:21:02.268802510+00:00,0,0
2023-11-28T01:21:02.330537100+00:00,0,1
2023-11-28T01:21:02.330537170+00:00,0,0
2023-11-28T01:21:02.418752370+00:00,1,0
2023-11-28T01:21:02.418802390+00:00,0,0
2023-11-28T01:21:02.477237290+00:00,0,1
2023-11-28T01:21:02.477237360+00:00,0,0
2023-11-28T01:21:02.568752240+00:00,1,0
2023-11-28T01:21:02.568802270+00:00,0,0
2023-11-28T01:21:02.639297080+00:00,0,1
2023-11-28T01:21:02.639297140+00:00,0,0
2023-11-28T01:21:02.718752120+00:00,1,0
2023-11-28T01:21:02.718802140+00:00,0,0
2023-11-28T01:21:02.777271210+00:00,0,1
2023-11-28T01:21:02.777271280+00:00,0,0
2023-11-28T01:21:02.868752000+00:00,1,0
2023-11-28T01:21:02.868802020+00:00,0,0
2023-11-28T01:21:02.933750550+00:00,0,1
2023-11-28T01:21:02.933750620+00:00,0,0
2023-11-28T01:21:03.018751870+00:00,1,0
2023-11-28T01:21:03.018801890+00:00,0,0
2023-11-28T01:21:03.083281180+00:00,0,1
2023-11-28T01:21:03.083281250+00:00,0,0
2023-11-28T01:21:03.168751750+00:00,1,0
2023-11-28T01:21:03.168801770+00:00,0,0
2023-11-28T01:21:03.234869590+00:00,0,1
2023-11-28T01:21:03.234869660+00:00,0,0
2023-11-28T01:21:03.318751620+00:00,1,0
2023-11-28T01:21:03.318801640+00:00,0,0
2023-11-28T01:21:03.396946980+00:00,0,1
2023-11-28T01:21:03.396947040+00:00,0,0
2023-11-28T01:21:03.468751500+00:00,1,0
2023-11-28T01:21:03.468801520+00:00,0,0
2023-11-28T01:21:03.537538830+00:00,0,1
2023-11-28T01:21:03.537538900+00:00,0,0
2023-11-28T01:21:03.618751370+00:00,1,0
2023-11-28T01:21:03.618801390+00:00,0,0
2023-11-28T01:21:03.680902740+00:00,0,1
2023-11-28T01:21:03.680902810+00:00,0,0
2023-11-28T01:21:03.768751250+00:00,1,0
2023-11-28T01:21:03.768801270+00:00,0,0
2023-11-28T01:21:03.831948660+00:00,0,1
2023-11-28T01:21:03.831948720+00:00,0,0
2023-11-28T01:21:03.918751120+00:00,1,0
2023-11-28T01:21:03.918801150+00:00,0,0
2023-11-28T01:21:03.981251520+00:00,0,1
2023-11-28T01:21:03.981251590+00:00,0,0
2023-11-28T01:21:04.068751000+00:00,1,0
2023-11-28T01:21:04.068801020+00:00,0,0
2023-11-28T01:21:04.142358470+00:00,0,1
2023-11-28T01:21:04.142358540+00:00,0,0
2023-11-28T01:21:04.218750870+00:00,1,0
2023-11-28T01:21:04.218800890+00:00,0,0
2023-11-28T01:21:04.281257340+00:00,0,1
2023-11-28T01:21:04.281257410+00:00,0,0
2023-11-28T01:21:04.368750750+00:00,1,0
2023-11-28T01:21:04.368800770+00:00,0,0
2023-11-28T01:21:04.445340250+00:00,0,1
2023-11-28T01:21:04.445340320+00:00,0,0
2023-11-28T01:21:04.518750620+00:00,1,0
2023-11-28T01:21:04.518800640+00:00,0,0
2023-11-28T01:21:04.581916560+00:00,0,1
2023-11-28T01:21:04.581916620+00:00,0,0
2023-11-28T01:21:04.668750500+00:00,1,0
2023-11-28T01:21:04.668800520+00:00,0,0
2023-11-28T01:21:04.733633180+00:00,0,1
2023-11-28T01:21:04.733633240+00:00,0,0
2023-11-28T01:21:04.818750370+00:00,1,0
2023-11-28T01:21:04.818800390+00:00,0,0
2023-11-28T01:21:04.881019230+00:00,0,1
2023-11-28T01:21:04.881019300+00:00,0,0
2023-11-28T01:21:04.968750250+00:00,1,0
2023-11-28T01:21:04.968800270+00:00,0,0
2023-11-28T01:21:05.034544060+00:00,0,1
2023-11-28T01:21:05.034544130+00:00,0,0
2023-11-28T01:21:05.118750120+00:00,1,0
2023-11-28T01:21:05.118800140+00:00,0,0
2023-11-28T01:21:05.175937010+00:00,0,1
2023-11-28T01:21:05.175937080+00:00,0,0
2023-11-28T01:21:05.268749990+00:00,1,0
2023-11-28T01:21:05.268800020+00:00,0,0
2023-11-28T01:21:05.330401680+00:00,0,1
2023-11-28T01:21:05.330401750+00:00,0,0
2023-11-28T01:21:05.418749870+00:00,1,0
2023-11-28T01:21:05.418799890+00:00,0,0
2023-11-28T01:21:05.481868740+00:00,0,1
2023-11-28T01:21:05.481868810+00:00,0,0
2023-11-28T01:21:05.568749740+00:00,1,0
2023-11-28T01:21:05.568799760+00:00,0,0
2023-11-28T01:21:05.635786350+00:00,0,1
2023-11-28T01:21:05.635786420+00:00,0,0
2023-11-28T01:21:05.718749620+00:00,1,0
2023-11-28T01:21:05.718799640+00:00,0,0
2023-11-28T01:21:05.782423640+00:00,0,1
2023-11-28T01:21:05.782423700+00:00,0,0
2023-11-28T01:21:05.868749490+00:00,1,0
2023-11-28T01:21:05.868799510+00:00,0,0
2023-11-28T01:21:05.931023140+00:00,0,1
2023-11-28T01:21:05.931023210+00:00,0,0
2023-11-28T01:21:06.018749360+00:00,1,0
2023-11-28T01:21:06.018799390+00:00,0,0
2023-11-28T01:21:06.088381430+00:00,0,1
2023-11-28T01:21:06.088381500+00:00,0,0
2023-11-28T01:21:06.168749240+00:00,1,0
2023-11-28T01:21:06.168799260+00:00,0,0
2023-11-28T01:21:06.231185350+00:00,0,1
2023-11-28T01:21:06.231185420+00:00,0,0
2023-11-28T01:21:06.318749110+00:00,1,0
2023-11-28T01:21:06.318799130+00:00,0,0
2023-11-28T01:21:06.382545910+00:00,0,1
2023-11-28T01:21:06.382545970+00:00,0,0
2023-11-28T01:21:06.468748980+00:00,1,0
2023-11-28T01:21:06.468799000+00:00,0,0
2023-11-28T01:21:06.537010550+00:00,0,1
2023-11-28T01:21:06.537010610+00:00,0,0
2023-11-28T01:21:06.618748860+00:00,1,0
2023-11-28T01:21:06.618798880+00:00,0,0
2023-11-28T01:21:06.693543880+00:00,0,1
2023-11-28T01:21:06.693543950+00:00,0,0
2023-11-28T01:21:06.768748730+00:00,1,0
2023-11-28T01:21:06.768798750+00:00,0,0
2023-11-28T01:21:06.834973770+00:00,0,1
2023-11-28T01:21:06.834973840+00:00,0,0
2023-11-28T01:21:06.918748600+00:00,1,0
2023-11-28T01:21:06.918798620+00:00,0,0
2023-11-28T01:21:06.975363770+00:00,0,1
2023-11-28T01:21:06.975363840+00:00,0,0
2023-11-28T01:21:07.068748470+00:00,1,0
2023-11-28T01:21:07.068798500+00:00,0,0
2023-11-28T01:21:07.137250080+00:00,0,1
2023-11-28T01:21:07.137250140+00:00,0,0
2023-11-28T01:21:07.218748350+00:00,1,0
2023-11-28T01:21:07.218798370+00:00,0,0
2023-11-28T01:21:07.276947690+00:00,0,1
2023-11-28T01:21:07.276947760+00:00,0,0
2023-11-28T01:21:07.368748220+00:00,1,0
2023-11-28T01:21:07.368798240+00:00,0,0
2023-11-28T01:21:07.434177820+00:00,0,1
2023-11-28T01:21:07.434177890+00:00,0,0
2023-11-28T01:21:07.518748090+00:00,1,0
2023-11-28T01:21:07.518798110+00:00,0,0
2023-11-28T01:21:07.589708370+00:00,0,1
2023-11-28T01:21:07.589708440+00:00,0,0
2023-11-28T01:21:07.668747970+00:00,1,0
2023-11-28T01:21:07.668797990+00:00,0,0
2023-11-28T01:21:07.732217000+00:00,0,1
2023-11-28T01:21:07.732217060+00:00,0,0
2023-11-28T01:21:07.818747840+00:00,1,0
2023-11-28T01:21:07.818797860+00:00,0,0
