Time [s],Channel 0,Channel 1
2024-02-06T15:05:14.438216000+00:00,0,0
2024-02-06T15:05:14.467806200+00:00,1,0
2024-02-06T15:05:14.467856200+00:00,0,0
2024-02-06T15:05:14.495170780+00:00,0,1
2024-02-06T15:05:14.495171940+00:00,0,0
2024-02-06T15:05:14.567805860+00:00,1,0
2024-02-06T15:05:14.567855880+00:00,0,0
2024-02-06T15:05:14.585171680+00:00,0,1
2024-02-06T15:05:14.585172840+00:00,0,0
2024-02-06T15:05:14.667805520+00:00,1,0
2024-02-06T15:05:14.667855540+00:00,0,0
2024-02-06T15:05:14.675173100+00:00,0,1
2024-02-06T15:05:14.675174260+00:00,0,0
2024-02-06T15:05:14.767805200+00:00,1,0
2024-02-06T15:05:14.767855200+00:00,0,0
2024-02-06T15:05:14.795175100+00:00,0,1
2024-02-06T15:05:14.795176260+00:00,0,0
2024-02-06T15:05:14.867804860+00:00,1,0
2024-02-06T15:05:14.867854860+00:00,0,0
2024-02-06T15:05:14.885175140+00:00,0,1
2024-02-06T15:05:14.885176300+00:00,0,0
2024-02-06T15:05:14.967804520+00:00,1,0
2024-02-06T15:05:14.967854520+00:00,0,0
2024-02-06T15:05:14.975177220+00:00,0,1
2024-02-06T15:05:14.975178380+00:00,0,0
2024-02-06T15:05:15.067804180+00:00,1,0
2024-02-06T15:05:15.067854200+00:00,0,0
2024-02-06T15:05:15.095179200+00:00,0,1
2024-02-06T15:05:15.095180360+00:00,0,0
2024-02-06T15:05:15.167803860+00:00,1,0
2024-02-06T15:05:15.167853860+00:00,0,0
2024-02-06T15:05:15.185179060+00:00,0,1
2024-02-06T15:05:15.185180220+00:00,0,0
2024-02-06T15:05:15.267803520+00:00,1,0
2024-02-06T15:05:15.267853520+00:00,0,0
2024-02-06T15:05:15.275181800+00:00,0,1
2024-02-06T15:05:15.275182960+00:00,0,0
2024-02-06T15:05:15.367803180+00:00,1,0
2024-02-06T15:05:15.367853180+00:00,0,0
2024-02-06T15:05:15.395182480+00:00,0,1
2024-02-06T15:05:15.395183620+00:00,0,0
2024-02-06T15:05:15.467802840+00:00,1,0
2024-02-06T15:05:15.467852860+00:00,0,0
2024-02-06T15:05:15.485184500+00:00,0,1
2024-02-06T15:05:15.485185660+00:00,0,0
2024-02-06T15:05:15.567802520+00:00,1,0
2024-02-06T15:05:15.567852520+00:00,0,0
2024-02-06T15:05:15.575186860+00:00,0,1
2024-02-06T15:05:15.575188020+00:00,0,0
2024-02-06T15:05:15.667802180+00:00,1,0
2024-02-06T15:05:15.667852180+00:00,0,0
2024-02-06T15:05:15.695187360+00:00,0,1
2024-02-06T15:05:15.695188520+00:00,0,0
2024-02-06T15:05:15.767801840+00:00,1,0
2024-02-06T15:05:15.767851840+00:00,0,0
2024-02-06T15:05:15.785188460+00:00,0,1
2024-02-06T15:05:15.785189620+00:00,0,0
2024-02-06T15:05:15.867801500+00:00,1,0
2024-02-06T15:05:15.867851520+00:00,0,0
2024-02-06T15:05:15.875190340+00:00,0,1
2024-02-06T15:05:15.875191500+00:00,0,0
2024-02-06T15:05:15.967801180+00:00,1,0
2024-02-06T15:05:15.967851180+00:00,0,0
2024-02-06T15:05:15.995191480+00:00,0,1
2024-02-06T15:05:15.995192620+00:00,0,0
2024-02-06T15:05:16.067800840+00:00,1,0
2024-02-06T15:05:16.067850840+00:00,0,0
2024-02-06T15:05:16.085193040+00:00,0,1
2024-02-06T15:05:16.085194180+00:00,0,0
2024-02-06T15:05:16.167800500+00:00,1,0
2024-02-06T15:05:16.167850500+00:00,0,0
2024-02-06T15:05:16.175193940+00:00,0,1
2024-02-06T15:05:16.175195080+00:00,0,0
2024-02-06T15:05:16.267800160+00:00,1,0
2024-02-06T15:05:16.267850180+00:00,0,0
2024-02-06T15:05:16.295196680+00:00,0,1
2024-02-06T15:05:16.295197840+00:00,0,0
2024-02-06T15:05:16.367799820+00:00,1,0
2024-02-06T15:05:16.367849840+00:00,0,0
2024-02-06T15:05:16.385196460+00:00,0,1
2024-02-06T15:05:16.385197620+00:00,0,0
2024-02-06T15:05:16.467799500+00:00,1,0
2024-02-06T15:05:16.467849500+00:00,0,0
2024-02-06T15:05:16.475198380+00:00,0,1
2024-02-06T15:05:16.475199540+00:00,0,0
2024-02-06T15:05:16.567799160+00:00,1,0
2024-02-06T15:05:16.567849160+00:00,0,0
2024-02-06T15:05:16.595200340+00:00,0,1
2024-02-06T15:05:16.595201480+00:00,0,0
2024-02-06T15:05:16.667798820+00:00,1,0
2024-02-06T15:05:16.667848820+00:00,0,0
2024-02-06T15:05:16.685200340+00:00,0,1
2024-02-06T15:05:16.685201480+00:00,0,0
2024-02-06T15:05:16.767798480+00:00,1,0
2024-02-06T15:05:16.767848500+00:00,0,0
2024-02-06T15:05:16.775201440+00:00,0,1
2024-02-06T15:05:16.775202600+00:00,0,0
2024-02-06T15:05:16.867798160+00:00,1,0
2024-02-06T15:05:16.867848160+00:00,0,0
2024-02-06T15:05:16.895203200+00:00,0,1
2024-02-06T15:05:16.895204360+00:00,0,0
2024-02-06T15:05:16.967797820+00:00,1,0
2024-02-06T15:05:16.967847820+00:00,0,0
2024-02-06T15:05:16.985206480+00:00,0,1
2024-02-06T15:05:16.985207640+00:00,0,0
2024-02-06T15:05:17.067797480+00:00,1,0
2024-02-06T15:05:17.067847480+00:00,0,0
2024-02-06T15:05:17.075206840+00:00,0,1
2024-02-06T15:05:17.075208000+00:00,0,0
2024-02-06T15:05:17.167797140+00:00,1,0
2024-02-06T15:05:17.167847160+00:00,0,0
2024-02-06T15:05:17.195208460+00:00,0,1
2024-02-06T15:05:17.195209620+00:00,0,0
2024-02-06T15:05:17.267796800+00:00,1,0
2024-02-06T15:05:17.267846820+00:00,0,0
2024-02-06T15:05:17.285208160+00:00,0,1
2024-02-06T15:05:17.285209320+00:00,0,0
2024-02-06T15:05:17.367796480+00:00,1,0
2024-02-06T15:05:17.367846480+00:00,0,0
2024-02-06T15:05:17.375210420+00:00,0,1
2024-02-06T15:05:17.375211580+00:00,0,0
2024-02-06T15:05:17.467796140+00:00,1,0
2024-02-06T15:05:17.467846140+00:00,0,0
2024-02-06T15:05:17.495212280+00:00,0,1
2024-02-06T15:05:17.495213420+00:00,0,0
2024-02-06T15:05:17.567795800+00:00,1,0
2024-02-06T15:05:17.567845800+00:00,0,0
2024-02-06T15:05:17.585213140+00:00,0,1
2024-02-06T15:05:17.585214280+00:00,0,0
2024-02-06T15:05:17.667795460+00:00,1,0
2024-02-06T15:05:17.667845480+00:00,0,0
2024-02-06T15:05:17.675214260+00:00,0,1
2024-02-06T15:05:17.675215420+00:00,0,0
2024-02-06T15:05:17.767795140+00:00,1,0
2024-02-06T15:05:17.767845140+00:00,0,0
2024-02-06T15:05:17.795217700+00:00,0,1
2024-02-06T15:05:17.795218860+00:00,0,0
2024-02-06T15:05:17.867794800+00:00,1,0
2024-02-06T15:05:17.867844800+00:00,0,0
2024-02-06T15:05:17.885217720+00:00,0,1
2024-02-06T15:05:17.885218880+00:00,0,0
2024-02-06T15:05:17.967794460+00:00,1,0
2024-02-06T15:05:17.967844460+00:00,0,0
2024-02-06T15:05:17.975218780+00:00,0,1
2024-02-06T15:05:17.975219940+00:00,0,0
2024-02-06T15:05:18.067794120+00:00,1,0
2024-02-06T15:05:18.067844140+00:00,0,0
2024-02-06T15:05:18.095221200+00:00,0,1
2024-02-06T15:05:18.095222360+00:00,0,0
2024-02-06T15:05:18.168281560+00:00,1,0
2024-02-06T15:05:18.168331560+00:00,0,0
2024-02-06T15:05:18.185221540+00:00,0,1
2024-02-06T15:05:18.185222700+00:00,0,0
2024-02-06T15:05:18.269281220+00:00,1,0
2024-02-06T15:05:18.269331220+00:00,0,0
2024-02-06T15:05:18.275223300+00:00,0,1
2024-02-06T15:05:18.275224460+00:00,0,0
2024-02-06T15:05:18.370280880+00:00,1,0
2024-02-06T15:05:18.370330880+00:00,0,0
2024-02-06T15:05:18.395223520+00:00,0,1
2024-02-06T15:05:18.395224680+00:00,0,0
2024-02-06T15:05:18.471280540+00:00,1,0
2024-02-06T15:05:18.471330540+00:00,0,0
2024-02-06T15:05:18.485226560+00:00,0,1
2024-02-06T15:05:18.485227720+00:00,0,0
2024-02-06T15:05:18.572280200+00:00,1,0
2024-02-06T15:05:18.572330200+00:00,0,0
2024-02-06T15:05:18.575228260+00:00,0,1
2024-02-06T15:05:18.575229420+00:00,0,0
2024-02-06T15:05:18.673279860+00:00,1,0
2024-02-06T15:05:18.673329860+00:00,0,0
2024-02-06T15:05:18.695229300+00:00,0,1
2024-02-06T15:05:18.695230460+00:00,0,0
2024-02-06T15:05:18.774279520+00:00,1,0
2024-02-06T15:05:18.774329520+00:00,0,0
2024-02-06T15:05:18.785230040+00:00,0,1
2024-02-06T15:05:18.785231200+00:00,0,0
2024-02-06T15:05:18.876214340+00:00,1,0
2024-02-06T15:05:18.876264360+00:00,0,0
2024-02-06T15:05:18.905230800+00:00,0,1
2024-02-06T15:05:18.905231960+00:00,0,0
2024-02-06T15:05:18.978214000+00:00,1,0
2024-02-06T15:05:18.978264020+00:00,0,0
2024-02-06T15:05:18.995232480+00:00,0,1
2024-02-06T15:05:18.995233620+00:00,0,0
2024-02-06T15:05:19.080213680+00:00,1,0
2024-02-06T15:05:19.080263680+00:00,0,0
2024-02-06T15:05:19.085234620+00:00,0,1
2024-02-06T15:05:19.085235780+00:00,0,0
2024-02-06T15:05:19.182213340+00:00,1,0
2024-02-06T15:05:19.182263340+00:00,0,0
2024-02-06T15:05:19.205235800+00:00,0,1
2024-02-06T15:05:19.205236940+00:00,0,0
2024-02-06T15:05:19.284213000+00:00,1,0
2024-02-06T15:05:19.284263000+00:00,0,0
2024-02-06T15:05:19.295237740+00:00,0,1
2024-02-06T15:05:19.295238900+00:00,0,0
2024-02-06T15:05:19.386212660+00:00,1,0
2024-02-06T15:05:19.386262660+00:00,0,0
2024-02-06T15:05:19.415239320+00:00,0,1
2024-02-06T15:05:19.415240460+00:00,0,0
2024-02-06T15:05:19.488212320+00:00,1,0
2024-02-06T15:05:19.488262340+00:00,0,0
2024-02-06T15:05:19.505240240+00:00,0,1
2024-02-06T15:05:19.505241380+00:00,0,0
2024-02-06T15:05:19.590211980+00:00,1,0
2024-02-06T15:05:19.590262000+00:00,0,0
2024-02-06T15:05:19.595241500+00:00,0,1
2024-02-06T15:05:19.595242660+00:00,0,0
2024-02-06T15:05:19.692211660+00:00,1,0
2024-02-06T15:05:19.692261660+00:00,0,0
2024-02-06T15:05:19.715244140+00:00,0,1
2024-02-06T15:05:19.715245300+00:00,0,0
2024-02-06T15:05:19.795027220+00:00,1,0
2024-02-06T15:05:19.795077240+00:00,0,0
2024-02-06T15:05:19.805244880+00:00,0,1
2024-02-06T15:05:19.805246040+00:00,0,0
2024-02-06T15:05:19.898026880+00:00,1,0
2024-02-06T15:05:19.898076900+00:00,0,0
2024-02-06T15:05:19.925245780+00:00,0,1
2024-02-06T15:05:19.925246940+00:00,0,0
2024-02-06T15:05:20.001026560+00:00,1,0
2024-02-06T15:05:20.001076560+00:00,0,0
2024-02-06T15:05:20.015247600+00:00,0,1
2024-02-06T15:05:20.015248760+00:00,0,0
2024-02-06T15:05:20.104026220+00:00,1,0
2024-02-06T15:05:20.104076220+00:00,0,0
2024-02-06T15:05:20.135248640+00:00,0,1
2024-02-06T15:05:20.135249800+00:00,0,0
2024-02-06T15:05:20.207025880+00:00,1,0
2024-02-06T15:05:20.207075880+00:00,0,0
2024-02-06T15:05:20.225250500+00:00,0,1
2024-02-06T15:05:20.225251660+00:00,0,0
2024-02-06T15:05:20.310025540+00:00,1,0
2024-02-06T15:05:20.310075540+00:00,0,0
2024-02-06T15:05:20.315251800+00:00,0,1
2024-02-06T15:05:20.315252960+00:00,0,0
2024-02-06T15:05:20.413025200+00:00,1,0
2024-02-06T15:05:20.413075200+00:00,0,0
2024-02-06T15:05:20.435252400+00:00,0,1
2024-02-06T15:05:20.435253560+00:00,0,0
2024-02-06T15:05:20.516024860+00:00,1,0
2024-02-06T15:05:20.516074880+00:00,0,0
2024-02-06T15:05:20.525253980+00:00,0,1
2024-02-06T15:05:20.525255120+00:00,0,0
2024-02-06T15:05:20.619024520+00:00,1,0
2024-02-06T15:05:20.619074540+00:00,0,0
2024-02-06T15:05:20.645255620+00:00,0,1
2024-02-06T15:05:20.645256780+00:00,0,0
2024-02-06T15:05:20.722024200+00:00,1,0
2024-02-06T15:05:20.722074200+00:00,0,0
2024-02-06T15:05:20.735256500+00:00,0,1
2024-02-06T15:05:20.735257660+00:00,0,0
2024-02-06T15:05:20.825023860+00:00,1,0
2024-02-06T15:05:20.825073860+00:00,0,0
2024-02-06T15:05:20.855258620+00:00,0,1
2024-02-06T15:05:20.855259780+00:00,0,0
2024-02-06T15:05:20.928030000+00:00,1,0
2024-02-06T15:05:20.928080500+00:00,0,0
2024-02-06T15:05:20.945259920+00:00,0,1
2024-02-06T15:05:20.945261080+00:00,0,0
2024-02-06T15:05:21.032029660+00:00,1,0
2024-02-06T15:05:21.032079660+00:00,0,0
2024-02-06T15:05:21.035261020+00:00,0,1
2024-02-06T15:05:21.035262180+00:00,0,0
2024-02-06T15:05:21.136029320+00:00,1,0
2024-02-06T15:05:21.136079320+00:00,0,0
2024-02-06T15:05:21.155263140+00:00,0,1
2024-02-06T15:05:21.155264300+00:00,0,0
2024-02-06T15:05:21.240028980+00:00,1,0
2024-02-06T15:05:21.240078980+00:00,0,0
2024-02-06T15:05:21.245264880+00:00,0,1
2024-02-06T15:05:21.245266040+00:00,0,0
2024-02-06T15:05:21.344028640+00:00,1,0
2024-02-06T15:05:21.344078640+00:00,0,0
2024-02-06T15:05:21.365265580+00:00,0,1
2024-02-06T15:05:21.365266740+00:00,0,0
2024-02-06T15:05:21.448028280+00:00,1,0
2024-02-06T15:05:21.448078300+00:00,0,0
2024-02-06T15:05:21.455267460+00:00,0,1
2024-02-06T15:05:21.455268600+00:00,0,0
2024-02-06T15:05:21.552027940+00:00,1,0
2024-02-06T15:05:21.552077960+00:00,0,0
2024-02-06T15:05:21.575268620+00:00,0,1
2024-02-06T15:05:21.575269780+00:00,0,0
2024-02-06T15:05:21.656027600+00:00,1,0
2024-02-06T15:05:21.656077620+00:00,0,0
2024-02-06T15:05:21.665270060+00:00,0,1
2024-02-06T15:05:21.665271220+00:00,0,0
2024-02-06T15:05:21.760027260+00:00,1,0
2024-02-06T15:05:21.760077260+00:00,0,0
2024-02-06T15:05:21.785271680+00:00,0,1
2024-02-06T15:05:21.785272840+00:00,0,0
2024-02-06T15:05:21.864026920+00:00,1,0
2024-02-06T15:05:21.864076920+00:00,0,0
2024-02-06T15:05:21.875272820+00:00,0,1
2024-02-06T15:05:21.875273960+00:00,0,0
2024-02-06T15:05:21.968026580+00:00,1,0
2024-02-06T15:05:21.968076580+00:00,0,0
2024-02-06T15:05:21.995274780+00:00,0,1
2024-02-06T15:05:21.995275940+00:00,0,0
2024-02-06T15:05:22.072368720+00:00,1,0
2024-02-06T15:05:22.072418720+00:00,0,0
2024-02-06T15:05:22.085275500+00:00,0,1
2024-02-06T15:05:22.085276660+00:00,0,0
2024-02-06T15:05:22.177368360+00:00,1,0
2024-02-06T15:05:22.177418360+00:00,0,0
2024-02-06T15:05:22.205277480+00:00,0,1
2024-02-06T15:05:22.205278640+00:00,0,0
2024-02-06T15:05:22.282368020+00:00,1,0
2024-02-06T15:05:22.282418020+00:00,0,0
2024-02-06T15:05:22.295280120+00:00,0,1
2024-02-06T15:05:22.295281280+00:00,0,0
2024-02-06T15:05:22.387367660+00:00,1,0
2024-02-06T15:05:22.387417680+00:00,0,0
2024-02-06T15:05:22.415279160+00:00,0,1
2024-02-06T15:05:22.415280320+00:00,0,0
2024-02-06T15:05:22.492367320+00:00,1,0
2024-02-06T15:05:22.492417320+00:00,0,0
2024-02-06T15:05:22.505281640+00:00,0,1
2024-02-06T15:05:22.505282800+00:00,0,0
2024-02-06T15:05:22.597366980+00:00,1,0
2024-02-06T15:05:22.597416980+00:00,0,0
2024-02-06T15:05:22.625283000+00:00,0,1
2024-02-06T15:05:22.625284160+00:00,0,0
2024-02-06T15:05:22.702366620+00:00,1,0
2024-02-06T15:05:22.702416640+00:00,0,0
2024-02-06T15:05:22.715284480+00:00,0,1
2024-02-06T15:05:22.715285640+00:00,0,0
2024-02-06T15:05:22.807366280+00:00,1,0
2024-02-06T15:05:22.807416280+00:00,0,0
2024-02-06T15:05:22.835286300+00:00,0,1
2024-02-06T15:05:22.835287440+00:00,0,0
2024-02-06T15:05:22.912365940+00:00,1,0
2024-02-06T15:05:22.912415940+00:00,0,0
2024-02-06T15:05:22.925287060+00:00,0,1
2024-02-06T15:05:22.925288220+00:00,0,0
2024-02-06T15:05:23.017365580+00:00,1,0
2024-02-06T15:05:23.017415580+00:00,0,0
2024-02-06T15:05:23.045288960+00:00,0,1
2024-02-06T15:05:23.045290120+00:00,0,0
2024-02-06T15:05:23.122365240+00:00,1,0
2024-02-06T15:05:23.122415240+00:00,0,0
2024-02-06T15:05:23.135289880+00:00,0,1
2024-02-06T15:05:23.135291040+00:00,0,0
2024-02-06T15:05:23.227634100+00:00,1,0
2024-02-06T15:05:23.227684100+00:00,0,0
2024-02-06T15:05:23.255291800+00:00,0,1
2024-02-06T15:05:23.255292960+00:00,0,0
2024-02-06T15:05:23.333633740+00:00,1,0
2024-02-06T15:05:23.333683760+00:00,0,0
2024-02-06T15:05:23.345292140+00:00,0,1
2024-02-06T15:05:23.345293300+00:00,0,0
2024-02-06T15:05:23.439633400+00:00,1,0
2024-02-06T15:05:23.439683400+00:00,0,0
2024-02-06T15:05:23.465295820+00:00,0,1
2024-02-06T15:05:23.465296980+00:00,0,0
2024-02-06T15:05:23.545633040+00:00,1,0
2024-02-06T15:05:23.545683040+00:00,0,0
2024-02-06T15:05:23.555295920+00:00,0,1
2024-02-06T15:05:23.555297080+00:00,0,0
2024-02-06T15:05:23.651632680+00:00,1,0
2024-02-06T15:05:23.651682700+00:00,0,0
2024-02-06T15:05:23.675297280+00:00,0,1
2024-02-06T15:05:23.675298440+00:00,0,0
2024-02-06T15:05:23.757632340+00:00,1,0
2024-02-06T15:05:23.757682340+00:00,0,0
2024-02-06T15:05:23.765298440+00:00,0,1
2024-02-06T15:05:23.765299600+00:00,0,0
2024-02-06T15:05:23.863631980+00:00,1,0
2024-02-06T15:05:23.863681980+00:00,0,0
2024-02-06T15:05:23.885300040+00:00,0,1
2024-02-06T15:05:23.885301180+00:00,0,0
2024-02-06T15:05:23.969631620+00:00,1,0
2024-02-06T15:05:23.969681620+00:00,0,0
2024-02-06T15:05:23.975301400+00:00,0,1
2024-02-06T15:05:23.975302540+00:00,0,0
2024-02-06T15:05:24.075631260+00:00,1,0
2024-02-06T15:05:24.075681280+00:00,0,0
2024-02-06T15:05:24.095303540+00:00,0,1
2024-02-06T15:05:24.095304680+00:00,0,0
2024-02-06T15:05:24.181630920+00:00,1,0
2024-02-06T15:05:24.181680920+00:00,0,0
2024-02-06T15:05:24.185303600+00:00,0,1
2024-02-06T15:05:24.185304760+00:00,0,0
2024-02-06T15:05:24.288281000+00:00,1,0
2024-02-06T15:05:24.288331020+00:00,0,0
2024-02-06T15:05:24.305305800+00:00,0,1
2024-02-06T15:05:24.305306960+00:00,0,0
2024-02-06T15:05:24.395280660+00:00,1,0
2024-02-06T15:05:24.395330660+00:00,0,0
2024-02-06T15:05:24.425308460+00:00,0,1
2024-02-06T15:05:24.425309620+00:00,0,0
2024-02-06T15:05:24.502280300+00:00,1,0
2024-02-06T15:05:24.502330300+00:00,0,0
2024-02-06T15:05:24.515309040+00:00,0,1
2024-02-06T15:05:24.515310200+00:00,0,0
2024-02-06T15:05:24.609279940+00:00,1,0
2024-02-06T15:05:24.609329940+00:00,0,0
2024-02-06T15:05:24.635310100+00:00,0,1
2024-02-06T15:05:24.635311260+00:00,0,0
2024-02-06T15:05:24.716279580+00:00,1,0
2024-02-06T15:05:24.716329580+00:00,0,0
2024-02-06T15:05:24.725312360+00:00,0,1
2024-02-06T15:05:24.725313520+00:00,0,0
2024-02-06T15:05:24.823279220+00:00,1,0
2024-02-06T15:05:24.823329240+00:00,0,0
2024-02-06T15:05:24.845314220+00:00,0,1
2024-02-06T15:05:24.845315380+00:00,0,0
2024-02-06T15:05:24.930278880+00:00,1,0
2024-02-06T15:05:24.930328880+00:00,0,0
2024-02-06T15:05:24.935314420+00:00,0,1
2024-02-06T15:05:24.935315560+00:00,0,0
2024-02-06T15:05:25.037278520+00:00,1,0
2024-02-06T15:05:25.037328520+00:00,0,0
2024-02-06T15:05:25.055316580+00:00,0,1
2024-02-06T15:05:25.055317720+00:00,0,0
2024-02-06T15:05:25.144278160+00:00,1,0
2024-02-06T15:05:25.144328160+00:00,0,0
2024-02-06T15:05:25.175319380+00:00,0,1
2024-02-06T15:05:25.175320540+00:00,0,0
2024-02-06T15:05:25.251399180+00:00,1,0
2024-02-06T15:05:25.251449200+00:00,0,0
2024-02-06T15:05:25.265320020+00:00,0,1
2024-02-06T15:05:25.265321180+00:00,0,0
2024-02-06T15:05:25.359398820+00:00,1,0
2024-02-06T15:05:25.359448840+00:00,0,0
2024-02-06T15:05:25.385320720+00:00,0,1
2024-02-06T15:05:25.385321860+00:00,0,0
2024-02-06T15:05:25.467398460+00:00,1,0
2024-02-06T15:05:25.467448480+00:00,0,0
2024-02-06T15:05:25.475322020+00:00,0,1
2024-02-06T15:05:25.475323180+00:00,0,0
2024-02-06T15:05:25.575398100+00:00,1,0
2024-02-06T15:05:25.575448120+00:00,0,0
2024-02-06T15:05:25.595323660+00:00,0,1
2024-02-06T15:05:25.595324820+00:00,0,0
2024-02-06T15:05:25.683397740+00:00,1,0
2024-02-06T15:05:25.683447760+00:00,0,0
2024-02-06T15:05:25.715326360+00:00,0,1
2024-02-06T15:05:25.715327520+00:00,0,0
2024-02-06T15:05:25.791397380+00:00,1,0
2024-02-06T15:05:25.791447400+00:00,0,0
2024-02-06T15:05:25.805326940+00:00,0,1
2024-02-06T15:05:25.805328080+00:00,0,0
2024-02-06T15:05:25.899397020+00:00,1,0
2024-02-06T15:05:25.899447040+00:00,0,0
2024-02-06T15:05:25.925329820+00:00,0,1
2024-02-06T15:05:25.925330980+00:00,0,0
2024-02-06T15:05:26.007396660+00:00,1,0
2024-02-06T15:05:26.007446680+00:00,0,0
2024-02-06T15:05:26.015329200+00:00,0,1
2024-02-06T15:05:26.015330360+00:00,0,0
2024-02-06T15:05:26.115396300+00:00,1,0
2024-02-06T15:05:26.115446320+00:00,0,0
2024-02-06T15:05:26.135331560+00:00,0,1
2024-02-06T15:05:26.135332700+00:00,0,0
2024-02-06T15:05:26.223395940+00:00,1,0
2024-02-06T15:05:26.223445940+00:00,0,0
2024-02-06T15:05:26.255332720+00:00,0,1
2024-02-06T15:05:26.255333880+00:00,0,0
2024-02-06T15:05:26.331579460+00:00,1,0
2024-02-06T15:05:26.331629460+00:00,0,0
2024-02-06T15:05:26.345334980+00:00,0,1
2024-02-06T15:05:26.345336140+00:00,0,0
2024-02-06T15:05:26.440579100+00:00,1,0
2024-02-06T15:05:26.440629100+00:00,0,0
2024-02-06T15:05:26.465335980+00:00,0,1
2024-02-06T15:05:26.465337140+00:00,0,0
2024-02-06T15:05:26.549578740+00:00,1,0
2024-02-06T15:05:26.549628760+00:00,0,0
2024-02-06T15:05:26.555338400+00:00,0,1
2024-02-06T15:05:26.555339560+00:00,0,0
2024-02-06T15:05:26.658578380+00:00,1,0
2024-02-06T15:05:26.658628400+00:00,0,0
2024-02-06T15:05:26.675339100+00:00,0,1
2024-02-06T15:05:26.675340260+00:00,0,0
2024-02-06T15:05:26.767578040+00:00,1,0
2024-02-06T15:05:26.767628040+00:00,0,0
2024-02-06T15:05:26.795340640+00:00,0,1
2024-02-06T15:05:26.795341800+00:00,0,0
2024-02-06T15:05:26.876577680+00:00,1,0
2024-02-06T15:05:26.876627680+00:00,0,0
2024-02-06T15:05:26.885341380+00:00,0,1
2024-02-06T15:05:26.885342540+00:00,0,0
2024-02-06T15:05:26.985577320+00:00,1,0
2024-02-06T15:05:26.985627320+00:00,0,0
2024-02-06T15:05:27.005343020+00:00,0,1
2024-02-06T15:05:27.005344180+00:00,0,0
2024-02-06T15:05:27.094576960+00:00,1,0
2024-02-06T15:05:27.094626960+00:00,0,0
2024-02-06T15:05:27.125344920+00:00,0,1
2024-02-06T15:05:27.125346080+00:00,0,0
2024-02-06T15:05:27.203576600+00:00,1,0
2024-02-06T15:05:27.203626620+00:00,0,0
2024-02-06T15:05:27.215346920+00:00,0,1
2024-02-06T15:05:27.215348080+00:00,0,0
2024-02-06T15:05:27.312576240+00:00,1,0
2024-02-06T15:05:27.312626260+00:00,0,0
