Time [s],Channel 0,Channel 1
2024-02-06T13:58:49.770494000+00:00,0,0
2024-02-06T13:58:49.951403920+00:00,1,0
2024-02-06T13:58:49.951453940+00:00,0,0
2024-02-06T13:58:49.970690260+00:00,0,1
2024-02-06T13:58:49.970691360+00:00,0,0
2024-02-06T13:58:50.151403260+00:00,1,0
2024-02-06T13:58:50.151453260+00:00,0,0
2024-02-06T13:58:50.180693440+00:00,0,1
2024-02-06T13:58:50.180694540+00:00,0,0
2024-02-06T13:58:50.351402580+00:00,1,0
2024-02-06T13:58:50.351452580+00:00,0,0
2024-02-06T13:58:50.360696600+00:00,0,1
2024-02-06T13:58:50.360697680+00:00,0,0
2024-02-06T13:58:50.551401900+00:00,1,0
2024-02-06T13:58:50.551451900+00:00,0,0
2024-02-06T13:58:50.570699020+00:00,0,1
2024-02-06T13:58:50.570700120+00:00,0,0
2024-02-06T13:58:50.751401240+00:00,1,0
2024-02-06T13:58:50.751451240+00:00,0,0
2024-02-06T13:58:50.780702740+00:00,0,1
2024-02-06T13:58:50.780703840+00:00,0,0
2024-02-06T13:58:50.951400560+00:00,1,0
2024-02-06T13:58:50.951450560+00:00,0,0
2024-02-06T13:58:50.960703560+00:00,0,1
2024-02-06T13:58:50.960704660+00:00,0,0
2024-02-06T13:58:51.151399880+00:00,1,0
2024-02-06T13:58:51.151449880+00:00,0,0
2024-02-06T13:58:51.170706960+00:00,0,1
2024-02-06T13:58:51.170708060+00:00,0,0
2024-02-06T13:58:51.351399200+00:00,1,0
2024-02-06T13:58:51.351449220+00:00,0,0
2024-02-06T13:58:51.380710300+00:00,0,1
2024-02-06T13:58:51.380711400+00:00,0,0
2024-02-06T13:58:51.551398540+00:00,1,0
2024-02-06T13:58:51.551448540+00:00,0,0
2024-02-06T13:58:51.560712920+00:00,0,1
2024-02-06T13:58:51.560714020+00:00,0,0
2024-02-06T13:58:51.751397860+00:00,1,0
2024-02-06T13:58:51.751447860+00:00,0,0
2024-02-06T13:58:51.770716320+00:00,0,1
2024-02-06T13:58:51.770717420+00:00,0,0
2024-02-06T13:58:51.951397180+00:00,1,0
2024-02-06T13:58:51.951447200+00:00,0,0
2024-02-06T13:58:51.980718340+00:00,0,1
2024-02-06T13:58:51.980719440+00:00,0,0
2024-02-06T13:58:52.151396520+00:00,1,0
2024-02-06T13:58:52.151446520+00:00,0,0
2024-02-06T13:58:52.160720980+00:00,0,1
2024-02-06T13:58:52.160722080+00:00,0,0
2024-02-06T13:58:52.351395840+00:00,1,0
2024-02-06T13:58:52.351445840+00:00,0,0
2024-02-06T13:58:52.370724260+00:00,0,1
2024-02-06T13:58:52.370725360+00:00,0,0
2024-02-06T13:58:52.551395160+00:00,1,0
2024-02-06T13:58:52.551445180+00:00,0,0
2024-02-06T13:58:52.580726960+00:00,0,1
2024-02-06T13:58:52.580728060+00:00,0,0
2024-02-06T13:58:52.751394500+00:00,1,0
2024-02-06T13:58:52.751444500+00:00,0,0
2024-02-06T13:58:52.760730640+00:00,0,1
2024-02-06T13:58:52.760731740+00:00,0,0
2024-02-06T13:58:52.951393820+00:00,1,0
2024-02-06T13:58:52.951443820+00:00,0,0
2024-02-06T13:58:52.970732340+00:00,0,1
2024-02-06T13:58:52.970733440+00:00,0,0
2024-02-06T13:58:53.151393140+00:00,1,0
2024-02-06T13:58:53.151443160+00:00,0,0
2024-02-06T13:58:53.180735800+00:00,0,1
2024-02-06T13:58:53.180736900+00:00,0,0
2024-02-06T13:58:53.351392480+00:00,1,0
2024-02-06T13:58:53.351442480+00:00,0,0
2024-02-06T13:58:53.360737780+00:00,0,1
2024-02-06T13:58:53.360738880+00:00,0,0
2024-02-06T13:58:53.551391800+00:00,1,0
2024-02-06T13:58:53.551441800+00:00,0,0
2024-02-06T13:58:53.570741000+00:00,0,1
2024-02-06T13:58:53.570742100+00:00,0,0
2024-02-06T13:58:53.751391120+00:00,1,0
2024-02-06T13:58:53.751441120+00:00,0,0
2024-02-06T13:58:53.780743860+00:00,0,1
2024-02-06T13:58:53.780744960+00:00,0,0
2024-02-06T13:58:53.951390440+00:00,1,0
2024-02-06T13:58:53.951440460+00:00,0,0
2024-02-06T13:58:53.960745520+00:00,0,1
2024-02-06T13:58:53.960746620+00:00,0,0
2024-02-06T13:58:54.151389780+00:00,1,0
2024-02-06T13:58:54.151439780+00:00,0,0
2024-02-06T13:58:54.170749860+00:00,0,1
2024-02-06T13:58:54.170750960+00:00,0,0
2024-02-06T13:58:54.351389100+00:00,1,0
2024-02-06T13:58:54.351439100+00:00,0,0
2024-02-06T13:58:54.380753520+00:00,0,1
2024-02-06T13:58:54.380754640+00:00,0,0
2024-02-06T13:58:54.551388420+00:00,1,0
2024-02-06T13:58:54.551438440+00:00,0,0
2024-02-06T13:58:54.560754800+00:00,0,1
2024-02-06T13:58:54.560755900+00:00,0,0
2024-02-06T13:58:54.751387760+00:00,1,0
2024-02-06T13:58:54.751437760+00:00,0,0
2024-02-06T13:58:54.770757980+00:00,0,1
2024-02-06T13:58:54.770759080+00:00,0,0
2024-02-06T13:58:54.951387080+00:00,1,0
2024-02-06T13:58:54.951437080+00:00,0,0
2024-02-06T13:58:54.980760300+00:00,0,1
2024-02-06T13:58:54.980761400+00:00,0,0
2024-02-06T13:58:55.151386400+00:00,1,0
2024-02-06T13:58:55.151436400+00:00,0,0
2024-02-06T13:58:55.160763680+00:00,0,1
2024-02-06T13:58:55.160764780+00:00,0,0
2024-02-06T13:58:55.351385720+00:00,1,0
2024-02-06T13:58:55.351435740+00:00,0,0
2024-02-06T13:58:55.370765840+00:00,0,1
2024-02-06T13:58:55.370766940+00:00,0,0
2024-02-06T13:58:55.551385060+00:00,1,0
2024-02-06T13:58:55.551435060+00:00,0,0
2024-02-06T13:58:55.580768720+00:00,0,1
2024-02-06T13:58:55.580769820+00:00,0,0
2024-02-06T13:58:55.751384380+00:00,1,0
2024-02-06T13:58:55.751434380+00:00,0,0
2024-02-06T13:58:55.760771140+00:00,0,1
2024-02-06T13:58:55.760772240+00:00,0,0
2024-02-06T13:58:55.951383700+00:00,1,0
2024-02-06T13:58:55.951433700+00:00,0,0
2024-02-06T13:58:55.970774380+00:00,0,1
2024-02-06T13:58:55.970775480+00:00,0,0
2024-02-06T13:58:56.151383020+00:00,1,0
2024-02-06T13:58:56.151433040+00:00,0,0
2024-02-06T13:58:56.180776920+00:00,0,1
2024-02-06T13:58:56.180778020+00:00,0,0
2024-02-06T13:58:56.351382360+00:00,1,0
2024-02-06T13:58:56.351432360+00:00,0,0
2024-02-06T13:58:56.360779920+00:00,0,1
2024-02-06T13:58:56.360781020+00:00,0,0
2024-02-06T13:58:56.551381680+00:00,1,0
2024-02-06T13:58:56.551431680+00:00,0,0
2024-02-06T13:58:56.570782720+00:00,0,1
2024-02-06T13:58:56.570783820+00:00,0,0
2024-02-06T13:58:56.751381000+00:00,1,0
2024-02-06T13:58:56.751431000+00:00,0,0
2024-02-06T13:58:56.780786440+00:00,0,1
2024-02-06T13:58:56.780787540+00:00,0,0
2024-02-06T13:58:56.951380320+00:00,1,0
2024-02-06T13:58:56.951430340+00:00,0,0
2024-02-06T13:58:56.960787240+00:00,0,1
2024-02-06T13:58:56.960788340+00:00,0,0
2024-02-06T13:58:57.151379660+00:00,1,0
2024-02-06T13:58:57.151429660+00:00,0,0
2024-02-06T13:58:57.170791140+00:00,0,1
2024-02-06T13:58:57.170792240+00:00,0,0
2024-02-06T13:58:57.351378980+00:00,1,0
2024-02-06T13:58:57.351428980+00:00,0,0
2024-02-06T13:58:57.380794260+00:00,0,1
2024-02-06T13:58:57.380795360+00:00,0,0
2024-02-06T13:58:57.551378300+00:00,1,0
2024-02-06T13:58:57.551428300+00:00,0,0
2024-02-06T13:58:57.560796960+00:00,0,1
2024-02-06T13:58:57.560798060+00:00,0,0
2024-02-06T13:58:57.751377620+00:00,1,0
2024-02-06T13:58:57.751427640+00:00,0,0
2024-02-06T13:58:57.770799720+00:00,0,1
2024-02-06T13:58:57.770800820+00:00,0,0
2024-02-06T13:58:57.951376960+00:00,1,0
2024-02-06T13:58:57.951426960+00:00,0,0
2024-02-06T13:58:57.980801760+00:00,0,1
2024-02-06T13:58:57.980802860+00:00,0,0
2024-02-06T13:58:58.151376280+00:00,1,0
2024-02-06T13:58:58.151426280+00:00,0,0
2024-02-06T13:58:58.160804360+00:00,0,1
2024-02-06T13:58:58.160805460+00:00,0,0
2024-02-06T13:58:58.351375600+00:00,1,0
2024-02-06T13:58:58.351425600+00:00,0,0
2024-02-06T13:58:58.370807780+00:00,0,1
2024-02-06T13:58:58.370808880+00:00,0,0
2024-02-06T13:58:58.551374920+00:00,1,0
2024-02-06T13:58:58.551424920+00:00,0,0
2024-02-06T13:58:58.580810040+00:00,0,1
2024-02-06T13:58:58.580811140+00:00,0,0
2024-02-06T13:58:58.751374240+00:00,1,0
2024-02-06T13:58:58.751424260+00:00,0,0
2024-02-06T13:58:58.760813160+00:00,0,1
2024-02-06T13:58:58.760814260+00:00,0,0
2024-02-06T13:58:58.951373580+00:00,1,0
2024-02-06T13:58:58.951423580+00:00,0,0
2024-02-06T13:58:58.970816240+00:00,0,1
2024-02-06T13:58:58.970817340+00:00,0,0
2024-02-06T13:58:59.151372900+00:00,1,0
2024-02-06T13:58:59.151422900+00:00,0,0
2024-02-06T13:58:59.180818860+00:00,0,1
2024-02-06T13:58:59.180819960+00:00,0,0
2024-02-06T13:58:59.351372220+00:00,1,0
2024-02-06T13:58:59.351422220+00:00,0,0
2024-02-06T13:58:59.360822100+00:00,0,1
2024-02-06T13:58:59.360823200+00:00,0,0
2024-02-06T13:58:59.551371540+00:00,1,0
2024-02-06T13:58:59.551421540+00:00,0,0
2024-02-06T13:58:59.570824520+00:00,0,1
2024-02-06T13:58:59.570825620+00:00,0,0
2024-02-06T13:58:59.751370860+00:00,1,0
2024-02-06T13:58:59.751420880+00:00,0,0
2024-02-06T13:58:59.780827640+00:00,0,1
2024-02-06T13:58:59.780828740+00:00,0,0
2024-02-06T13:58:59.951370200+00:00,1,0
2024-02-06T13:58:59.951420200+00:00,0,0
2024-02-06T13:58:59.960829700+00:00,0,1
2024-02-06T13:58:59.960830800+00:00,0,0
2024-02-06T13:59:00.151369520+00:00,1,0
2024-02-06T13:59:00.151419520+00:00,0,0
2024-02-06T13:59:00.170832360+00:00,0,1
2024-02-06T13:59:00.170833460+00:00,0,0
2024-02-06T13:59:00.351368840+00:00,1,0
2024-02-06T13:59:00.351418840+00:00,0,0
2024-02-06T13:59:00.380835780+00:00,0,1
2024-02-06T13:59:00.380836880+00:00,0,0
2024-02-06T13:59:00.551368160+00:00,1,0
2024-02-06T13:59:00.551418160+00:00,0,0
2024-02-06T13:59:00.560837400+00:00,0,1
2024-02-06T13:59:00.560838500+00:00,0,0
2024-02-06T13:59:00.751367480+00:00,1,0
2024-02-06T13:59:00.751417500+00:00,0,0
2024-02-06T13:59:00.770840960+00:00,0,1
2024-02-06T13:59:00.770842060+00:00,0,0
2024-02-06T13:59:00.951366800+00:00,1,0
2024-02-06T13:59:00.951416820+00:00,0,0
2024-02-06T13:59:00.980843080+00:00,0,1
2024-02-06T13:59:00.980844180+00:00,0,0
2024-02-06T13:59:01.151366140+00:00,1,0
2024-02-06T13:59:01.151416140+00:00,0,0
2024-02-06T13:59:01.160845940+00:00,0,1
2024-02-06T13:59:01.160847040+00:00,0,0
2024-02-06T13:59:01.351365460+00:00,1,0
2024-02-06T13:59:01.351415460+00:00,0,0
2024-02-06T13:59:01.370848480+00:00,0,1
2024-02-06T13:59:01.370849580+00:00,0,0
2024-02-06T13:59:01.551364780+00:00,1,0
2024-02-06T13:59:01.551414780+00:00,0,0
2024-02-06T13:59:01.580850940+00:00,0,1
2024-02-06T13:59:01.580852040+00:00,0,0
2024-02-06T13:59:01.751364100+00:00,1,0
2024-02-06T13:59:01.751414100+00:00,0,0
2024-02-06T13:59:01.760854660+00:00,0,1
2024-02-06T13:59:01.760855760+00:00,0,0
2024-02-06T13:59:01.951363420+00:00,1,0
2024-02-06T13:59:01.951413420+00:00,0,0
2024-02-06T13:59:01.970857460+00:00,0,1
2024-02-06T13:59:01.970858560+00:00,0,0
2024-02-06T13:59:02.151362740+00:00,1,0
2024-02-06T13:59:02.151412760+00:00,0,0
2024-02-06T13:59:02.180859780+00:00,0,1
2024-02-06T13:59:02.180860880+00:00,0,0
2024-02-06T13:59:02.351362080+00:00,1,0
2024-02-06T13:59:02.351412080+00:00,0,0
2024-02-06T13:59:02.360862460+00:00,0,1
2024-02-06T13:59:02.360863560+00:00,0,0
2024-02-06T13:59:02.551361400+00:00,1,0
2024-02-06T13:59:02.551411400+00:00,0,0
2024-02-06T13:59:02.570865560+00:00,0,1
2024-02-06T13:59:02.570866660+00:00,0,0
2024-02-06T13:59:02.751360720+00:00,1,0
2024-02-06T13:59:02.751410720+00:00,0,0
2024-02-06T13:59:02.780869720+00:00,0,1
2024-02-06T13:59:02.780870820+00:00,0,0
2024-02-06T13:59:02.951360040+00:00,1,0
2024-02-06T13:59:02.951410040+00:00,0,0
2024-02-06T13:59:02.960870840+00:00,0,1
2024-02-06T13:59:02.960871940+00:00,0,0
2024-02-06T13:59:03.151359360+00:00,1,0
2024-02-06T13:59:03.151409360+00:00,0,0
2024-02-06T13:59:03.170874240+00:00,0,1
2024-02-06T13:59:03.170875340+00:00,0,0
2024-02-06T13:59:03.351358680+00:00,1,0
2024-02-06T13:59:03.351408700+00:00,0,0
2024-02-06T13:59:03.380877240+00:00,0,1
2024-02-06T13:59:03.380878340+00:00,0,0
2024-02-06T13:59:03.551358000+00:00,1,0
2024-02-06T13:59:03.551408020+00:00,0,0
2024-02-06T13:59:03.560879300+00:00,0,1
2024-02-06T13:59:03.560880400+00:00,0,0
2024-02-06T13:59:03.751357340+00:00,1,0
2024-02-06T13:59:03.751407340+00:00,0,0
2024-02-06T13:59:03.770882160+00:00,0,1
2024-02-06T13:59:03.770883280+00:00,0,0
2024-02-06T13:59:03.951356660+00:00,1,0
2024-02-06T13:59:03.951406660+00:00,0,0
2024-02-06T13:59:03.980884800+00:00,0,1
2024-02-06T13:59:03.980885900+00:00,0,0
2024-02-06T13:59:04.151355980+00:00,1,0
2024-02-06T13:59:04.151405980+00:00,0,0
2024-02-06T13:59:04.160886960+00:00,0,1
2024-02-06T13:59:04.160888060+00:00,0,0
2024-02-06T13:59:04.351355300+00:00,1,0
2024-02-06T13:59:04.351405300+00:00,0,0
2024-02-06T13:59:04.370891220+00:00,0,1
2024-02-06T13:59:04.370892320+00:00,0,0
2024-02-06T13:59:04.551354620+00:00,1,0
2024-02-06T13:59:04.551404620+00:00,0,0
2024-02-06T13:59:04.580893760+00:00,0,1
2024-02-06T13:59:04.580894860+00:00,0,0
2024-02-06T13:59:04.751353940+00:00,1,0
2024-02-06T13:59:04.751403940+00:00,0,0
2024-02-06T13:59:04.760895980+00:00,0,1
2024-02-06T13:59:04.760897080+00:00,0,0
2024-02-06T13:59:04.951353260+00:00,1,0
2024-02-06T13:59:04.951403280+00:00,0,0
2024-02-06T13:59:04.970898860+00:00,0,1
2024-02-06T13:59:04.970899960+00:00,0,0
2024-02-06T13:59:05.151352580+00:00,1,0
2024-02-06T13:59:05.151402600+00:00,0,0
2024-02-06T13:59:05.180902080+00:00,0,1
2024-02-06T13:59:05.180903160+00:00,0,0
2024-02-06T13:59:05.351351900+00:00,1,0
2024-02-06T13:59:05.351401920+00:00,0,0
2024-02-06T13:59:05.360905020+00:00,0,1
2024-02-06T13:59:05.360906120+00:00,0,0
2024-02-06T13:59:05.551351240+00:00,1,0
2024-02-06T13:59:05.551401240+00:00,0,0
2024-02-06T13:59:05.570907340+00:00,0,1
2024-02-06T13:59:05.570908440+00:00,0,0
2024-02-06T13:59:05.751350560+00:00,1,0
2024-02-06T13:59:05.751400560+00:00,0,0
2024-02-06T13:59:05.780910840+00:00,0,1
2024-02-06T13:59:05.780911940+00:00,0,0
2024-02-06T13:59:05.951349880+00:00,1,0
2024-02-06T13:59:05.951399880+00:00,0,0
2024-02-06T13:59:05.960912120+00:00,0,1
2024-02-06T13:59:05.960913220+00:00,0,0
2024-02-06T13:59:06.151349200+00:00,1,0
2024-02-06T13:59:06.151399200+00:00,0,0
2024-02-06T13:59:06.170915400+00:00,0,1
2024-02-06T13:59:06.170916500+00:00,0,0
2024-02-06T13:59:06.351348520+00:00,1,0
2024-02-06T13:59:06.351398520+00:00,0,0
2024-02-06T13:59:06.380919260+00:00,0,1
2024-02-06T13:59:06.380920360+00:00,0,0
2024-02-06T13:59:06.551347840+00:00,1,0
2024-02-06T13:59:06.551397840+00:00,0,0
2024-02-06T13:59:06.560920960+00:00,0,1
2024-02-06T13:59:06.560922040+00:00,0,0
2024-02-06T13:59:06.751347160+00:00,1,0
2024-02-06T13:59:06.751397160+00:00,0,0
2024-02-06T13:59:06.770924260+00:00,0,1
2024-02-06T13:59:06.770925360+00:00,0,0
2024-02-06T13:59:06.951346480+00:00,1,0
2024-02-06T13:59:06.951396500+00:00,0,0
2024-02-06T13:59:06.980927040+00:00,0,1
2024-02-06T13:59:06.980928140+00:00,0,0
2024-02-06T13:59:07.151345800+00:00,1,0
2024-02-06T13:59:07.151395820+00:00,0,0
2024-02-06T13:59:07.160929520+00:00,0,1
2024-02-06T13:59:07.160930620+00:00,0,0
2024-02-06T13:59:07.351345120+00:00,1,0
2024-02-06T13:59:07.351395140+00:00,0,0
2024-02-06T13:59:07.370931760+00:00,0,1
2024-02-06T13:59:07.370932860+00:00,0,0
2024-02-06T13:59:07.551344440+00:00,1,0
2024-02-06T13:59:07.551394460+00:00,0,0
2024-02-06T13:59:07.580934700+00:00,0,1
2024-02-06T13:59:07.580935800+00:00,0,0
2024-02-06T13:59:07.751343780+00:00,1,0
2024-02-06T13:59:07.751393780+00:00,0,0
2024-02-06T13:59:07.760937140+00:00,0,1
2024-02-06T13:59:07.760938240+00:00,0,0
2024-02-06T13:59:07.951343100+00:00,1,0
2024-02-06T13:59:07.951393100+00:00,0,0
2024-02-06T13:59:07.970940100+00:00,0,1
2024-02-06T13:59:07.970941200+00:00,0,0
2024-02-06T13:59:08.151342420+00:00,1,0
2024-02-06T13:59:08.151392420+00:00,0,0
2024-02-06T13:59:08.180942520+00:00,0,1
2024-02-06T13:59:08.180943620+00:00,0,0
2024-02-06T13:59:08.351341740+00:00,1,0
2024-02-06T13:59:08.351391740+00:00,0,0
2024-02-06T13:59:08.360946640+00:00,0,1
2024-02-06T13:59:08.360947740+00:00,0,0
2024-02-06T13:59:08.551341060+00:00,1,0
2024-02-06T13:59:08.551391060+00:00,0,0
2024-02-06T13:59:08.570948900+00:00,0,1
2024-02-06T13:59:08.570949980+00:00,0,0
2024-02-06T13:59:08.751340380+00:00,1,0
2024-02-06T13:59:08.751390380+00:00,0,0
2024-02-06T13:59:08.780951920+00:00,0,1
2024-02-06T13:59:08.780953020+00:00,0,0
2024-02-06T13:59:08.951339700+00:00,1,0
2024-02-06T13:59:08.951389700+00:00,0,0
2024-02-06T13:59:08.960953500+00:00,0,1
2024-02-06T13:59:08.960954600+00:00,0,0
2024-02-06T13:59:09.151339020+00:00,1,0
2024-02-06T13:59:09.151389020+00:00,0,0
2024-02-06T13:59:09.170957320+00:00,0,1
2024-02-06T13:59:09.170958420+00:00,0,0
2024-02-06T13:59:09.351338340+00:00,1,0
2024-02-06T13:59:09.351388340+00:00,0,0
2024-02-06T13:59:09.380961280+00:00,0,1
2024-02-06T13:59:09.380962380+00:00,0,0
2024-02-06T13:59:09.551337660+00:00,1,0
2024-02-06T13:59:09.551387660+00:00,0,0
2024-02-06T13:59:09.560962160+00:00,0,1
2024-02-06T13:59:09.560963260+00:00,0,0
2024-02-06T13:59:09.751336980+00:00,1,0
2024-02-06T13:59:09.751387000+00:00,0,0
2024-02-06T13:59:09.770965540+00:00,0,1
2024-02-06T13:59:09.770966640+00:00,0,0
2024-02-06T13:59:09.951336300+00:00,1,0
2024-02-06T13:59:09.951386320+00:00,0,0
2024-02-06T13:59:09.980967780+00:00,0,1
2024-02-06T13:59:09.980968880+00:00,0,0
2024-02-06T13:59:10.151335620+00:00,1,0
2024-02-06T13:59:10.151385640+00:00,0,0
2024-02-06T13:59:10.160970480+00:00,0,1
2024-02-06T13:59:10.160971580+00:00,0,0
2024-02-06T13:59:10.351334940+00:00,1,0
2024-02-06T13:59:10.351384960+00:00,0,0
2024-02-06T13:59:10.370973620+00:00,0,1
2024-02-06T13:59:10.370974720+00:00,0,0
2024-02-06T13:59:10.551334260+00:00,1,0
2024-02-06T13:59:10.551384280+00:00,0,0
2024-02-06T13:59:10.580975760+00:00,0,1
2024-02-06T13:59:10.580976860+00:00,0,0
2024-02-06T13:59:10.751333580+00:00,1,0
2024-02-06T13:59:10.751383600+00:00,0,0
2024-02-06T13:59:10.760978960+00:00,0,1
2024-02-06T13:59:10.760980060+00:00,0,0
2024-02-06T13:59:10.951332920+00:00,1,0
2024-02-06T13:59:10.951382920+00:00,0,0
2024-02-06T13:59:10.970981060+00:00,0,1
2024-02-06T13:59:10.970982140+00:00,0,0
2024-02-06T13:59:11.151332240+00:00,1,0
2024-02-06T13:59:11.151382240+00:00,0,0
2024-02-06T13:59:11.180984500+00:00,0,1
2024-02-06T13:59:11.180985600+00:00,0,0
2024-02-06T13:59:11.351331560+00:00,1,0
2024-02-06T13:59:11.351381560+00:00,0,0
2024-02-06T13:59:11.360987720+00:00,0,1
2024-02-06T13:59:11.360988820+00:00,0,0
2024-02-06T13:59:11.551330880+00:00,1,0
2024-02-06T13:59:11.551380880+00:00,0,0
2024-02-06T13:59:11.570990640+00:00,0,1
2024-02-06T13:59:11.570991740+00:00,0,0
2024-02-06T13:59:11.751330200+00:00,1,0
2024-02-06T13:59:11.751380200+00:00,0,0
2024-02-06T13:59:11.780993820+00:00,0,1
2024-02-06T13:59:11.780994920+00:00,0,0
2024-02-06T13:59:11.951329520+00:00,1,0
2024-02-06T13:59:11.951379520+00:00,0,0
2024-02-06T13:59:11.960995960+00:00,0,1
2024-02-06T13:59:11.960997040+00:00,0,0
2024-02-06T13:59:12.151328840+00:00,1,0
2024-02-06T13:59:12.151378840+00:00,0,0
2024-02-06T13:59:12.170998560+00:00,0,1
2024-02-06T13:59:12.170999660+00:00,0,0
2024-02-06T13:59:12.351328160+00:00,1,0
2024-02-06T13:59:12.351378160+00:00,0,0
2024-02-06T13:59:12.381001620+00:00,0,1
2024-02-06T13:59:12.381002720+00:00,0,0
2024-02-06T13:59:12.551327480+00:00,1,0
2024-02-06T13:59:12.551377480+00:00,0,0
2024-02-06T13:59:12.561004400+00:00,0,1
2024-02-06T13:59:12.561005500+00:00,0,0
2024-02-06T13:59:12.751326800+00:00,1,0
2024-02-06T13:59:12.751376800+00:00,0,0
2024-02-06T13:59:12.771007640+00:00,0,1
2024-02-06T13:59:12.771008740+00:00,0,0
2024-02-06T13:59:12.951326120+00:00,1,0
2024-02-06T13:59:12.951376120+00:00,0,0
2024-02-06T13:59:12.981010180+00:00,0,1
2024-02-06T13:59:12.981011280+00:00,0,0
2024-02-06T13:59:13.151325440+00:00,1,0
2024-02-06T13:59:13.151375440+00:00,0,0
2024-02-06T13:59:13.161012880+00:00,0,1
2024-02-06T13:59:13.161013980+00:00,0,0
2024-02-06T13:59:13.351324760+00:00,1,0
2024-02-06T13:59:13.351374760+00:00,0,0
2024-02-06T13:59:13.371014920+00:00,0,1
2024-02-06T13:59:13.371016020+00:00,0,0
2024-02-06T13:59:13.551324080+00:00,1,0
2024-02-06T13:59:13.551374080+00:00,0,0
2024-02-06T13:59:13.581018380+00:00,0,1
2024-02-06T13:59:13.581019480+00:00,0,0
2024-02-06T13:59:13.751323400+00:00,1,0
2024-02-06T13:59:13.751373400+00:00,0,0
2024-02-06T13:59:13.761021760+00:00,0,1
2024-02-06T13:59:13.761022860+00:00,0,0
2024-02-06T13:59:13.951322720+00:00,1,0
2024-02-06T13:59:13.951372720+00:00,0,0
2024-02-06T13:59:13.971023960+00:00,0,1
2024-02-06T13:59:13.971025060+00:00,0,0
2024-02-06T13:59:14.151322040+00:00,1,0
2024-02-06T13:59:14.151372040+00:00,0,0
2024-02-06T13:59:14.181026920+00:00,0,1
2024-02-06T13:59:14.181028020+00:00,0,0
2024-02-06T13:59:14.351321360+00:00,1,0
2024-02-06T13:59:14.351371360+00:00,0,0
2024-02-06T13:59:14.361030000+00:00,0,1
2024-02-06T13:59:14.361031100+00:00,0,0
2024-02-06T13:59:14.551320680+00:00,1,0
2024-02-06T13:59:14.551370680+00:00,0,0
2024-02-06T13:59:14.571032100+00:00,0,1
2024-02-06T13:59:14.571033200+00:00,0,0
2024-02-06T13:59:14.751320000+00:00,1,0
2024-02-06T13:59:14.751370020+00:00,0,0
