Time [s],Channel 0,Channel 1
2024-02-06T13:48:23.770685000+00:00,0,0
2024-02-06T13:48:23.902057500+00:00,1,0
2024-02-06T13:48:23.902107500+00:00,0,0
2024-02-06T13:48:23.932487300+00:00,0,1
2024-02-06T13:48:23.932488400+00:00,0,0
2024-02-06T13:48:24.153056700+00:00,1,0
2024-02-06T13:48:24.153106720+00:00,0,0
2024-02-06T13:48:24.172501760+00:00,0,1
2024-02-06T13:48:24.172502860+00:00,0,0
2024-02-06T13:48:24.404055920+00:00,1,0
2024-02-06T13:48:24.404105920+00:00,0,0
2024-02-06T13:48:24.412500260+00:00,0,1
2024-02-06T13:48:24.412501360+00:00,0,0
2024-02-06T13:48:24.655055140+00:00,1,0
2024-02-06T13:48:24.655105140+00:00,0,0
2024-02-06T13:48:24.682497560+00:00,0,1
2024-02-06T13:48:24.682498660+00:00,0,0
2024-02-06T13:48:24.906054340+00:00,1,0
2024-02-06T13:48:24.906104340+00:00,0,0
2024-02-06T13:48:24.922516360+00:00,0,1
2024-02-06T13:48:24.922517460+00:00,0,0
2024-02-06T13:48:25.157053560+00:00,1,0
2024-02-06T13:48:25.157103560+00:00,0,0
2024-02-06T13:48:25.162510500+00:00,0,1
2024-02-06T13:48:25.162511600+00:00,0,0
2024-02-06T13:48:25.408052760+00:00,1,0
2024-02-06T13:48:25.408102760+00:00,0,0
2024-02-06T13:48:25.432507940+00:00,0,1
2024-02-06T13:48:25.432509020+00:00,0,0
2024-02-06T13:48:25.659051980+00:00,1,0
2024-02-06T13:48:25.659101980+00:00,0,0
2024-02-06T13:48:25.672526880+00:00,0,1
2024-02-06T13:48:25.672527980+00:00,0,0
2024-02-06T13:48:25.910051180+00:00,1,0
2024-02-06T13:48:25.910101200+00:00,0,0
2024-02-06T13:48:25.912521320+00:00,0,1
2024-02-06T13:48:25.912522420+00:00,0,0
2024-02-06T13:48:26.161050400+00:00,1,0
2024-02-06T13:48:26.161100400+00:00,0,0
2024-02-06T13:48:26.182518420+00:00,0,1
2024-02-06T13:48:26.182519520+00:00,0,0
2024-02-06T13:48:26.412049600+00:00,1,0
2024-02-06T13:48:26.412099620+00:00,0,0
2024-02-06T13:48:26.422533440+00:00,0,1
2024-02-06T13:48:26.422534520+00:00,0,0
2024-02-06T13:48:26.663048820+00:00,1,0
2024-02-06T13:48:26.663098820+00:00,0,0
2024-02-06T13:48:26.692530740+00:00,0,1
2024-02-06T13:48:26.692531820+00:00,0,0
2024-02-06T13:48:26.914048020+00:00,1,0
2024-02-06T13:48:26.914098040+00:00,0,0
2024-02-06T13:48:26.932529000+00:00,0,1
2024-02-06T13:48:26.932530100+00:00,0,0
2024-02-06T13:48:27.165047240+00:00,1,0
2024-02-06T13:48:27.165097240+00:00,0,0
2024-02-06T13:48:27.172547940+00:00,0,1
2024-02-06T13:48:27.172549040+00:00,0,0
2024-02-06T13:48:27.416046440+00:00,1,0
2024-02-06T13:48:27.416096460+00:00,0,0
2024-02-06T13:48:27.442541440+00:00,0,1
2024-02-06T13:48:27.442542540+00:00,0,0
2024-02-06T13:48:27.667045660+00:00,1,0
2024-02-06T13:48:27.667095660+00:00,0,0
2024-02-06T13:48:27.682539060+00:00,0,1
2024-02-06T13:48:27.682540160+00:00,0,0
2024-02-06T13:48:27.918044860+00:00,1,0
2024-02-06T13:48:27.918094880+00:00,0,0
2024-02-06T13:48:27.922554060+00:00,0,1
2024-02-06T13:48:27.922555160+00:00,0,0
2024-02-06T13:48:28.169044080+00:00,1,0
2024-02-06T13:48:28.169094080+00:00,0,0
2024-02-06T13:48:28.192551420+00:00,0,1
2024-02-06T13:48:28.192552520+00:00,0,0
2024-02-06T13:48:28.420043280+00:00,1,0
2024-02-06T13:48:28.420093300+00:00,0,0
2024-02-06T13:48:28.432549620+00:00,0,1
2024-02-06T13:48:28.432550700+00:00,0,0
2024-02-06T13:48:28.671042500+00:00,1,0
2024-02-06T13:48:28.671092500+00:00,0,0
2024-02-06T13:48:28.672568880+00:00,0,1
2024-02-06T13:48:28.672569980+00:00,0,0
2024-02-06T13:48:28.922041700+00:00,1,0
2024-02-06T13:48:28.922091700+00:00,0,0
2024-02-06T13:48:28.942562340+00:00,0,1
2024-02-06T13:48:28.942563420+00:00,0,0
2024-02-06T13:48:29.173040920+00:00,1,0
2024-02-06T13:48:29.173090920+00:00,0,0
2024-02-06T13:48:29.182560120+00:00,0,1
2024-02-06T13:48:29.182561220+00:00,0,0
2024-02-06T13:48:29.424040120+00:00,1,0
2024-02-06T13:48:29.424090120+00:00,0,0
2024-02-06T13:48:29.452578760+00:00,0,1
2024-02-06T13:48:29.452579860+00:00,0,0
2024-02-06T13:48:29.675039340+00:00,1,0
2024-02-06T13:48:29.675089340+00:00,0,0
2024-02-06T13:48:29.692572320+00:00,0,1
2024-02-06T13:48:29.692573420+00:00,0,0
2024-02-06T13:48:29.926038540+00:00,1,0
2024-02-06T13:48:29.926088540+00:00,0,0
2024-02-06T13:48:29.932570260+00:00,0,1
2024-02-06T13:48:29.932571340+00:00,0,0
2024-02-06T13:48:30.177037740+00:00,1,0
2024-02-06T13:48:30.177087760+00:00,0,0
2024-02-06T13:48:30.202588880+00:00,0,1
2024-02-06T13:48:30.202589980+00:00,0,0
2024-02-06T13:48:30.428036960+00:00,1,0
2024-02-06T13:48:30.428086960+00:00,0,0
2024-02-06T13:48:30.442583180+00:00,0,1
2024-02-06T13:48:30.442584260+00:00,0,0
2024-02-06T13:48:30.679036160+00:00,1,0
2024-02-06T13:48:30.679086180+00:00,0,0
2024-02-06T13:48:30.682580720+00:00,0,1
2024-02-06T13:48:30.682581820+00:00,0,0
2024-02-06T13:48:30.930035380+00:00,1,0
2024-02-06T13:48:30.930085380+00:00,0,0
2024-02-06T13:48:30.952599600+00:00,0,1
2024-02-06T13:48:30.952600680+00:00,0,0
2024-02-06T13:48:31.181034580+00:00,1,0
2024-02-06T13:48:31.181084580+00:00,0,0
2024-02-06T13:48:31.192593020+00:00,0,1
2024-02-06T13:48:31.192594120+00:00,0,0
2024-02-06T13:48:31.432033780+00:00,1,0
2024-02-06T13:48:31.432083800+00:00,0,0
2024-02-06T13:48:31.462590800+00:00,0,1
2024-02-06T13:48:31.462591880+00:00,0,0
2024-02-06T13:48:31.683033000+00:00,1,0
2024-02-06T13:48:31.683083000+00:00,0,0
2024-02-06T13:48:31.702609740+00:00,0,1
2024-02-06T13:48:31.702610840+00:00,0,0
2024-02-06T13:48:31.934032200+00:00,1,0
2024-02-06T13:48:31.934082220+00:00,0,0
2024-02-06T13:48:31.942603840+00:00,0,1
2024-02-06T13:48:31.942604940+00:00,0,0
2024-02-06T13:48:32.185031420+00:00,1,0
2024-02-06T13:48:32.185081420+00:00,0,0
2024-02-06T13:48:32.212600980+00:00,0,1
2024-02-06T13:48:32.212602080+00:00,0,0
2024-02-06T13:48:32.436030620+00:00,1,0
2024-02-06T13:48:32.436080620+00:00,0,0
2024-02-06T13:48:32.452620540+00:00,0,1
2024-02-06T13:48:32.452621620+00:00,0,0
2024-02-06T13:48:32.687029820+00:00,1,0
2024-02-06T13:48:32.687079840+00:00,0,0
2024-02-06T13:48:32.692614100+00:00,0,1
2024-02-06T13:48:32.692615180+00:00,0,0
2024-02-06T13:48:32.938029040+00:00,1,0
2024-02-06T13:48:32.938079040+00:00,0,0
2024-02-06T13:48:32.962611520+00:00,0,1
2024-02-06T13:48:32.962612620+00:00,0,0
2024-02-06T13:48:33.189028240+00:00,1,0
2024-02-06T13:48:33.189078260+00:00,0,0
2024-02-06T13:48:33.202630380+00:00,0,1
2024-02-06T13:48:33.202631480+00:00,0,0
2024-02-06T13:48:33.440027460+00:00,1,0
2024-02-06T13:48:33.440077460+00:00,0,0
2024-02-06T13:48:33.442624500+00:00,0,1
2024-02-06T13:48:33.442625600+00:00,0,0
2024-02-06T13:48:33.691026660+00:00,1,0
2024-02-06T13:48:33.691076660+00:00,0,0
2024-02-06T13:48:33.712622160+00:00,0,1
2024-02-06T13:48:33.712623260+00:00,0,0
2024-02-06T13:48:33.942025860+00:00,1,0
2024-02-06T13:48:33.942075880+00:00,0,0
2024-02-06T13:48:33.952641100+00:00,0,1
2024-02-06T13:48:33.952642200+00:00,0,0
2024-02-06T13:48:34.193025080+00:00,1,0
2024-02-06T13:48:34.193075080+00:00,0,0
2024-02-06T13:48:34.222633940+00:00,0,1
2024-02-06T13:48:34.222635020+00:00,0,0
2024-02-06T13:48:34.444024280+00:00,1,0
2024-02-06T13:48:34.444074280+00:00,0,0
2024-02-06T13:48:34.462632520+00:00,0,1
2024-02-06T13:48:34.462633620+00:00,0,0
2024-02-06T13:48:34.695023480+00:00,1,0
2024-02-06T13:48:34.695073500+00:00,0,0
2024-02-06T13:48:34.702651500+00:00,0,1
2024-02-06T13:48:34.702652600+00:00,0,0
2024-02-06T13:48:34.946022700+00:00,1,0
2024-02-06T13:48:34.946072700+00:00,0,0
2024-02-06T13:48:34.972644600+00:00,0,1
2024-02-06T13:48:34.972645700+00:00,0,0
2024-02-06T13:48:35.197021900+00:00,1,0
2024-02-06T13:48:35.197071900+00:00,0,0
2024-02-06T13:48:35.212642780+00:00,0,1
2024-02-06T13:48:35.212643880+00:00,0,0
2024-02-06T13:48:35.448021100+00:00,1,0
2024-02-06T13:48:35.448071120+00:00,0,0
2024-02-06T13:48:35.452662320+00:00,0,1
2024-02-06T13:48:35.452663420+00:00,0,0
2024-02-06T13:48:35.699020320+00:00,1,0
2024-02-06T13:48:35.699070320+00:00,0,0
2024-02-06T13:48:35.722654540+00:00,0,1
2024-02-06T13:48:35.722655640+00:00,0,0
2024-02-06T13:48:35.950019520+00:00,1,0
2024-02-06T13:48:35.950069520+00:00,0,0
2024-02-06T13:48:35.962653220+00:00,0,1
2024-02-06T13:48:35.962654320+00:00,0,0
2024-02-06T13:48:36.201018720+00:00,1,0
2024-02-06T13:48:36.201068740+00:00,0,0
2024-02-06T13:48:36.202672360+00:00,0,1
2024-02-06T13:48:36.202673440+00:00,0,0
2024-02-06T13:48:36.452017940+00:00,1,0
2024-02-06T13:48:36.452067940+00:00,0,0
2024-02-06T13:48:36.472665380+00:00,0,1
2024-02-06T13:48:36.472666460+00:00,0,0
2024-02-06T13:48:36.703017140+00:00,1,0
2024-02-06T13:48:36.703067140+00:00,0,0
2024-02-06T13:48:36.712663640+00:00,0,1
2024-02-06T13:48:36.712664740+00:00,0,0
2024-02-06T13:48:36.954016340+00:00,1,0
2024-02-06T13:48:36.954066360+00:00,0,0
2024-02-06T13:48:36.982682200+00:00,0,1
2024-02-06T13:48:36.982683300+00:00,0,0
2024-02-06T13:48:37.205015560+00:00,1,0
2024-02-06T13:48:37.205065560+00:00,0,0
2024-02-06T13:48:37.222675520+00:00,0,1
2024-02-06T13:48:37.222676620+00:00,0,0
2024-02-06T13:48:37.456014760+00:00,1,0
2024-02-06T13:48:37.456064760+00:00,0,0
2024-02-06T13:48:37.462674000+00:00,0,1
2024-02-06T13:48:37.462675100+00:00,0,0
2024-02-06T13:48:37.707013960+00:00,1,0
2024-02-06T13:48:37.707063960+00:00,0,0
2024-02-06T13:48:37.732692620+00:00,0,1
2024-02-06T13:48:37.732693720+00:00,0,0
2024-02-06T13:48:37.958013160+00:00,1,0
2024-02-06T13:48:37.958063180+00:00,0,0
2024-02-06T13:48:37.972686440+00:00,0,1
2024-02-06T13:48:37.972687520+00:00,0,0
2024-02-06T13:48:38.209012380+00:00,1,0
2024-02-06T13:48:38.209062380+00:00,0,0
2024-02-06T13:48:38.212684440+00:00,0,1
2024-02-06T13:48:38.212685520+00:00,0,0
2024-02-06T13:48:38.460011580+00:00,1,0
2024-02-06T13:48:38.460061580+00:00,0,0
2024-02-06T13:48:38.482703020+00:00,0,1
2024-02-06T13:48:38.482704120+00:00,0,0
2024-02-06T13:48:38.711010780+00:00,1,0
2024-02-06T13:48:38.711060800+00:00,0,0
2024-02-06T13:48:38.722696560+00:00,0,1
2024-02-06T13:48:38.722697660+00:00,0,0
2024-02-06T13:48:38.962010000+00:00,1,0
2024-02-06T13:48:38.962060000+00:00,0,0
2024-02-06T13:48:38.992715680+00:00,0,1
2024-02-06T13:48:38.992716760+00:00,0,0
2024-02-06T13:48:39.213009200+00:00,1,0
2024-02-06T13:48:39.213059200+00:00,0,0
2024-02-06T13:48:39.232713140+00:00,0,1
2024-02-06T13:48:39.232714240+00:00,0,0
2024-02-06T13:48:39.464008400+00:00,1,0
2024-02-06T13:48:39.464058400+00:00,0,0
2024-02-06T13:48:39.472707080+00:00,0,1
2024-02-06T13:48:39.472708180+00:00,0,0
2024-02-06T13:48:39.715007600+00:00,1,0
2024-02-06T13:48:39.715057620+00:00,0,0
2024-02-06T13:48:39.742725720+00:00,0,1
2024-02-06T13:48:39.742726820+00:00,0,0
2024-02-06T13:48:39.966006820+00:00,1,0
2024-02-06T13:48:39.966056820+00:00,0,0
2024-02-06T13:48:39.982723840+00:00,0,1
2024-02-06T13:48:39.982724940+00:00,0,0
2024-02-06T13:48:40.217006020+00:00,1,0
2024-02-06T13:48:40.217056020+00:00,0,0
2024-02-06T13:48:40.222717460+00:00,0,1
2024-02-06T13:48:40.222718540+00:00,0,0
2024-02-06T13:48:40.468005220+00:00,1,0
2024-02-06T13:48:40.468055220+00:00,0,0
2024-02-06T13:48:40.492736420+00:00,0,1
2024-02-06T13:48:40.492737500+00:00,0,0
2024-02-06T13:48:40.719004420+00:00,1,0
2024-02-06T13:48:40.719054440+00:00,0,0
2024-02-06T13:48:40.732734340+00:00,0,1
2024-02-06T13:48:40.732735420+00:00,0,0
2024-02-06T13:48:40.970003640+00:00,1,0
2024-02-06T13:48:40.970053640+00:00,0,0
2024-02-06T13:48:40.972728100+00:00,0,1
2024-02-06T13:48:40.972729200+00:00,0,0
2024-02-06T13:48:41.221002840+00:00,1,0
2024-02-06T13:48:41.221052840+00:00,0,0
2024-02-06T13:48:41.242746640+00:00,0,1
2024-02-06T13:48:41.242747720+00:00,0,0
2024-02-06T13:48:41.472002040+00:00,1,0
2024-02-06T13:48:41.472052040+00:00,0,0
2024-02-06T13:48:41.482744720+00:00,0,1
2024-02-06T13:48:41.482745820+00:00,0,0
2024-02-06T13:48:41.723001240+00:00,1,0
2024-02-06T13:48:41.723051260+00:00,0,0
2024-02-06T13:48:41.752737320+00:00,0,1
2024-02-06T13:48:41.752738420+00:00,0,0
2024-02-06T13:48:41.974000460+00:00,1,0
2024-02-06T13:48:41.974050460+00:00,0,0
2024-02-06T13:48:41.992735600+00:00,0,1
2024-02-06T13:48:41.992736700+00:00,0,0
2024-02-06T13:48:42.224999660+00:00,1,0
2024-02-06T13:48:42.225049660+00:00,0,0
2024-02-06T13:48:42.232755140+00:00,0,1
2024-02-06T13:48:42.232756240+00:00,0,0
2024-02-06T13:48:42.475998860+00:00,1,0
2024-02-06T13:48:42.476048860+00:00,0,0
2024-02-06T13:48:42.502748140+00:00,0,1
2024-02-06T13:48:42.502749240+00:00,0,0
2024-02-06T13:48:42.726998060+00:00,1,0
2024-02-06T13:48:42.727048080+00:00,0,0
2024-02-06T13:48:42.742745960+00:00,0,1
2024-02-06T13:48:42.742747040+00:00,0,0
2024-02-06T13:48:42.977997260+00:00,1,0
2024-02-06T13:48:42.978047280+00:00,0,0
2024-02-06T13:48:42.982765700+00:00,0,1
2024-02-06T13:48:42.982766800+00:00,0,0
2024-02-06T13:48:43.228996480+00:00,1,0
2024-02-06T13:48:43.229046480+00:00,0,0
2024-02-06T13:48:43.252758220+00:00,0,1
2024-02-06T13:48:43.252759320+00:00,0,0
2024-02-06T13:48:43.479995680+00:00,1,0
2024-02-06T13:48:43.480045680+00:00,0,0
2024-02-06T13:48:43.492778280+00:00,0,1
2024-02-06T13:48:43.492779380+00:00,0,0
2024-02-06T13:48:43.730994880+00:00,1,0
2024-02-06T13:48:43.731044880+00:00,0,0
2024-02-06T13:48:43.732776020+00:00,0,1
2024-02-06T13:48:43.732777100+00:00,0,0
2024-02-06T13:48:43.981994080+00:00,1,0
2024-02-06T13:48:43.982044100+00:00,0,0
2024-02-06T13:48:44.002769120+00:00,0,1
2024-02-06T13:48:44.002770220+00:00,0,0
2024-02-06T13:48:44.232993280+00:00,1,0
2024-02-06T13:48:44.233043300+00:00,0,0
2024-02-06T13:48:44.242788420+00:00,0,1
2024-02-06T13:48:44.242789500+00:00,0,0
2024-02-06T13:48:44.483992500+00:00,1,0
2024-02-06T13:48:44.484042500+00:00,0,0
2024-02-06T13:48:44.512785320+00:00,0,1
2024-02-06T13:48:44.512786420+00:00,0,0
2024-02-06T13:48:44.734991700+00:00,1,0
2024-02-06T13:48:44.735041700+00:00,0,0
2024-02-06T13:48:44.752779020+00:00,0,1
2024-02-06T13:48:44.752780120+00:00,0,0
2024-02-06T13:48:44.985990900+00:00,1,0
2024-02-06T13:48:44.986040900+00:00,0,0
2024-02-06T13:48:44.992799080+00:00,0,1
2024-02-06T13:48:44.992800180+00:00,0,0
2024-02-06T13:48:45.236990100+00:00,1,0
2024-02-06T13:48:45.237040120+00:00,0,0
2024-02-06T13:48:45.262796020+00:00,0,1
2024-02-06T13:48:45.262797100+00:00,0,0
2024-02-06T13:48:45.487989300+00:00,1,0
2024-02-06T13:48:45.488039320+00:00,0,0
2024-02-06T13:48:45.502789580+00:00,0,1
2024-02-06T13:48:45.502790680+00:00,0,0
2024-02-06T13:48:45.738988520+00:00,1,0
2024-02-06T13:48:45.739038520+00:00,0,0
2024-02-06T13:48:45.742809280+00:00,0,1
2024-02-06T13:48:45.742810380+00:00,0,0
2024-02-06T13:48:45.989987720+00:00,1,0
2024-02-06T13:48:45.990037720+00:00,0,0
2024-02-06T13:48:46.012806780+00:00,0,1
2024-02-06T13:48:46.012807880+00:00,0,0
2024-02-06T13:48:46.240986920+00:00,1,0
2024-02-06T13:48:46.241036920+00:00,0,0
2024-02-06T13:48:46.252799780+00:00,0,1
2024-02-06T13:48:46.252800880+00:00,0,0
2024-02-06T13:48:46.491986120+00:00,1,0
2024-02-06T13:48:46.492036120+00:00,0,0
2024-02-06T13:48:46.522818940+00:00,0,1
2024-02-06T13:48:46.522820040+00:00,0,0
2024-02-06T13:48:46.742985320+00:00,1,0
2024-02-06T13:48:46.743035340+00:00,0,0
2024-02-06T13:48:46.762816560+00:00,0,1
2024-02-06T13:48:46.762817660+00:00,0,0
2024-02-06T13:48:46.993984520+00:00,1,0
2024-02-06T13:48:46.994034540+00:00,0,0
2024-02-06T13:48:47.002810640+00:00,0,1
2024-02-06T13:48:47.002811740+00:00,0,0
2024-02-06T13:48:47.244983740+00:00,1,0
2024-02-06T13:48:47.245033740+00:00,0,0
2024-02-06T13:48:47.272829240+00:00,0,1
2024-02-06T13:48:47.272830340+00:00,0,0
2024-02-06T13:48:47.495982940+00:00,1,0
2024-02-06T13:48:47.496032940+00:00,0,0
2024-02-06T13:48:47.512827660+00:00,0,1
2024-02-06T13:48:47.512828760+00:00,0,0
2024-02-06T13:48:47.746982140+00:00,1,0
2024-02-06T13:48:47.747032140+00:00,0,0
2024-02-06T13:48:47.752820760+00:00,0,1
2024-02-06T13:48:47.752821840+00:00,0,0
2024-02-06T13:48:47.997981340+00:00,1,0
2024-02-06T13:48:47.998031340+00:00,0,0
2024-02-06T13:48:48.022839660+00:00,0,1
2024-02-06T13:48:48.022840760+00:00,0,0
2024-02-06T13:48:48.248980540+00:00,1,0
2024-02-06T13:48:48.249030560+00:00,0,0
2024-02-06T13:48:48.262837740+00:00,0,1
2024-02-06T13:48:48.262838840+00:00,0,0
2024-02-06T13:48:48.499979740+00:00,1,0
2024-02-06T13:48:48.500029760+00:00,0,0
2024-02-06T13:48:48.502831380+00:00,0,1
2024-02-06T13:48:48.502832460+00:00,0,0
2024-02-06T13:48:48.750978940+00:00,1,0
2024-02-06T13:48:48.751028960+00:00,0,0
2024-02-06T13:48:48.772849940+00:00,0,1
2024-02-06T13:48:48.772851040+00:00,0,0
2024-02-06T13:48:49.001978160+00:00,1,0
2024-02-06T13:48:49.002028160+00:00,0,0
2024-02-06T13:48:49.012848120+00:00,0,1
2024-02-06T13:48:49.012849220+00:00,0,0
2024-02-06T13:48:49.252977360+00:00,1,0
2024-02-06T13:48:49.253027360+00:00,0,0
2024-02-06T13:48:49.282840700+00:00,0,1
2024-02-06T13:48:49.282841800+00:00,0,0
2024-02-06T13:48:49.503976560+00:00,1,0
2024-02-06T13:48:49.504026560+00:00,0,0
2024-02-06T13:48:49.522860620+00:00,0,1
2024-02-06T13:48:49.522861720+00:00,0,0
2024-02-06T13:48:49.754975760+00:00,1,0
2024-02-06T13:48:49.755025760+00:00,0,0
2024-02-06T13:48:49.762858220+00:00,0,1
2024-02-06T13:48:49.762859300+00:00,0,0
2024-02-06T13:48:50.005974960+00:00,1,0
2024-02-06T13:48:50.006024960+00:00,0,0
2024-02-06T13:48:50.032851320+00:00,0,1
2024-02-06T13:48:50.032852420+00:00,0,0
2024-02-06T13:48:50.256974160+00:00,1,0
2024-02-06T13:48:50.257024180+00:00,0,0
2024-02-06T13:48:50.272870920+00:00,0,1
2024-02-06T13:48:50.272872020+00:00,0,0
2024-02-06T13:48:50.507973360+00:00,1,0
2024-02-06T13:48:50.508023380+00:00,0,0
2024-02-06T13:48:50.512868820+00:00,0,1
2024-02-06T13:48:50.512869920+00:00,0,0
2024-02-06T13:48:50.758972560+00:00,1,0
2024-02-06T13:48:50.759022580+00:00,0,0
2024-02-06T13:48:50.782861380+00:00,0,1
2024-02-06T13:48:50.782862480+00:00,0,0
2024-02-06T13:48:51.009971780+00:00,1,0
2024-02-06T13:48:51.010021780+00:00,0,0
2024-02-06T13:48:51.022881380+00:00,0,1
2024-02-06T13:48:51.022882480+00:00,0,0
2024-02-06T13:48:51.260970980+00:00,1,0
2024-02-06T13:48:51.261020980+00:00,0,0
2024-02-06T13:48:51.262879100+00:00,0,1
2024-02-06T13:48:51.262880200+00:00,0,0
2024-02-06T13:48:51.511970180+00:00,1,0
2024-02-06T13:48:51.512020180+00:00,0,0
2024-02-06T13:48:51.532872180+00:00,0,1
2024-02-06T13:48:51.532873260+00:00,0,0
2024-02-06T13:48:51.762969380+00:00,1,0
2024-02-06T13:48:51.763019380+00:00,0,0
2024-02-06T13:48:51.772891440+00:00,0,1
2024-02-06T13:48:51.772892520+00:00,0,0
2024-02-06T13:48:52.013968580+00:00,1,0
2024-02-06T13:48:52.014018580+00:00,0,0
2024-02-06T13:48:52.042889280+00:00,0,1
2024-02-06T13:48:52.042890380+00:00,0,0
2024-02-06T13:48:52.264967780+00:00,1,0
2024-02-06T13:48:52.265017780+00:00,0,0
2024-02-06T13:48:52.282882420+00:00,0,1
2024-02-06T13:48:52.282883520+00:00,0,0
2024-02-06T13:48:52.515966980+00:00,1,0
2024-02-06T13:48:52.516016980+00:00,0,0
2024-02-06T13:48:52.522902120+00:00,0,1
2024-02-06T13:48:52.522903220+00:00,0,0
2024-02-06T13:48:52.766966180+00:00,1,0
2024-02-06T13:48:52.767016180+00:00,0,0
2024-02-06T13:48:52.792899100+00:00,0,1
2024-02-06T13:48:52.792900200+00:00,0,0
2024-02-06T13:48:53.017965380+00:00,1,0
2024-02-06T13:48:53.018015400+00:00,0,0
2024-02-06T13:48:53.032892680+00:00,0,1
2024-02-06T13:48:53.032893780+00:00,0,0
2024-02-06T13:48:53.268964580+00:00,1,0
2024-02-06T13:48:53.269014600+00:00,0,0
2024-02-06T13:48:53.272912540+00:00,0,1
2024-02-06T13:48:53.272913620+00:00,0,0
2024-02-06T13:48:53.519963780+00:00,1,0
2024-02-06T13:48:53.520013800+00:00,0,0
2024-02-06T13:48:53.542909720+00:00,0,1
2024-02-06T13:48:53.542910820+00:00,0,0
2024-02-06T13:48:53.770962980+00:00,1,0
2024-02-06T13:48:53.771013000+00:00,0,0
2024-02-06T13:48:53.782903320+00:00,0,1
2024-02-06T13:48:53.782904420+00:00,0,0
2024-02-06T13:48:54.021962200+00:00,1,0
2024-02-06T13:48:54.022012200+00:00,0,0
2024-02-06T13:48:54.052922040+00:00,0,1
2024-02-06T13:48:54.052923120+00:00,0,0
2024-02-06T13:48:54.272961400+00:00,1,0
2024-02-06T13:48:54.273011400+00:00,0,0
2024-02-06T13:48:54.292920140+00:00,0,1
2024-02-06T13:48:54.292921240+00:00,0,0
2024-02-06T13:48:54.523960600+00:00,1,0
2024-02-06T13:48:54.524010600+00:00,0,0
2024-02-06T13:48:54.532913600+00:00,0,1
2024-02-06T13:48:54.532914700+00:00,0,0
2024-02-06T13:48:54.774959800+00:00,1,0
2024-02-06T13:48:54.775009800+00:00,0,0
2024-02-06T13:48:54.802932560+00:00,0,1
2024-02-06T13:48:54.802933640+00:00,0,0
2024-02-06T13:48:55.025959000+00:00,1,0
2024-02-06T13:48:55.026009000+00:00,0,0
